,time_seconds,event,pod,size,experiment,iteration
0,9.976,watch_create,all,16,pods,10
1,33.156,watch_delete,all,16,pods,10
2,0.0,PodScheduled,pod-0,16,pods,10
3,0.0,Initialized,pod-0,16,pods,10
4,2.0,Ready,pod-0,16,pods,10
5,2.0,ContainersReady,pod-0,16,pods,10
6,0.0,PodScheduled,pod-1,16,pods,10
7,0.0,Initialized,pod-1,16,pods,10
8,4.0,Ready,pod-1,16,pods,10
9,4.0,ContainersReady,pod-1,16,pods,10
10,0.0,PodScheduled,pod-2,16,pods,10
11,0.0,Initialized,pod-2,16,pods,10
12,3.0,Ready,pod-2,16,pods,10
13,3.0,ContainersReady,pod-2,16,pods,10
14,0.0,PodScheduled,pod-3,16,pods,10
15,0.0,Initialized,pod-3,16,pods,10
16,3.0,Ready,pod-3,16,pods,10
17,3.0,ContainersReady,pod-3,16,pods,10
18,0.0,PodScheduled,pod-4,16,pods,10
19,0.0,Initialized,pod-4,16,pods,10
20,5.0,Ready,pod-4,16,pods,10
21,5.0,ContainersReady,pod-4,16,pods,10
22,0.0,PodScheduled,pod-5,16,pods,10
23,0.0,Initialized,pod-5,16,pods,10
24,5.0,Ready,pod-5,16,pods,10
25,5.0,ContainersReady,pod-5,16,pods,10
26,0.0,PodScheduled,pod-6,16,pods,10
27,0.0,Initialized,pod-6,16,pods,10
28,4.0,Ready,pod-6,16,pods,10
29,4.0,ContainersReady,pod-6,16,pods,10
30,0.0,PodScheduled,pod-7,16,pods,10
31,0.0,Initialized,pod-7,16,pods,10
32,9.0,Ready,pod-7,16,pods,10
33,9.0,ContainersReady,pod-7,16,pods,10
34,0.0,PodScheduled,pod-8,16,pods,10
35,0.0,Initialized,pod-8,16,pods,10
36,10.0,Ready,pod-8,16,pods,10
37,10.0,ContainersReady,pod-8,16,pods,10
38,0.0,PodScheduled,pod-9,16,pods,10
39,0.0,Initialized,pod-9,16,pods,10
40,6.0,Ready,pod-9,16,pods,10
41,6.0,ContainersReady,pod-9,16,pods,10
42,0.0,PodScheduled,pod-10,16,pods,10
43,0.0,Initialized,pod-10,16,pods,10
44,8.0,Ready,pod-10,16,pods,10
45,8.0,ContainersReady,pod-10,16,pods,10
46,0.0,PodScheduled,pod-11,16,pods,10
47,0.0,Initialized,pod-11,16,pods,10
48,7.0,Ready,pod-11,16,pods,10
49,7.0,ContainersReady,pod-11,16,pods,10
50,0.0,PodScheduled,pod-12,16,pods,10
51,0.0,Initialized,pod-12,16,pods,10
52,6.0,Ready,pod-12,16,pods,10
53,6.0,ContainersReady,pod-12,16,pods,10
54,0.0,PodScheduled,pod-13,16,pods,10
55,0.0,Initialized,pod-13,16,pods,10
56,7.0,Ready,pod-13,16,pods,10
57,7.0,ContainersReady,pod-13,16,pods,10
58,0.0,PodScheduled,pod-14,16,pods,10
59,0.0,Initialized,pod-14,16,pods,10
60,8.0,Ready,pod-14,16,pods,10
61,8.0,ContainersReady,pod-14,16,pods,10
62,0.0,PodScheduled,pod-15,16,pods,10
63,0.0,Initialized,pod-15,16,pods,10
64,9.0,Ready,pod-15,16,pods,10
65,9.0,ContainersReady,pod-15,16,pods,10
66,9.973,watch_create,all,16,pods,7
67,34.178,watch_delete,all,16,pods,7
68,0.0,PodScheduled,pod-0,16,pods,7
69,0.0,Initialized,pod-0,16,pods,7
70,1.0,Ready,pod-0,16,pods,7
71,1.0,ContainersReady,pod-0,16,pods,7
72,0.0,PodScheduled,pod-1,16,pods,7
73,0.0,Initialized,pod-1,16,pods,7
74,2.0,Ready,pod-1,16,pods,7
75,2.0,ContainersReady,pod-1,16,pods,7
76,0.0,PodScheduled,pod-2,16,pods,7
77,0.0,Initialized,pod-2,16,pods,7
78,2.0,Ready,pod-2,16,pods,7
79,2.0,ContainersReady,pod-2,16,pods,7
80,0.0,PodScheduled,pod-3,16,pods,7
81,0.0,Initialized,pod-3,16,pods,7
82,3.0,Ready,pod-3,16,pods,7
83,3.0,ContainersReady,pod-3,16,pods,7
84,0.0,PodScheduled,pod-4,16,pods,7
85,0.0,Initialized,pod-4,16,pods,7
86,3.0,Ready,pod-4,16,pods,7
87,3.0,ContainersReady,pod-4,16,pods,7
88,0.0,PodScheduled,pod-5,16,pods,7
89,0.0,Initialized,pod-5,16,pods,7
90,4.0,Ready,pod-5,16,pods,7
91,4.0,ContainersReady,pod-5,16,pods,7
92,0.0,PodScheduled,pod-6,16,pods,7
93,0.0,Initialized,pod-6,16,pods,7
94,5.0,Ready,pod-6,16,pods,7
95,5.0,ContainersReady,pod-6,16,pods,7
96,0.0,PodScheduled,pod-7,16,pods,7
97,0.0,Initialized,pod-7,16,pods,7
98,5.0,Ready,pod-7,16,pods,7
99,5.0,ContainersReady,pod-7,16,pods,7
100,0.0,PodScheduled,pod-8,16,pods,7
101,0.0,Initialized,pod-8,16,pods,7
102,6.0,Ready,pod-8,16,pods,7
103,6.0,ContainersReady,pod-8,16,pods,7
104,0.0,PodScheduled,pod-9,16,pods,7
105,0.0,Initialized,pod-9,16,pods,7
106,7.0,Ready,pod-9,16,pods,7
107,7.0,ContainersReady,pod-9,16,pods,7
108,0.0,PodScheduled,pod-10,16,pods,7
109,0.0,Initialized,pod-10,16,pods,7
110,4.0,Ready,pod-10,16,pods,7
111,4.0,ContainersReady,pod-10,16,pods,7
112,0.0,PodScheduled,pod-11,16,pods,7
113,0.0,Initialized,pod-11,16,pods,7
114,6.0,Ready,pod-11,16,pods,7
115,6.0,ContainersReady,pod-11,16,pods,7
116,0.0,PodScheduled,pod-12,16,pods,7
117,0.0,Initialized,pod-12,16,pods,7
118,9.0,Ready,pod-12,16,pods,7
119,9.0,ContainersReady,pod-12,16,pods,7
120,0.0,PodScheduled,pod-13,16,pods,7
121,0.0,Initialized,pod-13,16,pods,7
122,7.0,Ready,pod-13,16,pods,7
123,7.0,ContainersReady,pod-13,16,pods,7
124,0.0,PodScheduled,pod-14,16,pods,7
125,0.0,Initialized,pod-14,16,pods,7
126,8.0,Ready,pod-14,16,pods,7
127,8.0,ContainersReady,pod-14,16,pods,7
128,0.0,PodScheduled,pod-15,16,pods,7
129,0.0,Initialized,pod-15,16,pods,7
130,8.0,Ready,pod-15,16,pods,7
131,8.0,ContainersReady,pod-15,16,pods,7
132,9.998,watch_create,all,16,pods,15
133,33.15,watch_delete,all,16,pods,15
134,0.0,PodScheduled,pod-0,16,pods,15
135,0.0,Initialized,pod-0,16,pods,15
136,2.0,Ready,pod-0,16,pods,15
137,2.0,ContainersReady,pod-0,16,pods,15
138,0.0,PodScheduled,pod-1,16,pods,15
139,0.0,Initialized,pod-1,16,pods,15
140,3.0,Ready,pod-1,16,pods,15
141,3.0,ContainersReady,pod-1,16,pods,15
142,0.0,PodScheduled,pod-2,16,pods,15
143,0.0,Initialized,pod-2,16,pods,15
144,4.0,Ready,pod-2,16,pods,15
145,4.0,ContainersReady,pod-2,16,pods,15
146,0.0,PodScheduled,pod-3,16,pods,15
147,0.0,Initialized,pod-3,16,pods,15
148,4.0,Ready,pod-3,16,pods,15
149,4.0,ContainersReady,pod-3,16,pods,15
150,0.0,PodScheduled,pod-4,16,pods,15
151,0.0,Initialized,pod-4,16,pods,15
152,3.0,Ready,pod-4,16,pods,15
153,3.0,ContainersReady,pod-4,16,pods,15
154,0.0,PodScheduled,pod-5,16,pods,15
155,0.0,Initialized,pod-5,16,pods,15
156,5.0,Ready,pod-5,16,pods,15
157,5.0,ContainersReady,pod-5,16,pods,15
158,0.0,PodScheduled,pod-6,16,pods,15
159,0.0,Initialized,pod-6,16,pods,15
160,5.0,Ready,pod-6,16,pods,15
161,5.0,ContainersReady,pod-6,16,pods,15
162,0.0,PodScheduled,pod-7,16,pods,15
163,0.0,Initialized,pod-7,16,pods,15
164,9.0,Ready,pod-7,16,pods,15
165,9.0,ContainersReady,pod-7,16,pods,15
166,0.0,PodScheduled,pod-8,16,pods,15
167,0.0,Initialized,pod-8,16,pods,15
168,9.0,Ready,pod-8,16,pods,15
169,9.0,ContainersReady,pod-8,16,pods,15
170,0.0,PodScheduled,pod-9,16,pods,15
171,0.0,Initialized,pod-9,16,pods,15
172,6.0,Ready,pod-9,16,pods,15
173,6.0,ContainersReady,pod-9,16,pods,15
174,0.0,PodScheduled,pod-10,16,pods,15
175,0.0,Initialized,pod-10,16,pods,15
176,8.0,Ready,pod-10,16,pods,15
177,8.0,ContainersReady,pod-10,16,pods,15
178,0.0,PodScheduled,pod-11,16,pods,15
179,0.0,Initialized,pod-11,16,pods,15
180,7.0,Ready,pod-11,16,pods,15
181,7.0,ContainersReady,pod-11,16,pods,15
182,0.0,PodScheduled,pod-12,16,pods,15
183,0.0,Initialized,pod-12,16,pods,15
184,8.0,Ready,pod-12,16,pods,15
185,8.0,ContainersReady,pod-12,16,pods,15
186,0.0,PodScheduled,pod-13,16,pods,15
187,0.0,Initialized,pod-13,16,pods,15
188,7.0,Ready,pod-13,16,pods,15
189,7.0,ContainersReady,pod-13,16,pods,15
190,0.0,PodScheduled,pod-14,16,pods,15
191,0.0,Initialized,pod-14,16,pods,15
192,6.0,Ready,pod-14,16,pods,15
193,6.0,ContainersReady,pod-14,16,pods,15
194,0.0,PodScheduled,pod-15,16,pods,15
195,0.0,Initialized,pod-15,16,pods,15
196,10.0,Ready,pod-15,16,pods,15
197,10.0,ContainersReady,pod-15,16,pods,15
198,9.979,watch_create,all,16,pods,3
199,34.146,watch_delete,all,16,pods,3
200,0.0,PodScheduled,pod-0,16,pods,3
201,0.0,Initialized,pod-0,16,pods,3
202,2.0,Ready,pod-0,16,pods,3
203,2.0,ContainersReady,pod-0,16,pods,3
204,0.0,PodScheduled,pod-1,16,pods,3
205,0.0,Initialized,pod-1,16,pods,3
206,3.0,Ready,pod-1,16,pods,3
207,3.0,ContainersReady,pod-1,16,pods,3
208,0.0,PodScheduled,pod-2,16,pods,3
209,0.0,Initialized,pod-2,16,pods,3
210,3.0,Ready,pod-2,16,pods,3
211,3.0,ContainersReady,pod-2,16,pods,3
212,0.0,PodScheduled,pod-3,16,pods,3
213,0.0,Initialized,pod-3,16,pods,3
214,4.0,Ready,pod-3,16,pods,3
215,4.0,ContainersReady,pod-3,16,pods,3
216,0.0,PodScheduled,pod-4,16,pods,3
217,0.0,Initialized,pod-4,16,pods,3
218,4.0,Ready,pod-4,16,pods,3
219,4.0,ContainersReady,pod-4,16,pods,3
220,0.0,PodScheduled,pod-5,16,pods,3
221,0.0,Initialized,pod-5,16,pods,3
222,5.0,Ready,pod-5,16,pods,3
223,5.0,ContainersReady,pod-5,16,pods,3
224,0.0,PodScheduled,pod-6,16,pods,3
225,0.0,Initialized,pod-6,16,pods,3
226,6.0,Ready,pod-6,16,pods,3
227,6.0,ContainersReady,pod-6,16,pods,3
228,0.0,PodScheduled,pod-7,16,pods,3
229,0.0,Initialized,pod-7,16,pods,3
230,7.0,Ready,pod-7,16,pods,3
231,7.0,ContainersReady,pod-7,16,pods,3
232,0.0,PodScheduled,pod-8,16,pods,3
233,0.0,Initialized,pod-8,16,pods,3
234,6.0,Ready,pod-8,16,pods,3
235,6.0,ContainersReady,pod-8,16,pods,3
236,0.0,PodScheduled,pod-9,16,pods,3
237,0.0,Initialized,pod-9,16,pods,3
238,8.0,Ready,pod-9,16,pods,3
239,8.0,ContainersReady,pod-9,16,pods,3
240,0.0,PodScheduled,pod-10,16,pods,3
241,0.0,Initialized,pod-10,16,pods,3
242,5.0,Ready,pod-10,16,pods,3
243,5.0,ContainersReady,pod-10,16,pods,3
244,0.0,PodScheduled,pod-11,16,pods,3
245,0.0,Initialized,pod-11,16,pods,3
246,7.0,Ready,pod-11,16,pods,3
247,7.0,ContainersReady,pod-11,16,pods,3
248,0.0,PodScheduled,pod-12,16,pods,3
249,0.0,Initialized,pod-12,16,pods,3
250,8.0,Ready,pod-12,16,pods,3
251,8.0,ContainersReady,pod-12,16,pods,3
252,0.0,PodScheduled,pod-13,16,pods,3
253,0.0,Initialized,pod-13,16,pods,3
254,9.0,Ready,pod-13,16,pods,3
255,9.0,ContainersReady,pod-13,16,pods,3
256,0.0,PodScheduled,pod-14,16,pods,3
257,0.0,Initialized,pod-14,16,pods,3
258,10.0,Ready,pod-14,16,pods,3
259,10.0,ContainersReady,pod-14,16,pods,3
260,0.0,PodScheduled,pod-15,16,pods,3
261,0.0,Initialized,pod-15,16,pods,3
262,9.0,Ready,pod-15,16,pods,3
263,9.0,ContainersReady,pod-15,16,pods,3
264,9.943,watch_create,all,16,pods,2
265,34.138,watch_delete,all,16,pods,2
266,0.0,PodScheduled,pod-0,16,pods,2
267,0.0,Initialized,pod-0,16,pods,2
268,2.0,Ready,pod-0,16,pods,2
269,2.0,ContainersReady,pod-0,16,pods,2
270,0.0,PodScheduled,pod-1,16,pods,2
271,0.0,Initialized,pod-1,16,pods,2
272,1.0,Ready,pod-1,16,pods,2
273,1.0,ContainersReady,pod-1,16,pods,2
274,0.0,PodScheduled,pod-2,16,pods,2
275,0.0,Initialized,pod-2,16,pods,2
276,2.0,Ready,pod-2,16,pods,2
277,2.0,ContainersReady,pod-2,16,pods,2
278,0.0,PodScheduled,pod-3,16,pods,2
279,0.0,Initialized,pod-3,16,pods,2
280,3.0,Ready,pod-3,16,pods,2
281,3.0,ContainersReady,pod-3,16,pods,2
282,0.0,PodScheduled,pod-4,16,pods,2
283,0.0,Initialized,pod-4,16,pods,2
284,3.0,Ready,pod-4,16,pods,2
285,3.0,ContainersReady,pod-4,16,pods,2
286,0.0,PodScheduled,pod-5,16,pods,2
287,0.0,Initialized,pod-5,16,pods,2
288,4.0,Ready,pod-5,16,pods,2
289,4.0,ContainersReady,pod-5,16,pods,2
290,0.0,PodScheduled,pod-6,16,pods,2
291,0.0,Initialized,pod-6,16,pods,2
292,6.0,Ready,pod-6,16,pods,2
293,6.0,ContainersReady,pod-6,16,pods,2
294,0.0,PodScheduled,pod-7,16,pods,2
295,0.0,Initialized,pod-7,16,pods,2
296,4.0,Ready,pod-7,16,pods,2
297,4.0,ContainersReady,pod-7,16,pods,2
298,0.0,PodScheduled,pod-8,16,pods,2
299,0.0,Initialized,pod-8,16,pods,2
300,5.0,Ready,pod-8,16,pods,2
301,5.0,ContainersReady,pod-8,16,pods,2
302,0.0,PodScheduled,pod-9,16,pods,2
303,0.0,Initialized,pod-9,16,pods,2
304,6.0,Ready,pod-9,16,pods,2
305,6.0,ContainersReady,pod-9,16,pods,2
306,0.0,PodScheduled,pod-10,16,pods,2
307,0.0,Initialized,pod-10,16,pods,2
308,7.0,Ready,pod-10,16,pods,2
309,7.0,ContainersReady,pod-10,16,pods,2
310,0.0,PodScheduled,pod-11,16,pods,2
311,0.0,Initialized,pod-11,16,pods,2
312,8.0,Ready,pod-11,16,pods,2
313,8.0,ContainersReady,pod-11,16,pods,2
314,0.0,PodScheduled,pod-12,16,pods,2
315,0.0,Initialized,pod-12,16,pods,2
316,8.0,Ready,pod-12,16,pods,2
317,8.0,ContainersReady,pod-12,16,pods,2
318,0.0,PodScheduled,pod-13,16,pods,2
319,0.0,Initialized,pod-13,16,pods,2
320,7.0,Ready,pod-13,16,pods,2
321,7.0,ContainersReady,pod-13,16,pods,2
322,0.0,PodScheduled,pod-14,16,pods,2
323,0.0,Initialized,pod-14,16,pods,2
324,9.0,Ready,pod-14,16,pods,2
325,9.0,ContainersReady,pod-14,16,pods,2
326,0.0,PodScheduled,pod-15,16,pods,2
327,0.0,Initialized,pod-15,16,pods,2
328,9.0,Ready,pod-15,16,pods,2
329,9.0,ContainersReady,pod-15,16,pods,2
330,8.814,watch_create,all,16,indexed-job,12
331,34.146,watch_delete,all,16,indexed-job,12
332,0.0,PodScheduled,indexed-job-0-l5lvh,16,indexed-job,12
333,0.0,Initialized,indexed-job-0-l5lvh,16,indexed-job,12
334,1.0,Ready,indexed-job-0-l5lvh,16,indexed-job,12
335,1.0,ContainersReady,indexed-job-0-l5lvh,16,indexed-job,12
336,0.0,PodScheduled,indexed-job-1-45mnx,16,indexed-job,12
337,0.0,Initialized,indexed-job-1-45mnx,16,indexed-job,12
338,2.0,Ready,indexed-job-1-45mnx,16,indexed-job,12
339,2.0,ContainersReady,indexed-job-1-45mnx,16,indexed-job,12
340,0.0,PodScheduled,indexed-job-2-hfvlx,16,indexed-job,12
341,0.0,Initialized,indexed-job-2-hfvlx,16,indexed-job,12
342,2.0,Ready,indexed-job-2-hfvlx,16,indexed-job,12
343,2.0,ContainersReady,indexed-job-2-hfvlx,16,indexed-job,12
344,0.0,PodScheduled,indexed-job-5-5c8vl,16,indexed-job,12
345,0.0,Initialized,indexed-job-5-5c8vl,16,indexed-job,12
346,3.0,Ready,indexed-job-5-5c8vl,16,indexed-job,12
347,3.0,ContainersReady,indexed-job-5-5c8vl,16,indexed-job,12
348,0.0,PodScheduled,indexed-job-3-qm2dk,16,indexed-job,12
349,0.0,Initialized,indexed-job-3-qm2dk,16,indexed-job,12
350,5.0,Ready,indexed-job-3-qm2dk,16,indexed-job,12
351,5.0,ContainersReady,indexed-job-3-qm2dk,16,indexed-job,12
352,0.0,PodScheduled,indexed-job-6-d8x66,16,indexed-job,12
353,0.0,Initialized,indexed-job-6-d8x66,16,indexed-job,12
354,3.0,Ready,indexed-job-6-d8x66,16,indexed-job,12
355,3.0,ContainersReady,indexed-job-6-d8x66,16,indexed-job,12
356,0.0,PodScheduled,indexed-job-4-l59px,16,indexed-job,12
357,0.0,Initialized,indexed-job-4-l59px,16,indexed-job,12
358,4.0,Ready,indexed-job-4-l59px,16,indexed-job,12
359,4.0,ContainersReady,indexed-job-4-l59px,16,indexed-job,12
360,0.0,PodScheduled,indexed-job-10-z9tpn,16,indexed-job,12
361,0.0,Initialized,indexed-job-10-z9tpn,16,indexed-job,12
362,6.0,Ready,indexed-job-10-z9tpn,16,indexed-job,12
363,6.0,ContainersReady,indexed-job-10-z9tpn,16,indexed-job,12
364,0.0,PodScheduled,indexed-job-12-5zp8r,16,indexed-job,12
365,0.0,Initialized,indexed-job-12-5zp8r,16,indexed-job,12
366,4.0,Ready,indexed-job-12-5zp8r,16,indexed-job,12
367,4.0,ContainersReady,indexed-job-12-5zp8r,16,indexed-job,12
368,0.0,PodScheduled,indexed-job-9-m9l42,16,indexed-job,12
369,0.0,Initialized,indexed-job-9-m9l42,16,indexed-job,12
370,5.0,Ready,indexed-job-9-m9l42,16,indexed-job,12
371,5.0,ContainersReady,indexed-job-9-m9l42,16,indexed-job,12
372,0.0,PodScheduled,indexed-job-7-h2kmw,16,indexed-job,12
373,0.0,Initialized,indexed-job-7-h2kmw,16,indexed-job,12
374,6.0,Ready,indexed-job-7-h2kmw,16,indexed-job,12
375,6.0,ContainersReady,indexed-job-7-h2kmw,16,indexed-job,12
376,0.0,PodScheduled,indexed-job-11-t82v7,16,indexed-job,12
377,0.0,Initialized,indexed-job-11-t82v7,16,indexed-job,12
378,5.0,Ready,indexed-job-11-t82v7,16,indexed-job,12
379,5.0,ContainersReady,indexed-job-11-t82v7,16,indexed-job,12
380,0.0,PodScheduled,indexed-job-13-k895n,16,indexed-job,12
381,0.0,Initialized,indexed-job-13-k895n,16,indexed-job,12
382,8.0,Ready,indexed-job-13-k895n,16,indexed-job,12
383,8.0,ContainersReady,indexed-job-13-k895n,16,indexed-job,12
384,0.0,PodScheduled,indexed-job-14-sktk7,16,indexed-job,12
385,0.0,Initialized,indexed-job-14-sktk7,16,indexed-job,12
386,7.0,Ready,indexed-job-14-sktk7,16,indexed-job,12
387,7.0,ContainersReady,indexed-job-14-sktk7,16,indexed-job,12
388,0.0,PodScheduled,indexed-job-8-crjfc,16,indexed-job,12
389,0.0,Initialized,indexed-job-8-crjfc,16,indexed-job,12
390,7.0,Ready,indexed-job-8-crjfc,16,indexed-job,12
391,7.0,ContainersReady,indexed-job-8-crjfc,16,indexed-job,12
392,0.0,PodScheduled,indexed-job-15-hbjsl,16,indexed-job,12
393,0.0,Initialized,indexed-job-15-hbjsl,16,indexed-job,12
394,8.0,Ready,indexed-job-15-hbjsl,16,indexed-job,12
395,8.0,ContainersReady,indexed-job-15-hbjsl,16,indexed-job,12
396,8.963,watch_create,all,16,pods,18
397,34.137,watch_delete,all,16,pods,18
398,0.0,PodScheduled,pod-0,16,pods,18
399,0.0,Initialized,pod-0,16,pods,18
400,1.0,Ready,pod-0,16,pods,18
401,1.0,ContainersReady,pod-0,16,pods,18
402,0.0,PodScheduled,pod-1,16,pods,18
403,0.0,Initialized,pod-1,16,pods,18
404,2.0,Ready,pod-1,16,pods,18
405,2.0,ContainersReady,pod-1,16,pods,18
406,0.0,PodScheduled,pod-2,16,pods,18
407,0.0,Initialized,pod-2,16,pods,18
408,3.0,Ready,pod-2,16,pods,18
409,3.0,ContainersReady,pod-2,16,pods,18
410,0.0,PodScheduled,pod-3,16,pods,18
411,0.0,Initialized,pod-3,16,pods,18
412,2.0,Ready,pod-3,16,pods,18
413,2.0,ContainersReady,pod-3,16,pods,18
414,0.0,PodScheduled,pod-4,16,pods,18
415,0.0,Initialized,pod-4,16,pods,18
416,4.0,Ready,pod-4,16,pods,18
417,4.0,ContainersReady,pod-4,16,pods,18
418,0.0,PodScheduled,pod-5,16,pods,18
419,0.0,Initialized,pod-5,16,pods,18
420,4.0,Ready,pod-5,16,pods,18
421,4.0,ContainersReady,pod-5,16,pods,18
422,0.0,PodScheduled,pod-6,16,pods,18
423,0.0,Initialized,pod-6,16,pods,18
424,3.0,Ready,pod-6,16,pods,18
425,3.0,ContainersReady,pod-6,16,pods,18
426,0.0,PodScheduled,pod-7,16,pods,18
427,0.0,Initialized,pod-7,16,pods,18
428,5.0,Ready,pod-7,16,pods,18
429,5.0,ContainersReady,pod-7,16,pods,18
430,0.0,PodScheduled,pod-8,16,pods,18
431,0.0,Initialized,pod-8,16,pods,18
432,5.0,Ready,pod-8,16,pods,18
433,5.0,ContainersReady,pod-8,16,pods,18
434,0.0,PodScheduled,pod-9,16,pods,18
435,0.0,Initialized,pod-9,16,pods,18
436,6.0,Ready,pod-9,16,pods,18
437,6.0,ContainersReady,pod-9,16,pods,18
438,0.0,PodScheduled,pod-10,16,pods,18
439,0.0,Initialized,pod-10,16,pods,18
440,7.0,Ready,pod-10,16,pods,18
441,7.0,ContainersReady,pod-10,16,pods,18
442,0.0,PodScheduled,pod-11,16,pods,18
443,0.0,Initialized,pod-11,16,pods,18
444,8.0,Ready,pod-11,16,pods,18
445,8.0,ContainersReady,pod-11,16,pods,18
446,0.0,PodScheduled,pod-12,16,pods,18
447,0.0,Initialized,pod-12,16,pods,18
448,8.0,Ready,pod-12,16,pods,18
449,8.0,ContainersReady,pod-12,16,pods,18
450,0.0,PodScheduled,pod-13,16,pods,18
451,0.0,Initialized,pod-13,16,pods,18
452,6.0,Ready,pod-13,16,pods,18
453,6.0,ContainersReady,pod-13,16,pods,18
454,0.0,PodScheduled,pod-14,16,pods,18
455,0.0,Initialized,pod-14,16,pods,18
456,7.0,Ready,pod-14,16,pods,18
457,7.0,ContainersReady,pod-14,16,pods,18
458,0.0,PodScheduled,pod-15,16,pods,18
459,0.0,Initialized,pod-15,16,pods,18
460,8.0,Ready,pod-15,16,pods,18
461,8.0,ContainersReady,pod-15,16,pods,18
462,9.749,watch_create,all,16,indexed-job,11
463,33.19,watch_delete,all,16,indexed-job,11
464,0.0,PodScheduled,indexed-job-0-7wvqf,16,indexed-job,11
465,0.0,Initialized,indexed-job-0-7wvqf,16,indexed-job,11
466,2.0,Ready,indexed-job-0-7wvqf,16,indexed-job,11
467,2.0,ContainersReady,indexed-job-0-7wvqf,16,indexed-job,11
468,0.0,PodScheduled,indexed-job-2-qgvfq,16,indexed-job,11
469,0.0,Initialized,indexed-job-2-qgvfq,16,indexed-job,11
470,3.0,Ready,indexed-job-2-qgvfq,16,indexed-job,11
471,3.0,ContainersReady,indexed-job-2-qgvfq,16,indexed-job,11
472,0.0,PodScheduled,indexed-job-1-55qhk,16,indexed-job,11
473,0.0,Initialized,indexed-job-1-55qhk,16,indexed-job,11
474,5.0,Ready,indexed-job-1-55qhk,16,indexed-job,11
475,5.0,ContainersReady,indexed-job-1-55qhk,16,indexed-job,11
476,0.0,PodScheduled,indexed-job-4-zsrf8,16,indexed-job,11
477,0.0,Initialized,indexed-job-4-zsrf8,16,indexed-job,11
478,5.0,Ready,indexed-job-4-zsrf8,16,indexed-job,11
479,5.0,ContainersReady,indexed-job-4-zsrf8,16,indexed-job,11
480,0.0,PodScheduled,indexed-job-3-p4w59,16,indexed-job,11
481,0.0,Initialized,indexed-job-3-p4w59,16,indexed-job,11
482,4.0,Ready,indexed-job-3-p4w59,16,indexed-job,11
483,4.0,ContainersReady,indexed-job-3-p4w59,16,indexed-job,11
484,0.0,PodScheduled,indexed-job-6-bt2bx,16,indexed-job,11
485,0.0,Initialized,indexed-job-6-bt2bx,16,indexed-job,11
486,6.0,Ready,indexed-job-6-bt2bx,16,indexed-job,11
487,6.0,ContainersReady,indexed-job-6-bt2bx,16,indexed-job,11
488,0.0,PodScheduled,indexed-job-5-dn86p,16,indexed-job,11
489,0.0,Initialized,indexed-job-5-dn86p,16,indexed-job,11
490,4.0,Ready,indexed-job-5-dn86p,16,indexed-job,11
491,4.0,ContainersReady,indexed-job-5-dn86p,16,indexed-job,11
492,0.0,PodScheduled,indexed-job-11-vhf58,16,indexed-job,11
493,0.0,Initialized,indexed-job-11-vhf58,16,indexed-job,11
494,7.0,Ready,indexed-job-11-vhf58,16,indexed-job,11
495,7.0,ContainersReady,indexed-job-11-vhf58,16,indexed-job,11
496,0.0,PodScheduled,indexed-job-13-kv54l,16,indexed-job,11
497,0.0,Initialized,indexed-job-13-kv54l,16,indexed-job,11
498,3.0,Ready,indexed-job-13-kv54l,16,indexed-job,11
499,3.0,ContainersReady,indexed-job-13-kv54l,16,indexed-job,11
500,0.0,PodScheduled,indexed-job-9-4mq86,16,indexed-job,11
501,0.0,Initialized,indexed-job-9-4mq86,16,indexed-job,11
502,8.0,Ready,indexed-job-9-4mq86,16,indexed-job,11
503,8.0,ContainersReady,indexed-job-9-4mq86,16,indexed-job,11
504,0.0,PodScheduled,indexed-job-14-tp62m,16,indexed-job,11
505,0.0,Initialized,indexed-job-14-tp62m,16,indexed-job,11
506,8.0,Ready,indexed-job-14-tp62m,16,indexed-job,11
507,8.0,ContainersReady,indexed-job-14-tp62m,16,indexed-job,11
508,0.0,PodScheduled,indexed-job-10-qjfmq,16,indexed-job,11
509,0.0,Initialized,indexed-job-10-qjfmq,16,indexed-job,11
510,7.0,Ready,indexed-job-10-qjfmq,16,indexed-job,11
511,7.0,ContainersReady,indexed-job-10-qjfmq,16,indexed-job,11
512,0.0,PodScheduled,indexed-job-7-tw76p,16,indexed-job,11
513,0.0,Initialized,indexed-job-7-tw76p,16,indexed-job,11
514,10.0,Ready,indexed-job-7-tw76p,16,indexed-job,11
515,10.0,ContainersReady,indexed-job-7-tw76p,16,indexed-job,11
516,0.0,PodScheduled,indexed-job-8-ggp4j,16,indexed-job,11
517,0.0,Initialized,indexed-job-8-ggp4j,16,indexed-job,11
518,9.0,Ready,indexed-job-8-ggp4j,16,indexed-job,11
519,9.0,ContainersReady,indexed-job-8-ggp4j,16,indexed-job,11
520,0.0,PodScheduled,indexed-job-12-xqfm5,16,indexed-job,11
521,0.0,Initialized,indexed-job-12-xqfm5,16,indexed-job,11
522,9.0,Ready,indexed-job-12-xqfm5,16,indexed-job,11
523,9.0,ContainersReady,indexed-job-12-xqfm5,16,indexed-job,11
524,0.0,PodScheduled,indexed-job-15-8n44r,16,indexed-job,11
525,0.0,Initialized,indexed-job-15-8n44r,16,indexed-job,11
526,6.0,Ready,indexed-job-15-8n44r,16,indexed-job,11
527,6.0,ContainersReady,indexed-job-15-8n44r,16,indexed-job,11
528,9.755,watch_create,all,16,indexed-job,13
529,33.199,watch_delete,all,16,indexed-job,13
530,0.0,PodScheduled,indexed-job-0-gd8dm,16,indexed-job,13
531,0.0,Initialized,indexed-job-0-gd8dm,16,indexed-job,13
532,2.0,Ready,indexed-job-0-gd8dm,16,indexed-job,13
533,2.0,ContainersReady,indexed-job-0-gd8dm,16,indexed-job,13
534,0.0,PodScheduled,indexed-job-1-lqz8v,16,indexed-job,13
535,0.0,Initialized,indexed-job-1-lqz8v,16,indexed-job,13
536,7.0,Ready,indexed-job-1-lqz8v,16,indexed-job,13
537,7.0,ContainersReady,indexed-job-1-lqz8v,16,indexed-job,13
538,0.0,PodScheduled,indexed-job-2-jcf5x,16,indexed-job,13
539,0.0,Initialized,indexed-job-2-jcf5x,16,indexed-job,13
540,4.0,Ready,indexed-job-2-jcf5x,16,indexed-job,13
541,4.0,ContainersReady,indexed-job-2-jcf5x,16,indexed-job,13
542,0.0,PodScheduled,indexed-job-3-hcw8m,16,indexed-job,13
543,0.0,Initialized,indexed-job-3-hcw8m,16,indexed-job,13
544,3.0,Ready,indexed-job-3-hcw8m,16,indexed-job,13
545,3.0,ContainersReady,indexed-job-3-hcw8m,16,indexed-job,13
546,0.0,PodScheduled,indexed-job-4-q298q,16,indexed-job,13
547,0.0,Initialized,indexed-job-4-q298q,16,indexed-job,13
548,5.0,Ready,indexed-job-4-q298q,16,indexed-job,13
549,5.0,ContainersReady,indexed-job-4-q298q,16,indexed-job,13
550,0.0,PodScheduled,indexed-job-5-r7jjw,16,indexed-job,13
551,0.0,Initialized,indexed-job-5-r7jjw,16,indexed-job,13
552,6.0,Ready,indexed-job-5-r7jjw,16,indexed-job,13
553,6.0,ContainersReady,indexed-job-5-r7jjw,16,indexed-job,13
554,0.0,PodScheduled,indexed-job-6-nbhwb,16,indexed-job,13
555,0.0,Initialized,indexed-job-6-nbhwb,16,indexed-job,13
556,4.0,Ready,indexed-job-6-nbhwb,16,indexed-job,13
557,4.0,ContainersReady,indexed-job-6-nbhwb,16,indexed-job,13
558,0.0,PodScheduled,indexed-job-13-d96z6,16,indexed-job,13
559,0.0,Initialized,indexed-job-13-d96z6,16,indexed-job,13
560,5.0,Ready,indexed-job-13-d96z6,16,indexed-job,13
561,5.0,ContainersReady,indexed-job-13-d96z6,16,indexed-job,13
562,0.0,PodScheduled,indexed-job-14-qpwmz,16,indexed-job,13
563,0.0,Initialized,indexed-job-14-qpwmz,16,indexed-job,13
564,8.0,Ready,indexed-job-14-qpwmz,16,indexed-job,13
565,8.0,ContainersReady,indexed-job-14-qpwmz,16,indexed-job,13
566,0.0,PodScheduled,indexed-job-12-bb84w,16,indexed-job,13
567,0.0,Initialized,indexed-job-12-bb84w,16,indexed-job,13
568,7.0,Ready,indexed-job-12-bb84w,16,indexed-job,13
569,7.0,ContainersReady,indexed-job-12-bb84w,16,indexed-job,13
570,0.0,PodScheduled,indexed-job-10-5p2cf,16,indexed-job,13
571,0.0,Initialized,indexed-job-10-5p2cf,16,indexed-job,13
572,9.0,Ready,indexed-job-10-5p2cf,16,indexed-job,13
573,9.0,ContainersReady,indexed-job-10-5p2cf,16,indexed-job,13
574,0.0,PodScheduled,indexed-job-7-jqv8b,16,indexed-job,13
575,0.0,Initialized,indexed-job-7-jqv8b,16,indexed-job,13
576,6.0,Ready,indexed-job-7-jqv8b,16,indexed-job,13
577,6.0,ContainersReady,indexed-job-7-jqv8b,16,indexed-job,13
578,0.0,PodScheduled,indexed-job-11-gvllk,16,indexed-job,13
579,0.0,Initialized,indexed-job-11-gvllk,16,indexed-job,13
580,10.0,Ready,indexed-job-11-gvllk,16,indexed-job,13
581,10.0,ContainersReady,indexed-job-11-gvllk,16,indexed-job,13
582,0.0,PodScheduled,indexed-job-8-csxtw,16,indexed-job,13
583,0.0,Initialized,indexed-job-8-csxtw,16,indexed-job,13
584,8.0,Ready,indexed-job-8-csxtw,16,indexed-job,13
585,8.0,ContainersReady,indexed-job-8-csxtw,16,indexed-job,13
586,0.0,PodScheduled,indexed-job-9-wtjsv,16,indexed-job,13
587,0.0,Initialized,indexed-job-9-wtjsv,16,indexed-job,13
588,9.0,Ready,indexed-job-9-wtjsv,16,indexed-job,13
589,9.0,ContainersReady,indexed-job-9-wtjsv,16,indexed-job,13
590,0.0,PodScheduled,indexed-job-15-qh2sj,16,indexed-job,13
591,0.0,Initialized,indexed-job-15-qh2sj,16,indexed-job,13
592,10.0,Ready,indexed-job-15-qh2sj,16,indexed-job,13
593,10.0,ContainersReady,indexed-job-15-qh2sj,16,indexed-job,13
594,9.982,watch_create,all,16,pods,9
595,33.162,watch_delete,all,16,pods,9
596,0.0,PodScheduled,pod-0,16,pods,9
597,0.0,Initialized,pod-0,16,pods,9
598,1.0,Ready,pod-0,16,pods,9
599,1.0,ContainersReady,pod-0,16,pods,9
600,0.0,PodScheduled,pod-1,16,pods,9
601,0.0,Initialized,pod-1,16,pods,9
602,2.0,Ready,pod-1,16,pods,9
603,2.0,ContainersReady,pod-1,16,pods,9
604,0.0,PodScheduled,pod-2,16,pods,9
605,0.0,Initialized,pod-2,16,pods,9
606,3.0,Ready,pod-2,16,pods,9
607,3.0,ContainersReady,pod-2,16,pods,9
608,0.0,PodScheduled,pod-3,16,pods,9
609,0.0,Initialized,pod-3,16,pods,9
610,2.0,Ready,pod-3,16,pods,9
611,2.0,ContainersReady,pod-3,16,pods,9
612,0.0,PodScheduled,pod-4,16,pods,9
613,0.0,Initialized,pod-4,16,pods,9
614,3.0,Ready,pod-4,16,pods,9
615,3.0,ContainersReady,pod-4,16,pods,9
616,0.0,PodScheduled,pod-5,16,pods,9
617,0.0,Initialized,pod-5,16,pods,9
618,4.0,Ready,pod-5,16,pods,9
619,4.0,ContainersReady,pod-5,16,pods,9
620,0.0,PodScheduled,pod-6,16,pods,9
621,0.0,Initialized,pod-6,16,pods,9
622,4.0,Ready,pod-6,16,pods,9
623,4.0,ContainersReady,pod-6,16,pods,9
624,0.0,PodScheduled,pod-7,16,pods,9
625,0.0,Initialized,pod-7,16,pods,9
626,5.0,Ready,pod-7,16,pods,9
627,5.0,ContainersReady,pod-7,16,pods,9
628,0.0,PodScheduled,pod-8,16,pods,9
629,0.0,Initialized,pod-8,16,pods,9
630,8.0,Ready,pod-8,16,pods,9
631,8.0,ContainersReady,pod-8,16,pods,9
632,0.0,PodScheduled,pod-9,16,pods,9
633,0.0,Initialized,pod-9,16,pods,9
634,9.0,Ready,pod-9,16,pods,9
635,9.0,ContainersReady,pod-9,16,pods,9
636,0.0,PodScheduled,pod-10,16,pods,9
637,0.0,Initialized,pod-10,16,pods,9
638,6.0,Ready,pod-10,16,pods,9
639,6.0,ContainersReady,pod-10,16,pods,9
640,0.0,PodScheduled,pod-11,16,pods,9
641,0.0,Initialized,pod-11,16,pods,9
642,6.0,Ready,pod-11,16,pods,9
643,6.0,ContainersReady,pod-11,16,pods,9
644,0.0,PodScheduled,pod-12,16,pods,9
645,0.0,Initialized,pod-12,16,pods,9
646,7.0,Ready,pod-12,16,pods,9
647,7.0,ContainersReady,pod-12,16,pods,9
648,0.0,PodScheduled,pod-13,16,pods,9
649,0.0,Initialized,pod-13,16,pods,9
650,5.0,Ready,pod-13,16,pods,9
651,5.0,ContainersReady,pod-13,16,pods,9
652,0.0,PodScheduled,pod-14,16,pods,9
653,0.0,Initialized,pod-14,16,pods,9
654,7.0,Ready,pod-14,16,pods,9
655,7.0,ContainersReady,pod-14,16,pods,9
656,0.0,PodScheduled,pod-15,16,pods,9
657,0.0,Initialized,pod-15,16,pods,9
658,8.0,Ready,pod-15,16,pods,9
659,8.0,ContainersReady,pod-15,16,pods,9
660,9.991,watch_create,all,16,pods,4
661,33.172,watch_delete,all,16,pods,4
662,0.0,PodScheduled,pod-0,16,pods,4
663,0.0,Initialized,pod-0,16,pods,4
664,2.0,Ready,pod-0,16,pods,4
665,2.0,ContainersReady,pod-0,16,pods,4
666,0.0,PodScheduled,pod-1,16,pods,4
667,0.0,Initialized,pod-1,16,pods,4
668,3.0,Ready,pod-1,16,pods,4
669,3.0,ContainersReady,pod-1,16,pods,4
670,0.0,PodScheduled,pod-2,16,pods,4
671,0.0,Initialized,pod-2,16,pods,4
672,3.0,Ready,pod-2,16,pods,4
673,3.0,ContainersReady,pod-2,16,pods,4
674,0.0,PodScheduled,pod-3,16,pods,4
675,0.0,Initialized,pod-3,16,pods,4
676,4.0,Ready,pod-3,16,pods,4
677,4.0,ContainersReady,pod-3,16,pods,4
678,0.0,PodScheduled,pod-4,16,pods,4
679,1.0,Initialized,pod-4,16,pods,4
680,4.0,Ready,pod-4,16,pods,4
681,4.0,ContainersReady,pod-4,16,pods,4
682,0.0,PodScheduled,pod-5,16,pods,4
683,0.0,Initialized,pod-5,16,pods,4
684,4.0,Ready,pod-5,16,pods,4
685,4.0,ContainersReady,pod-5,16,pods,4
686,0.0,PodScheduled,pod-6,16,pods,4
687,0.0,Initialized,pod-6,16,pods,4
688,4.0,Ready,pod-6,16,pods,4
689,4.0,ContainersReady,pod-6,16,pods,4
690,0.0,PodScheduled,pod-7,16,pods,4
691,0.0,Initialized,pod-7,16,pods,4
692,5.0,Ready,pod-7,16,pods,4
693,5.0,ContainersReady,pod-7,16,pods,4
694,0.0,PodScheduled,pod-8,16,pods,4
695,0.0,Initialized,pod-8,16,pods,4
696,5.0,Ready,pod-8,16,pods,4
697,5.0,ContainersReady,pod-8,16,pods,4
698,0.0,PodScheduled,pod-9,16,pods,4
699,0.0,Initialized,pod-9,16,pods,4
700,6.0,Ready,pod-9,16,pods,4
701,6.0,ContainersReady,pod-9,16,pods,4
702,0.0,PodScheduled,pod-10,16,pods,4
703,0.0,Initialized,pod-10,16,pods,4
704,8.0,Ready,pod-10,16,pods,4
705,8.0,ContainersReady,pod-10,16,pods,4
706,0.0,PodScheduled,pod-11,16,pods,4
707,0.0,Initialized,pod-11,16,pods,4
708,6.0,Ready,pod-11,16,pods,4
709,6.0,ContainersReady,pod-11,16,pods,4
710,0.0,PodScheduled,pod-12,16,pods,4
711,0.0,Initialized,pod-12,16,pods,4
712,8.0,Ready,pod-12,16,pods,4
713,8.0,ContainersReady,pod-12,16,pods,4
714,0.0,PodScheduled,pod-13,16,pods,4
715,0.0,Initialized,pod-13,16,pods,4
716,7.0,Ready,pod-13,16,pods,4
717,7.0,ContainersReady,pod-13,16,pods,4
718,0.0,PodScheduled,pod-14,16,pods,4
719,0.0,Initialized,pod-14,16,pods,4
720,9.0,Ready,pod-14,16,pods,4
721,9.0,ContainersReady,pod-14,16,pods,4
722,0.0,PodScheduled,pod-15,16,pods,4
723,0.0,Initialized,pod-15,16,pods,4
724,7.0,Ready,pod-15,16,pods,4
725,7.0,ContainersReady,pod-15,16,pods,4
726,8.757,watch_create,all,16,indexed-job,0
727,33.158,watch_delete,all,16,indexed-job,0
728,0.0,PodScheduled,indexed-job-0-t9mgt,16,indexed-job,0
729,0.0,Initialized,indexed-job-0-t9mgt,16,indexed-job,0
730,1.0,Ready,indexed-job-0-t9mgt,16,indexed-job,0
731,1.0,ContainersReady,indexed-job-0-t9mgt,16,indexed-job,0
732,0.0,PodScheduled,indexed-job-2-mxfsv,16,indexed-job,0
733,0.0,Initialized,indexed-job-2-mxfsv,16,indexed-job,0
734,5.0,Ready,indexed-job-2-mxfsv,16,indexed-job,0
735,5.0,ContainersReady,indexed-job-2-mxfsv,16,indexed-job,0
736,0.0,PodScheduled,indexed-job-1-7cph8,16,indexed-job,0
737,0.0,Initialized,indexed-job-1-7cph8,16,indexed-job,0
738,4.0,Ready,indexed-job-1-7cph8,16,indexed-job,0
739,4.0,ContainersReady,indexed-job-1-7cph8,16,indexed-job,0
740,0.0,PodScheduled,indexed-job-3-rs84c,16,indexed-job,0
741,0.0,Initialized,indexed-job-3-rs84c,16,indexed-job,0
742,2.0,Ready,indexed-job-3-rs84c,16,indexed-job,0
743,2.0,ContainersReady,indexed-job-3-rs84c,16,indexed-job,0
744,0.0,PodScheduled,indexed-job-6-82n5z,16,indexed-job,0
745,0.0,Initialized,indexed-job-6-82n5z,16,indexed-job,0
746,5.0,Ready,indexed-job-6-82n5z,16,indexed-job,0
747,5.0,ContainersReady,indexed-job-6-82n5z,16,indexed-job,0
748,0.0,PodScheduled,indexed-job-4-kjsdd,16,indexed-job,0
749,0.0,Initialized,indexed-job-4-kjsdd,16,indexed-job,0
750,3.0,Ready,indexed-job-4-kjsdd,16,indexed-job,0
751,3.0,ContainersReady,indexed-job-4-kjsdd,16,indexed-job,0
752,0.0,PodScheduled,indexed-job-5-hpff4,16,indexed-job,0
753,0.0,Initialized,indexed-job-5-hpff4,16,indexed-job,0
754,2.0,Ready,indexed-job-5-hpff4,16,indexed-job,0
755,2.0,ContainersReady,indexed-job-5-hpff4,16,indexed-job,0
756,0.0,PodScheduled,indexed-job-14-m6mhm,16,indexed-job,0
757,0.0,Initialized,indexed-job-14-m6mhm,16,indexed-job,0
758,3.0,Ready,indexed-job-14-m6mhm,16,indexed-job,0
759,3.0,ContainersReady,indexed-job-14-m6mhm,16,indexed-job,0
760,0.0,PodScheduled,indexed-job-7-6btr4,16,indexed-job,0
761,0.0,Initialized,indexed-job-7-6btr4,16,indexed-job,0
762,8.0,Ready,indexed-job-7-6btr4,16,indexed-job,0
763,8.0,ContainersReady,indexed-job-7-6btr4,16,indexed-job,0
764,0.0,PodScheduled,indexed-job-11-fnkvv,16,indexed-job,0
765,0.0,Initialized,indexed-job-11-fnkvv,16,indexed-job,0
766,4.0,Ready,indexed-job-11-fnkvv,16,indexed-job,0
767,4.0,ContainersReady,indexed-job-11-fnkvv,16,indexed-job,0
768,0.0,PodScheduled,indexed-job-13-7sq8l,16,indexed-job,0
769,0.0,Initialized,indexed-job-13-7sq8l,16,indexed-job,0
770,8.0,Ready,indexed-job-13-7sq8l,16,indexed-job,0
771,8.0,ContainersReady,indexed-job-13-7sq8l,16,indexed-job,0
772,0.0,PodScheduled,indexed-job-12-65m4l,16,indexed-job,0
773,0.0,Initialized,indexed-job-12-65m4l,16,indexed-job,0
774,6.0,Ready,indexed-job-12-65m4l,16,indexed-job,0
775,6.0,ContainersReady,indexed-job-12-65m4l,16,indexed-job,0
776,0.0,PodScheduled,indexed-job-10-bxc8g,16,indexed-job,0
777,0.0,Initialized,indexed-job-10-bxc8g,16,indexed-job,0
778,6.0,Ready,indexed-job-10-bxc8g,16,indexed-job,0
779,6.0,ContainersReady,indexed-job-10-bxc8g,16,indexed-job,0
780,0.0,PodScheduled,indexed-job-8-fvbmp,16,indexed-job,0
781,0.0,Initialized,indexed-job-8-fvbmp,16,indexed-job,0
782,7.0,Ready,indexed-job-8-fvbmp,16,indexed-job,0
783,7.0,ContainersReady,indexed-job-8-fvbmp,16,indexed-job,0
784,0.0,PodScheduled,indexed-job-9-96hwj,16,indexed-job,0
785,0.0,Initialized,indexed-job-9-96hwj,16,indexed-job,0
786,7.0,Ready,indexed-job-9-96hwj,16,indexed-job,0
787,7.0,ContainersReady,indexed-job-9-96hwj,16,indexed-job,0
788,0.0,PodScheduled,indexed-job-15-9txkb,16,indexed-job,0
789,0.0,Initialized,indexed-job-15-9txkb,16,indexed-job,0
790,7.0,Ready,indexed-job-15-9txkb,16,indexed-job,0
791,7.0,ContainersReady,indexed-job-15-9txkb,16,indexed-job,0
792,9.727,watch_create,all,16,indexed-job,1
793,34.161,watch_delete,all,16,indexed-job,1
794,0.0,PodScheduled,indexed-job-0-zbspp,16,indexed-job,1
795,0.0,Initialized,indexed-job-0-zbspp,16,indexed-job,1
796,2.0,Ready,indexed-job-0-zbspp,16,indexed-job,1
797,2.0,ContainersReady,indexed-job-0-zbspp,16,indexed-job,1
798,0.0,PodScheduled,indexed-job-1-7gxlh,16,indexed-job,1
799,0.0,Initialized,indexed-job-1-7gxlh,16,indexed-job,1
800,3.0,Ready,indexed-job-1-7gxlh,16,indexed-job,1
801,3.0,ContainersReady,indexed-job-1-7gxlh,16,indexed-job,1
802,0.0,PodScheduled,indexed-job-2-nvwdq,16,indexed-job,1
803,0.0,Initialized,indexed-job-2-nvwdq,16,indexed-job,1
804,4.0,Ready,indexed-job-2-nvwdq,16,indexed-job,1
805,4.0,ContainersReady,indexed-job-2-nvwdq,16,indexed-job,1
806,0.0,PodScheduled,indexed-job-6-vr7r9,16,indexed-job,1
807,0.0,Initialized,indexed-job-6-vr7r9,16,indexed-job,1
808,3.0,Ready,indexed-job-6-vr7r9,16,indexed-job,1
809,3.0,ContainersReady,indexed-job-6-vr7r9,16,indexed-job,1
810,0.0,PodScheduled,indexed-job-5-7bcsm,16,indexed-job,1
811,0.0,Initialized,indexed-job-5-7bcsm,16,indexed-job,1
812,4.0,Ready,indexed-job-5-7bcsm,16,indexed-job,1
813,4.0,ContainersReady,indexed-job-5-7bcsm,16,indexed-job,1
814,0.0,PodScheduled,indexed-job-4-cn7bn,16,indexed-job,1
815,0.0,Initialized,indexed-job-4-cn7bn,16,indexed-job,1
816,7.0,Ready,indexed-job-4-cn7bn,16,indexed-job,1
817,7.0,ContainersReady,indexed-job-4-cn7bn,16,indexed-job,1
818,0.0,PodScheduled,indexed-job-3-hphhh,16,indexed-job,1
819,0.0,Initialized,indexed-job-3-hphhh,16,indexed-job,1
820,5.0,Ready,indexed-job-3-hphhh,16,indexed-job,1
821,5.0,ContainersReady,indexed-job-3-hphhh,16,indexed-job,1
822,0.0,PodScheduled,indexed-job-14-t8pmq,16,indexed-job,1
823,0.0,Initialized,indexed-job-14-t8pmq,16,indexed-job,1
824,6.0,Ready,indexed-job-14-t8pmq,16,indexed-job,1
825,6.0,ContainersReady,indexed-job-14-t8pmq,16,indexed-job,1
826,0.0,PodScheduled,indexed-job-9-hd2nz,16,indexed-job,1
827,0.0,Initialized,indexed-job-9-hd2nz,16,indexed-job,1
828,10.0,Ready,indexed-job-9-hd2nz,16,indexed-job,1
829,10.0,ContainersReady,indexed-job-9-hd2nz,16,indexed-job,1
830,0.0,PodScheduled,indexed-job-8-5flhv,16,indexed-job,1
831,0.0,Initialized,indexed-job-8-5flhv,16,indexed-job,1
832,8.0,Ready,indexed-job-8-5flhv,16,indexed-job,1
833,8.0,ContainersReady,indexed-job-8-5flhv,16,indexed-job,1
834,0.0,PodScheduled,indexed-job-7-rcdmv,16,indexed-job,1
835,0.0,Initialized,indexed-job-7-rcdmv,16,indexed-job,1
836,8.0,Ready,indexed-job-7-rcdmv,16,indexed-job,1
837,8.0,ContainersReady,indexed-job-7-rcdmv,16,indexed-job,1
838,0.0,PodScheduled,indexed-job-10-pbmtj,16,indexed-job,1
839,0.0,Initialized,indexed-job-10-pbmtj,16,indexed-job,1
840,5.0,Ready,indexed-job-10-pbmtj,16,indexed-job,1
841,5.0,ContainersReady,indexed-job-10-pbmtj,16,indexed-job,1
842,0.0,PodScheduled,indexed-job-13-nbrjc,16,indexed-job,1
843,0.0,Initialized,indexed-job-13-nbrjc,16,indexed-job,1
844,9.0,Ready,indexed-job-13-nbrjc,16,indexed-job,1
845,9.0,ContainersReady,indexed-job-13-nbrjc,16,indexed-job,1
846,0.0,PodScheduled,indexed-job-11-tr4kz,16,indexed-job,1
847,0.0,Initialized,indexed-job-11-tr4kz,16,indexed-job,1
848,8.0,Ready,indexed-job-11-tr4kz,16,indexed-job,1
849,8.0,ContainersReady,indexed-job-11-tr4kz,16,indexed-job,1
850,0.0,PodScheduled,indexed-job-12-qd2gs,16,indexed-job,1
851,0.0,Initialized,indexed-job-12-qd2gs,16,indexed-job,1
852,6.0,Ready,indexed-job-12-qd2gs,16,indexed-job,1
853,6.0,ContainersReady,indexed-job-12-qd2gs,16,indexed-job,1
854,0.0,PodScheduled,indexed-job-15-mnzg2,16,indexed-job,1
855,0.0,Initialized,indexed-job-15-mnzg2,16,indexed-job,1
856,7.0,Ready,indexed-job-15-mnzg2,16,indexed-job,1
857,7.0,ContainersReady,indexed-job-15-mnzg2,16,indexed-job,1
858,10.006,watch_create,all,16,pods,5
859,34.228,watch_delete,all,16,pods,5
860,0.0,PodScheduled,pod-0,16,pods,5
861,0.0,Initialized,pod-0,16,pods,5
862,1.0,Ready,pod-0,16,pods,5
863,1.0,ContainersReady,pod-0,16,pods,5
864,0.0,PodScheduled,pod-1,16,pods,5
865,0.0,Initialized,pod-1,16,pods,5
866,2.0,Ready,pod-1,16,pods,5
867,2.0,ContainersReady,pod-1,16,pods,5
868,0.0,PodScheduled,pod-2,16,pods,5
869,0.0,Initialized,pod-2,16,pods,5
870,2.0,Ready,pod-2,16,pods,5
871,2.0,ContainersReady,pod-2,16,pods,5
872,0.0,PodScheduled,pod-3,16,pods,5
873,0.0,Initialized,pod-3,16,pods,5
874,3.0,Ready,pod-3,16,pods,5
875,3.0,ContainersReady,pod-3,16,pods,5
876,0.0,PodScheduled,pod-4,16,pods,5
877,0.0,Initialized,pod-4,16,pods,5
878,3.0,Ready,pod-4,16,pods,5
879,3.0,ContainersReady,pod-4,16,pods,5
880,0.0,PodScheduled,pod-5,16,pods,5
881,0.0,Initialized,pod-5,16,pods,5
882,4.0,Ready,pod-5,16,pods,5
883,4.0,ContainersReady,pod-5,16,pods,5
884,0.0,PodScheduled,pod-6,16,pods,5
885,0.0,Initialized,pod-6,16,pods,5
886,4.0,Ready,pod-6,16,pods,5
887,4.0,ContainersReady,pod-6,16,pods,5
888,0.0,PodScheduled,pod-7,16,pods,5
889,0.0,Initialized,pod-7,16,pods,5
890,4.0,Ready,pod-7,16,pods,5
891,4.0,ContainersReady,pod-7,16,pods,5
892,0.0,PodScheduled,pod-8,16,pods,5
893,0.0,Initialized,pod-8,16,pods,5
894,6.0,Ready,pod-8,16,pods,5
895,6.0,ContainersReady,pod-8,16,pods,5
896,0.0,PodScheduled,pod-9,16,pods,5
897,0.0,Initialized,pod-9,16,pods,5
898,7.0,Ready,pod-9,16,pods,5
899,7.0,ContainersReady,pod-9,16,pods,5
900,0.0,PodScheduled,pod-10,16,pods,5
901,0.0,Initialized,pod-10,16,pods,5
902,8.0,Ready,pod-10,16,pods,5
903,8.0,ContainersReady,pod-10,16,pods,5
904,0.0,PodScheduled,pod-11,16,pods,5
905,0.0,Initialized,pod-11,16,pods,5
906,7.0,Ready,pod-11,16,pods,5
907,7.0,ContainersReady,pod-11,16,pods,5
908,0.0,PodScheduled,pod-12,16,pods,5
909,0.0,Initialized,pod-12,16,pods,5
910,9.0,Ready,pod-12,16,pods,5
911,9.0,ContainersReady,pod-12,16,pods,5
912,0.0,PodScheduled,pod-13,16,pods,5
913,0.0,Initialized,pod-13,16,pods,5
914,7.0,Ready,pod-13,16,pods,5
915,7.0,ContainersReady,pod-13,16,pods,5
916,0.0,PodScheduled,pod-14,16,pods,5
917,0.0,Initialized,pod-14,16,pods,5
918,8.0,Ready,pod-14,16,pods,5
919,8.0,ContainersReady,pod-14,16,pods,5
920,0.0,PodScheduled,pod-15,16,pods,5
921,0.0,Initialized,pod-15,16,pods,5
922,9.0,Ready,pod-15,16,pods,5
923,9.0,ContainersReady,pod-15,16,pods,5
924,9.809,watch_create,all,16,indexed-job,20
925,33.147,watch_delete,all,16,indexed-job,20
926,0.0,PodScheduled,indexed-job-0-97w24,16,indexed-job,20
927,0.0,Initialized,indexed-job-0-97w24,16,indexed-job,20
928,4.0,Ready,indexed-job-0-97w24,16,indexed-job,20
929,4.0,ContainersReady,indexed-job-0-97w24,16,indexed-job,20
930,0.0,PodScheduled,indexed-job-1-fxh49,16,indexed-job,20
931,0.0,Initialized,indexed-job-1-fxh49,16,indexed-job,20
932,4.0,Ready,indexed-job-1-fxh49,16,indexed-job,20
933,4.0,ContainersReady,indexed-job-1-fxh49,16,indexed-job,20
934,0.0,PodScheduled,indexed-job-2-hks6s,16,indexed-job,20
935,0.0,Initialized,indexed-job-2-hks6s,16,indexed-job,20
936,2.0,Ready,indexed-job-2-hks6s,16,indexed-job,20
937,2.0,ContainersReady,indexed-job-2-hks6s,16,indexed-job,20
938,0.0,PodScheduled,indexed-job-5-kdkxz,16,indexed-job,20
939,0.0,Initialized,indexed-job-5-kdkxz,16,indexed-job,20
940,7.0,Ready,indexed-job-5-kdkxz,16,indexed-job,20
941,7.0,ContainersReady,indexed-job-5-kdkxz,16,indexed-job,20
942,0.0,PodScheduled,indexed-job-4-cd427,16,indexed-job,20
943,0.0,Initialized,indexed-job-4-cd427,16,indexed-job,20
944,3.0,Ready,indexed-job-4-cd427,16,indexed-job,20
945,3.0,ContainersReady,indexed-job-4-cd427,16,indexed-job,20
946,0.0,PodScheduled,indexed-job-6-dx7nx,16,indexed-job,20
947,0.0,Initialized,indexed-job-6-dx7nx,16,indexed-job,20
948,5.0,Ready,indexed-job-6-dx7nx,16,indexed-job,20
949,5.0,ContainersReady,indexed-job-6-dx7nx,16,indexed-job,20
950,0.0,PodScheduled,indexed-job-3-wdscr,16,indexed-job,20
951,0.0,Initialized,indexed-job-3-wdscr,16,indexed-job,20
952,3.0,Ready,indexed-job-3-wdscr,16,indexed-job,20
953,3.0,ContainersReady,indexed-job-3-wdscr,16,indexed-job,20
954,0.0,PodScheduled,indexed-job-8-c5s2m,16,indexed-job,20
955,0.0,Initialized,indexed-job-8-c5s2m,16,indexed-job,20
956,7.0,Ready,indexed-job-8-c5s2m,16,indexed-job,20
957,7.0,ContainersReady,indexed-job-8-c5s2m,16,indexed-job,20
958,0.0,PodScheduled,indexed-job-11-5ddmx,16,indexed-job,20
959,0.0,Initialized,indexed-job-11-5ddmx,16,indexed-job,20
960,10.0,Ready,indexed-job-11-5ddmx,16,indexed-job,20
961,10.0,ContainersReady,indexed-job-11-5ddmx,16,indexed-job,20
962,0.0,PodScheduled,indexed-job-10-rlfhl,16,indexed-job,20
963,0.0,Initialized,indexed-job-10-rlfhl,16,indexed-job,20
964,8.0,Ready,indexed-job-10-rlfhl,16,indexed-job,20
965,8.0,ContainersReady,indexed-job-10-rlfhl,16,indexed-job,20
966,0.0,PodScheduled,indexed-job-7-khk74,16,indexed-job,20
967,0.0,Initialized,indexed-job-7-khk74,16,indexed-job,20
968,9.0,Ready,indexed-job-7-khk74,16,indexed-job,20
969,9.0,ContainersReady,indexed-job-7-khk74,16,indexed-job,20
970,0.0,PodScheduled,indexed-job-12-gmvxf,16,indexed-job,20
971,0.0,Initialized,indexed-job-12-gmvxf,16,indexed-job,20
972,8.0,Ready,indexed-job-12-gmvxf,16,indexed-job,20
973,8.0,ContainersReady,indexed-job-12-gmvxf,16,indexed-job,20
974,0.0,PodScheduled,indexed-job-9-tts47,16,indexed-job,20
975,0.0,Initialized,indexed-job-9-tts47,16,indexed-job,20
976,6.0,Ready,indexed-job-9-tts47,16,indexed-job,20
977,6.0,ContainersReady,indexed-job-9-tts47,16,indexed-job,20
978,0.0,PodScheduled,indexed-job-13-dkjwf,16,indexed-job,20
979,0.0,Initialized,indexed-job-13-dkjwf,16,indexed-job,20
980,5.0,Ready,indexed-job-13-dkjwf,16,indexed-job,20
981,5.0,ContainersReady,indexed-job-13-dkjwf,16,indexed-job,20
982,0.0,PodScheduled,indexed-job-14-cpw2j,16,indexed-job,20
983,0.0,Initialized,indexed-job-14-cpw2j,16,indexed-job,20
984,9.0,Ready,indexed-job-14-cpw2j,16,indexed-job,20
985,9.0,ContainersReady,indexed-job-14-cpw2j,16,indexed-job,20
986,0.0,PodScheduled,indexed-job-15-q2d4f,16,indexed-job,20
987,0.0,Initialized,indexed-job-15-q2d4f,16,indexed-job,20
988,6.0,Ready,indexed-job-15-q2d4f,16,indexed-job,20
989,6.0,ContainersReady,indexed-job-15-q2d4f,16,indexed-job,20
990,9.786,watch_create,all,16,indexed-job,18
991,34.162,watch_delete,all,16,indexed-job,18
992,0.0,PodScheduled,indexed-job-0-sgcmf,16,indexed-job,18
993,0.0,Initialized,indexed-job-0-sgcmf,16,indexed-job,18
994,2.0,Ready,indexed-job-0-sgcmf,16,indexed-job,18
995,2.0,ContainersReady,indexed-job-0-sgcmf,16,indexed-job,18
996,0.0,PodScheduled,indexed-job-2-4x8tb,16,indexed-job,18
997,0.0,Initialized,indexed-job-2-4x8tb,16,indexed-job,18
998,3.0,Ready,indexed-job-2-4x8tb,16,indexed-job,18
999,3.0,ContainersReady,indexed-job-2-4x8tb,16,indexed-job,18
1000,0.0,PodScheduled,indexed-job-1-qb7jm,16,indexed-job,18
1001,0.0,Initialized,indexed-job-1-qb7jm,16,indexed-job,18
1002,3.0,Ready,indexed-job-1-qb7jm,16,indexed-job,18
1003,3.0,ContainersReady,indexed-job-1-qb7jm,16,indexed-job,18
1004,0.0,PodScheduled,indexed-job-4-6k92w,16,indexed-job,18
1005,0.0,Initialized,indexed-job-4-6k92w,16,indexed-job,18
1006,5.0,Ready,indexed-job-4-6k92w,16,indexed-job,18
1007,5.0,ContainersReady,indexed-job-4-6k92w,16,indexed-job,18
1008,0.0,PodScheduled,indexed-job-6-lwsw5,16,indexed-job,18
1009,0.0,Initialized,indexed-job-6-lwsw5,16,indexed-job,18
1010,4.0,Ready,indexed-job-6-lwsw5,16,indexed-job,18
1011,4.0,ContainersReady,indexed-job-6-lwsw5,16,indexed-job,18
1012,0.0,PodScheduled,indexed-job-5-pjnwp,16,indexed-job,18
1013,0.0,Initialized,indexed-job-5-pjnwp,16,indexed-job,18
1014,4.0,Ready,indexed-job-5-pjnwp,16,indexed-job,18
1015,4.0,ContainersReady,indexed-job-5-pjnwp,16,indexed-job,18
1016,0.0,PodScheduled,indexed-job-3-kn6n7,16,indexed-job,18
1017,0.0,Initialized,indexed-job-3-kn6n7,16,indexed-job,18
1018,6.0,Ready,indexed-job-3-kn6n7,16,indexed-job,18
1019,6.0,ContainersReady,indexed-job-3-kn6n7,16,indexed-job,18
1020,0.0,PodScheduled,indexed-job-8-dkmcp,16,indexed-job,18
1021,0.0,Initialized,indexed-job-8-dkmcp,16,indexed-job,18
1022,7.0,Ready,indexed-job-8-dkmcp,16,indexed-job,18
1023,7.0,ContainersReady,indexed-job-8-dkmcp,16,indexed-job,18
1024,0.0,PodScheduled,indexed-job-11-h7zlv,16,indexed-job,18
1025,0.0,Initialized,indexed-job-11-h7zlv,16,indexed-job,18
1026,8.0,Ready,indexed-job-11-h7zlv,16,indexed-job,18
1027,8.0,ContainersReady,indexed-job-11-h7zlv,16,indexed-job,18
1028,0.0,PodScheduled,indexed-job-9-6n6mr,16,indexed-job,18
1029,0.0,Initialized,indexed-job-9-6n6mr,16,indexed-job,18
1030,9.0,Ready,indexed-job-9-6n6mr,16,indexed-job,18
1031,9.0,ContainersReady,indexed-job-9-6n6mr,16,indexed-job,18
1032,0.0,PodScheduled,indexed-job-14-bvggj,16,indexed-job,18
1033,0.0,Initialized,indexed-job-14-bvggj,16,indexed-job,18
1034,6.0,Ready,indexed-job-14-bvggj,16,indexed-job,18
1035,6.0,ContainersReady,indexed-job-14-bvggj,16,indexed-job,18
1036,0.0,PodScheduled,indexed-job-12-dpjks,16,indexed-job,18
1037,0.0,Initialized,indexed-job-12-dpjks,16,indexed-job,18
1038,7.0,Ready,indexed-job-12-dpjks,16,indexed-job,18
1039,7.0,ContainersReady,indexed-job-12-dpjks,16,indexed-job,18
1040,0.0,PodScheduled,indexed-job-7-t55rj,16,indexed-job,18
1041,0.0,Initialized,indexed-job-7-t55rj,16,indexed-job,18
1042,8.0,Ready,indexed-job-7-t55rj,16,indexed-job,18
1043,8.0,ContainersReady,indexed-job-7-t55rj,16,indexed-job,18
1044,0.0,PodScheduled,indexed-job-10-v6spt,16,indexed-job,18
1045,0.0,Initialized,indexed-job-10-v6spt,16,indexed-job,18
1046,10.0,Ready,indexed-job-10-v6spt,16,indexed-job,18
1047,10.0,ContainersReady,indexed-job-10-v6spt,16,indexed-job,18
1048,0.0,PodScheduled,indexed-job-13-98nrj,16,indexed-job,18
1049,0.0,Initialized,indexed-job-13-98nrj,16,indexed-job,18
1050,9.0,Ready,indexed-job-13-98nrj,16,indexed-job,18
1051,9.0,ContainersReady,indexed-job-13-98nrj,16,indexed-job,18
1052,0.0,PodScheduled,indexed-job-15-ppkz2,16,indexed-job,18
1053,0.0,Initialized,indexed-job-15-ppkz2,16,indexed-job,18
1054,5.0,Ready,indexed-job-15-ppkz2,16,indexed-job,18
1055,5.0,ContainersReady,indexed-job-15-ppkz2,16,indexed-job,18
1056,9.801,watch_create,all,16,indexed-job,16
1057,34.178,watch_delete,all,16,indexed-job,16
1058,0.0,PodScheduled,indexed-job-0-m9zlj,16,indexed-job,16
1059,0.0,Initialized,indexed-job-0-m9zlj,16,indexed-job,16
1060,2.0,Ready,indexed-job-0-m9zlj,16,indexed-job,16
1061,2.0,ContainersReady,indexed-job-0-m9zlj,16,indexed-job,16
1062,0.0,PodScheduled,indexed-job-2-hxfl4,16,indexed-job,16
1063,0.0,Initialized,indexed-job-2-hxfl4,16,indexed-job,16
1064,7.0,Ready,indexed-job-2-hxfl4,16,indexed-job,16
1065,7.0,ContainersReady,indexed-job-2-hxfl4,16,indexed-job,16
1066,0.0,PodScheduled,indexed-job-1-8fvcg,16,indexed-job,16
1067,0.0,Initialized,indexed-job-1-8fvcg,16,indexed-job,16
1068,9.0,Ready,indexed-job-1-8fvcg,16,indexed-job,16
1069,9.0,ContainersReady,indexed-job-1-8fvcg,16,indexed-job,16
1070,0.0,PodScheduled,indexed-job-6-84j7d,16,indexed-job,16
1071,0.0,Initialized,indexed-job-6-84j7d,16,indexed-job,16
1072,8.0,Ready,indexed-job-6-84j7d,16,indexed-job,16
1073,8.0,ContainersReady,indexed-job-6-84j7d,16,indexed-job,16
1074,0.0,PodScheduled,indexed-job-5-fhh72,16,indexed-job,16
1075,0.0,Initialized,indexed-job-5-fhh72,16,indexed-job,16
1076,5.0,Ready,indexed-job-5-fhh72,16,indexed-job,16
1077,5.0,ContainersReady,indexed-job-5-fhh72,16,indexed-job,16
1078,0.0,PodScheduled,indexed-job-3-f8rmn,16,indexed-job,16
1079,0.0,Initialized,indexed-job-3-f8rmn,16,indexed-job,16
1080,5.0,Ready,indexed-job-3-f8rmn,16,indexed-job,16
1081,5.0,ContainersReady,indexed-job-3-f8rmn,16,indexed-job,16
1082,0.0,PodScheduled,indexed-job-4-mbcsr,16,indexed-job,16
1083,0.0,Initialized,indexed-job-4-mbcsr,16,indexed-job,16
1084,10.0,Ready,indexed-job-4-mbcsr,16,indexed-job,16
1085,10.0,ContainersReady,indexed-job-4-mbcsr,16,indexed-job,16
1086,0.0,PodScheduled,indexed-job-7-vn57q,16,indexed-job,16
1087,0.0,Initialized,indexed-job-7-vn57q,16,indexed-job,16
1088,3.0,Ready,indexed-job-7-vn57q,16,indexed-job,16
1089,3.0,ContainersReady,indexed-job-7-vn57q,16,indexed-job,16
1090,0.0,PodScheduled,indexed-job-10-vsw8l,16,indexed-job,16
1091,0.0,Initialized,indexed-job-10-vsw8l,16,indexed-job,16
1092,6.0,Ready,indexed-job-10-vsw8l,16,indexed-job,16
1093,6.0,ContainersReady,indexed-job-10-vsw8l,16,indexed-job,16
1094,0.0,PodScheduled,indexed-job-13-wrvr2,16,indexed-job,16
1095,0.0,Initialized,indexed-job-13-wrvr2,16,indexed-job,16
1096,8.0,Ready,indexed-job-13-wrvr2,16,indexed-job,16
1097,8.0,ContainersReady,indexed-job-13-wrvr2,16,indexed-job,16
1098,0.0,PodScheduled,indexed-job-12-wsmwk,16,indexed-job,16
1099,0.0,Initialized,indexed-job-12-wsmwk,16,indexed-job,16
1100,4.0,Ready,indexed-job-12-wsmwk,16,indexed-job,16
1101,4.0,ContainersReady,indexed-job-12-wsmwk,16,indexed-job,16
1102,0.0,PodScheduled,indexed-job-8-fv86m,16,indexed-job,16
1103,0.0,Initialized,indexed-job-8-fv86m,16,indexed-job,16
1104,7.0,Ready,indexed-job-8-fv86m,16,indexed-job,16
1105,7.0,ContainersReady,indexed-job-8-fv86m,16,indexed-job,16
1106,0.0,PodScheduled,indexed-job-11-ch6pc,16,indexed-job,16
1107,0.0,Initialized,indexed-job-11-ch6pc,16,indexed-job,16
1108,6.0,Ready,indexed-job-11-ch6pc,16,indexed-job,16
1109,6.0,ContainersReady,indexed-job-11-ch6pc,16,indexed-job,16
1110,0.0,PodScheduled,indexed-job-14-7q4fl,16,indexed-job,16
1111,0.0,Initialized,indexed-job-14-7q4fl,16,indexed-job,16
1112,9.0,Ready,indexed-job-14-7q4fl,16,indexed-job,16
1113,9.0,ContainersReady,indexed-job-14-7q4fl,16,indexed-job,16
1114,0.0,PodScheduled,indexed-job-9-g5mw4,16,indexed-job,16
1115,0.0,Initialized,indexed-job-9-g5mw4,16,indexed-job,16
1116,4.0,Ready,indexed-job-9-g5mw4,16,indexed-job,16
1117,4.0,ContainersReady,indexed-job-9-g5mw4,16,indexed-job,16
1118,0.0,PodScheduled,indexed-job-15-2kdzk,16,indexed-job,16
1119,0.0,Initialized,indexed-job-15-2kdzk,16,indexed-job,16
1120,3.0,Ready,indexed-job-15-2kdzk,16,indexed-job,16
1121,3.0,ContainersReady,indexed-job-15-2kdzk,16,indexed-job,16
1122,9.783,watch_create,all,16,indexed-job,5
1123,33.166,watch_delete,all,16,indexed-job,5
1124,0.0,PodScheduled,indexed-job-0-c4cst,16,indexed-job,5
1125,0.0,Initialized,indexed-job-0-c4cst,16,indexed-job,5
1126,1.0,Ready,indexed-job-0-c4cst,16,indexed-job,5
1127,1.0,ContainersReady,indexed-job-0-c4cst,16,indexed-job,5
1128,0.0,PodScheduled,indexed-job-2-kkzw9,16,indexed-job,5
1129,0.0,Initialized,indexed-job-2-kkzw9,16,indexed-job,5
1130,2.0,Ready,indexed-job-2-kkzw9,16,indexed-job,5
1131,2.0,ContainersReady,indexed-job-2-kkzw9,16,indexed-job,5
1132,0.0,PodScheduled,indexed-job-1-vb4d9,16,indexed-job,5
1133,0.0,Initialized,indexed-job-1-vb4d9,16,indexed-job,5
1134,2.0,Ready,indexed-job-1-vb4d9,16,indexed-job,5
1135,2.0,ContainersReady,indexed-job-1-vb4d9,16,indexed-job,5
1136,0.0,PodScheduled,indexed-job-5-6xww4,16,indexed-job,5
1137,0.0,Initialized,indexed-job-5-6xww4,16,indexed-job,5
1138,3.0,Ready,indexed-job-5-6xww4,16,indexed-job,5
1139,3.0,ContainersReady,indexed-job-5-6xww4,16,indexed-job,5
1140,0.0,PodScheduled,indexed-job-6-snk7k,16,indexed-job,5
1141,0.0,Initialized,indexed-job-6-snk7k,16,indexed-job,5
1142,4.0,Ready,indexed-job-6-snk7k,16,indexed-job,5
1143,4.0,ContainersReady,indexed-job-6-snk7k,16,indexed-job,5
1144,0.0,PodScheduled,indexed-job-4-sd455,16,indexed-job,5
1145,0.0,Initialized,indexed-job-4-sd455,16,indexed-job,5
1146,7.0,Ready,indexed-job-4-sd455,16,indexed-job,5
1147,7.0,ContainersReady,indexed-job-4-sd455,16,indexed-job,5
1148,0.0,PodScheduled,indexed-job-3-6hf4q,16,indexed-job,5
1149,0.0,Initialized,indexed-job-3-6hf4q,16,indexed-job,5
1150,3.0,Ready,indexed-job-3-6hf4q,16,indexed-job,5
1151,3.0,ContainersReady,indexed-job-3-6hf4q,16,indexed-job,5
1152,0.0,PodScheduled,indexed-job-10-trrtp,16,indexed-job,5
1153,0.0,Initialized,indexed-job-10-trrtp,16,indexed-job,5
1154,5.0,Ready,indexed-job-10-trrtp,16,indexed-job,5
1155,5.0,ContainersReady,indexed-job-10-trrtp,16,indexed-job,5
1156,0.0,PodScheduled,indexed-job-14-6dhhg,16,indexed-job,5
1157,0.0,Initialized,indexed-job-14-6dhhg,16,indexed-job,5
1158,8.0,Ready,indexed-job-14-6dhhg,16,indexed-job,5
1159,8.0,ContainersReady,indexed-job-14-6dhhg,16,indexed-job,5
1160,0.0,PodScheduled,indexed-job-9-gmhzq,16,indexed-job,5
1161,0.0,Initialized,indexed-job-9-gmhzq,16,indexed-job,5
1162,6.0,Ready,indexed-job-9-gmhzq,16,indexed-job,5
1163,6.0,ContainersReady,indexed-job-9-gmhzq,16,indexed-job,5
1164,0.0,PodScheduled,indexed-job-7-q6w4w,16,indexed-job,5
1165,0.0,Initialized,indexed-job-7-q6w4w,16,indexed-job,5
1166,6.0,Ready,indexed-job-7-q6w4w,16,indexed-job,5
1167,6.0,ContainersReady,indexed-job-7-q6w4w,16,indexed-job,5
1168,0.0,PodScheduled,indexed-job-11-8grng,16,indexed-job,5
1169,0.0,Initialized,indexed-job-11-8grng,16,indexed-job,5
1170,4.0,Ready,indexed-job-11-8grng,16,indexed-job,5
1171,4.0,ContainersReady,indexed-job-11-8grng,16,indexed-job,5
1172,0.0,PodScheduled,indexed-job-12-868b6,16,indexed-job,5
1173,0.0,Initialized,indexed-job-12-868b6,16,indexed-job,5
1174,8.0,Ready,indexed-job-12-868b6,16,indexed-job,5
1175,8.0,ContainersReady,indexed-job-12-868b6,16,indexed-job,5
1176,0.0,PodScheduled,indexed-job-13-nv658,16,indexed-job,5
1177,0.0,Initialized,indexed-job-13-nv658,16,indexed-job,5
1178,9.0,Ready,indexed-job-13-nv658,16,indexed-job,5
1179,9.0,ContainersReady,indexed-job-13-nv658,16,indexed-job,5
1180,0.0,PodScheduled,indexed-job-8-8dlfb,16,indexed-job,5
1181,0.0,Initialized,indexed-job-8-8dlfb,16,indexed-job,5
1182,7.0,Ready,indexed-job-8-8dlfb,16,indexed-job,5
1183,7.0,ContainersReady,indexed-job-8-8dlfb,16,indexed-job,5
1184,0.0,PodScheduled,indexed-job-15-zkw7b,16,indexed-job,5
1185,0.0,Initialized,indexed-job-15-zkw7b,16,indexed-job,5
1186,5.0,Ready,indexed-job-15-zkw7b,16,indexed-job,5
1187,5.0,ContainersReady,indexed-job-15-zkw7b,16,indexed-job,5
1188,9.987,watch_create,all,16,pods,17
1189,34.148,watch_delete,all,16,pods,17
1190,0.0,PodScheduled,pod-0,16,pods,17
1191,0.0,Initialized,pod-0,16,pods,17
1192,2.0,Ready,pod-0,16,pods,17
1193,2.0,ContainersReady,pod-0,16,pods,17
1194,0.0,PodScheduled,pod-1,16,pods,17
1195,0.0,Initialized,pod-1,16,pods,17
1196,4.0,Ready,pod-1,16,pods,17
1197,4.0,ContainersReady,pod-1,16,pods,17
1198,0.0,PodScheduled,pod-2,16,pods,17
1199,0.0,Initialized,pod-2,16,pods,17
1200,3.0,Ready,pod-2,16,pods,17
1201,3.0,ContainersReady,pod-2,16,pods,17
1202,0.0,PodScheduled,pod-3,16,pods,17
1203,0.0,Initialized,pod-3,16,pods,17
1204,5.0,Ready,pod-3,16,pods,17
1205,5.0,ContainersReady,pod-3,16,pods,17
1206,0.0,PodScheduled,pod-4,16,pods,17
1207,0.0,Initialized,pod-4,16,pods,17
1208,3.0,Ready,pod-4,16,pods,17
1209,3.0,ContainersReady,pod-4,16,pods,17
1210,0.0,PodScheduled,pod-5,16,pods,17
1211,0.0,Initialized,pod-5,16,pods,17
1212,4.0,Ready,pod-5,16,pods,17
1213,4.0,ContainersReady,pod-5,16,pods,17
1214,0.0,PodScheduled,pod-6,16,pods,17
1215,0.0,Initialized,pod-6,16,pods,17
1216,5.0,Ready,pod-6,16,pods,17
1217,5.0,ContainersReady,pod-6,16,pods,17
1218,0.0,PodScheduled,pod-7,16,pods,17
1219,0.0,Initialized,pod-7,16,pods,17
1220,6.0,Ready,pod-7,16,pods,17
1221,6.0,ContainersReady,pod-7,16,pods,17
1222,0.0,PodScheduled,pod-8,16,pods,17
1223,0.0,Initialized,pod-8,16,pods,17
1224,6.0,Ready,pod-8,16,pods,17
1225,6.0,ContainersReady,pod-8,16,pods,17
1226,0.0,PodScheduled,pod-9,16,pods,17
1227,0.0,Initialized,pod-9,16,pods,17
1228,8.0,Ready,pod-9,16,pods,17
1229,8.0,ContainersReady,pod-9,16,pods,17
1230,0.0,PodScheduled,pod-10,16,pods,17
1231,0.0,Initialized,pod-10,16,pods,17
1232,7.0,Ready,pod-10,16,pods,17
1233,7.0,ContainersReady,pod-10,16,pods,17
1234,0.0,PodScheduled,pod-11,16,pods,17
1235,0.0,Initialized,pod-11,16,pods,17
1236,8.0,Ready,pod-11,16,pods,17
1237,8.0,ContainersReady,pod-11,16,pods,17
1238,0.0,PodScheduled,pod-12,16,pods,17
1239,0.0,Initialized,pod-12,16,pods,17
1240,8.0,Ready,pod-12,16,pods,17
1241,8.0,ContainersReady,pod-12,16,pods,17
1242,0.0,PodScheduled,pod-13,16,pods,17
1243,0.0,Initialized,pod-13,16,pods,17
1244,9.0,Ready,pod-13,16,pods,17
1245,9.0,ContainersReady,pod-13,16,pods,17
1246,0.0,PodScheduled,pod-14,16,pods,17
1247,0.0,Initialized,pod-14,16,pods,17
1248,9.0,Ready,pod-14,16,pods,17
1249,9.0,ContainersReady,pod-14,16,pods,17
1250,0.0,PodScheduled,pod-15,16,pods,17
1251,0.0,Initialized,pod-15,16,pods,17
1252,10.0,Ready,pod-15,16,pods,17
1253,10.0,ContainersReady,pod-15,16,pods,17
1254,9.807,watch_create,all,16,indexed-job,2
1255,33.231,watch_delete,all,16,indexed-job,2
1256,0.0,PodScheduled,indexed-job-0-bggc5,16,indexed-job,2
1257,0.0,Initialized,indexed-job-0-bggc5,16,indexed-job,2
1258,2.0,Ready,indexed-job-0-bggc5,16,indexed-job,2
1259,2.0,ContainersReady,indexed-job-0-bggc5,16,indexed-job,2
1260,0.0,PodScheduled,indexed-job-1-j5wbh,16,indexed-job,2
1261,0.0,Initialized,indexed-job-1-j5wbh,16,indexed-job,2
1262,5.0,Ready,indexed-job-1-j5wbh,16,indexed-job,2
1263,5.0,ContainersReady,indexed-job-1-j5wbh,16,indexed-job,2
1264,0.0,PodScheduled,indexed-job-2-xcn7l,16,indexed-job,2
1265,0.0,Initialized,indexed-job-2-xcn7l,16,indexed-job,2
1266,9.0,Ready,indexed-job-2-xcn7l,16,indexed-job,2
1267,9.0,ContainersReady,indexed-job-2-xcn7l,16,indexed-job,2
1268,0.0,PodScheduled,indexed-job-4-8xpqm,16,indexed-job,2
1269,0.0,Initialized,indexed-job-4-8xpqm,16,indexed-job,2
1270,7.0,Ready,indexed-job-4-8xpqm,16,indexed-job,2
1271,7.0,ContainersReady,indexed-job-4-8xpqm,16,indexed-job,2
1272,0.0,PodScheduled,indexed-job-6-tsxzg,16,indexed-job,2
1273,0.0,Initialized,indexed-job-6-tsxzg,16,indexed-job,2
1274,9.0,Ready,indexed-job-6-tsxzg,16,indexed-job,2
1275,9.0,ContainersReady,indexed-job-6-tsxzg,16,indexed-job,2
1276,0.0,PodScheduled,indexed-job-3-rpkc6,16,indexed-job,2
1277,0.0,Initialized,indexed-job-3-rpkc6,16,indexed-job,2
1278,5.0,Ready,indexed-job-3-rpkc6,16,indexed-job,2
1279,5.0,ContainersReady,indexed-job-3-rpkc6,16,indexed-job,2
1280,0.0,PodScheduled,indexed-job-5-csl7k,16,indexed-job,2
1281,0.0,Initialized,indexed-job-5-csl7k,16,indexed-job,2
1282,8.0,Ready,indexed-job-5-csl7k,16,indexed-job,2
1283,8.0,ContainersReady,indexed-job-5-csl7k,16,indexed-job,2
1284,0.0,PodScheduled,indexed-job-13-qtk8t,16,indexed-job,2
1285,0.0,Initialized,indexed-job-13-qtk8t,16,indexed-job,2
1286,6.0,Ready,indexed-job-13-qtk8t,16,indexed-job,2
1287,6.0,ContainersReady,indexed-job-13-qtk8t,16,indexed-job,2
1288,0.0,PodScheduled,indexed-job-14-69wmk,16,indexed-job,2
1289,0.0,Initialized,indexed-job-14-69wmk,16,indexed-job,2
1290,3.0,Ready,indexed-job-14-69wmk,16,indexed-job,2
1291,3.0,ContainersReady,indexed-job-14-69wmk,16,indexed-job,2
1292,0.0,PodScheduled,indexed-job-12-b978v,16,indexed-job,2
1293,0.0,Initialized,indexed-job-12-b978v,16,indexed-job,2
1294,4.0,Ready,indexed-job-12-b978v,16,indexed-job,2
1295,4.0,ContainersReady,indexed-job-12-b978v,16,indexed-job,2
1296,0.0,PodScheduled,indexed-job-8-cmvsf,16,indexed-job,2
1297,0.0,Initialized,indexed-job-8-cmvsf,16,indexed-job,2
1298,7.0,Ready,indexed-job-8-cmvsf,16,indexed-job,2
1299,7.0,ContainersReady,indexed-job-8-cmvsf,16,indexed-job,2
1300,0.0,PodScheduled,indexed-job-10-s8mxn,16,indexed-job,2
1301,0.0,Initialized,indexed-job-10-s8mxn,16,indexed-job,2
1302,4.0,Ready,indexed-job-10-s8mxn,16,indexed-job,2
1303,4.0,ContainersReady,indexed-job-10-s8mxn,16,indexed-job,2
1304,0.0,PodScheduled,indexed-job-11-v59hn,16,indexed-job,2
1305,0.0,Initialized,indexed-job-11-v59hn,16,indexed-job,2
1306,3.0,Ready,indexed-job-11-v59hn,16,indexed-job,2
1307,3.0,ContainersReady,indexed-job-11-v59hn,16,indexed-job,2
1308,0.0,PodScheduled,indexed-job-7-fhgb7,16,indexed-job,2
1309,0.0,Initialized,indexed-job-7-fhgb7,16,indexed-job,2
1310,6.0,Ready,indexed-job-7-fhgb7,16,indexed-job,2
1311,6.0,ContainersReady,indexed-job-7-fhgb7,16,indexed-job,2
1312,0.0,PodScheduled,indexed-job-9-t89dq,16,indexed-job,2
1313,0.0,Initialized,indexed-job-9-t89dq,16,indexed-job,2
1314,10.0,Ready,indexed-job-9-t89dq,16,indexed-job,2
1315,10.0,ContainersReady,indexed-job-9-t89dq,16,indexed-job,2
1316,0.0,PodScheduled,indexed-job-15-ppgwl,16,indexed-job,2
1317,0.0,Initialized,indexed-job-15-ppgwl,16,indexed-job,2
1318,8.0,Ready,indexed-job-15-ppgwl,16,indexed-job,2
1319,8.0,ContainersReady,indexed-job-15-ppgwl,16,indexed-job,2
1320,9.993,watch_create,all,16,pods,0
1321,33.228,watch_delete,all,16,pods,0
1322,0.0,PodScheduled,pod-0,16,pods,0
1323,0.0,Initialized,pod-0,16,pods,0
1324,1.0,Ready,pod-0,16,pods,0
1325,1.0,ContainersReady,pod-0,16,pods,0
1326,0.0,PodScheduled,pod-1,16,pods,0
1327,0.0,Initialized,pod-1,16,pods,0
1328,3.0,Ready,pod-1,16,pods,0
1329,3.0,ContainersReady,pod-1,16,pods,0
1330,0.0,PodScheduled,pod-2,16,pods,0
1331,0.0,Initialized,pod-2,16,pods,0
1332,2.0,Ready,pod-2,16,pods,0
1333,2.0,ContainersReady,pod-2,16,pods,0
1334,0.0,PodScheduled,pod-3,16,pods,0
1335,0.0,Initialized,pod-3,16,pods,0
1336,3.0,Ready,pod-3,16,pods,0
1337,3.0,ContainersReady,pod-3,16,pods,0
1338,0.0,PodScheduled,pod-4,16,pods,0
1339,0.0,Initialized,pod-4,16,pods,0
1340,2.0,Ready,pod-4,16,pods,0
1341,2.0,ContainersReady,pod-4,16,pods,0
1342,0.0,PodScheduled,pod-5,16,pods,0
1343,0.0,Initialized,pod-5,16,pods,0
1344,4.0,Ready,pod-5,16,pods,0
1345,4.0,ContainersReady,pod-5,16,pods,0
1346,0.0,PodScheduled,pod-6,16,pods,0
1347,0.0,Initialized,pod-6,16,pods,0
1348,4.0,Ready,pod-6,16,pods,0
1349,4.0,ContainersReady,pod-6,16,pods,0
1350,0.0,PodScheduled,pod-7,16,pods,0
1351,0.0,Initialized,pod-7,16,pods,0
1352,5.0,Ready,pod-7,16,pods,0
1353,5.0,ContainersReady,pod-7,16,pods,0
1354,0.0,PodScheduled,pod-8,16,pods,0
1355,0.0,Initialized,pod-8,16,pods,0
1356,5.0,Ready,pod-8,16,pods,0
1357,5.0,ContainersReady,pod-8,16,pods,0
1358,0.0,PodScheduled,pod-9,16,pods,0
1359,0.0,Initialized,pod-9,16,pods,0
1360,6.0,Ready,pod-9,16,pods,0
1361,6.0,ContainersReady,pod-9,16,pods,0
1362,0.0,PodScheduled,pod-10,16,pods,0
1363,0.0,Initialized,pod-10,16,pods,0
1364,6.0,Ready,pod-10,16,pods,0
1365,6.0,ContainersReady,pod-10,16,pods,0
1366,0.0,PodScheduled,pod-11,16,pods,0
1367,0.0,Initialized,pod-11,16,pods,0
1368,7.0,Ready,pod-11,16,pods,0
1369,7.0,ContainersReady,pod-11,16,pods,0
1370,0.0,PodScheduled,pod-12,16,pods,0
1371,0.0,Initialized,pod-12,16,pods,0
1372,8.0,Ready,pod-12,16,pods,0
1373,8.0,ContainersReady,pod-12,16,pods,0
1374,0.0,PodScheduled,pod-13,16,pods,0
1375,0.0,Initialized,pod-13,16,pods,0
1376,7.0,Ready,pod-13,16,pods,0
1377,7.0,ContainersReady,pod-13,16,pods,0
1378,0.0,PodScheduled,pod-14,16,pods,0
1379,0.0,Initialized,pod-14,16,pods,0
1380,8.0,Ready,pod-14,16,pods,0
1381,8.0,ContainersReady,pod-14,16,pods,0
1382,0.0,PodScheduled,pod-15,16,pods,0
1383,0.0,Initialized,pod-15,16,pods,0
1384,9.0,Ready,pod-15,16,pods,0
1385,9.0,ContainersReady,pod-15,16,pods,0
1386,9.762,watch_create,all,16,indexed-job,15
1387,34.189,watch_delete,all,16,indexed-job,15
1388,0.0,PodScheduled,indexed-job-0-t9l8c,16,indexed-job,15
1389,0.0,Initialized,indexed-job-0-t9l8c,16,indexed-job,15
1390,2.0,Ready,indexed-job-0-t9l8c,16,indexed-job,15
1391,2.0,ContainersReady,indexed-job-0-t9l8c,16,indexed-job,15
1392,0.0,PodScheduled,indexed-job-1-8dgfb,16,indexed-job,15
1393,0.0,Initialized,indexed-job-1-8dgfb,16,indexed-job,15
1394,3.0,Ready,indexed-job-1-8dgfb,16,indexed-job,15
1395,3.0,ContainersReady,indexed-job-1-8dgfb,16,indexed-job,15
1396,0.0,PodScheduled,indexed-job-2-qft96,16,indexed-job,15
1397,0.0,Initialized,indexed-job-2-qft96,16,indexed-job,15
1398,6.0,Ready,indexed-job-2-qft96,16,indexed-job,15
1399,6.0,ContainersReady,indexed-job-2-qft96,16,indexed-job,15
1400,0.0,PodScheduled,indexed-job-3-7brbl,16,indexed-job,15
1401,0.0,Initialized,indexed-job-3-7brbl,16,indexed-job,15
1402,3.0,Ready,indexed-job-3-7brbl,16,indexed-job,15
1403,3.0,ContainersReady,indexed-job-3-7brbl,16,indexed-job,15
1404,0.0,PodScheduled,indexed-job-5-nb22z,16,indexed-job,15
1405,0.0,Initialized,indexed-job-5-nb22z,16,indexed-job,15
1406,5.0,Ready,indexed-job-5-nb22z,16,indexed-job,15
1407,5.0,ContainersReady,indexed-job-5-nb22z,16,indexed-job,15
1408,0.0,PodScheduled,indexed-job-6-87llq,16,indexed-job,15
1409,0.0,Initialized,indexed-job-6-87llq,16,indexed-job,15
1410,7.0,Ready,indexed-job-6-87llq,16,indexed-job,15
1411,7.0,ContainersReady,indexed-job-6-87llq,16,indexed-job,15
1412,0.0,PodScheduled,indexed-job-4-w2vbd,16,indexed-job,15
1413,0.0,Initialized,indexed-job-4-w2vbd,16,indexed-job,15
1414,6.0,Ready,indexed-job-4-w2vbd,16,indexed-job,15
1415,6.0,ContainersReady,indexed-job-4-w2vbd,16,indexed-job,15
1416,0.0,PodScheduled,indexed-job-14-cs47d,16,indexed-job,15
1417,0.0,Initialized,indexed-job-14-cs47d,16,indexed-job,15
1418,9.0,Ready,indexed-job-14-cs47d,16,indexed-job,15
1419,9.0,ContainersReady,indexed-job-14-cs47d,16,indexed-job,15
1420,0.0,PodScheduled,indexed-job-12-w6jjt,16,indexed-job,15
1421,0.0,Initialized,indexed-job-12-w6jjt,16,indexed-job,15
1422,8.0,Ready,indexed-job-12-w6jjt,16,indexed-job,15
1423,8.0,ContainersReady,indexed-job-12-w6jjt,16,indexed-job,15
1424,0.0,PodScheduled,indexed-job-9-p9kp5,16,indexed-job,15
1425,0.0,Initialized,indexed-job-9-p9kp5,16,indexed-job,15
1426,7.0,Ready,indexed-job-9-p9kp5,16,indexed-job,15
1427,7.0,ContainersReady,indexed-job-9-p9kp5,16,indexed-job,15
1428,0.0,PodScheduled,indexed-job-11-46v4s,16,indexed-job,15
1429,0.0,Initialized,indexed-job-11-46v4s,16,indexed-job,15
1430,8.0,Ready,indexed-job-11-46v4s,16,indexed-job,15
1431,8.0,ContainersReady,indexed-job-11-46v4s,16,indexed-job,15
1432,0.0,PodScheduled,indexed-job-13-ftt5x,16,indexed-job,15
1433,0.0,Initialized,indexed-job-13-ftt5x,16,indexed-job,15
1434,10.0,Ready,indexed-job-13-ftt5x,16,indexed-job,15
1435,10.0,ContainersReady,indexed-job-13-ftt5x,16,indexed-job,15
1436,0.0,PodScheduled,indexed-job-10-vdlb6,16,indexed-job,15
1437,0.0,Initialized,indexed-job-10-vdlb6,16,indexed-job,15
1438,4.0,Ready,indexed-job-10-vdlb6,16,indexed-job,15
1439,4.0,ContainersReady,indexed-job-10-vdlb6,16,indexed-job,15
1440,0.0,PodScheduled,indexed-job-7-rltwl,16,indexed-job,15
1441,0.0,Initialized,indexed-job-7-rltwl,16,indexed-job,15
1442,5.0,Ready,indexed-job-7-rltwl,16,indexed-job,15
1443,5.0,ContainersReady,indexed-job-7-rltwl,16,indexed-job,15
1444,0.0,PodScheduled,indexed-job-8-fn5vq,16,indexed-job,15
1445,0.0,Initialized,indexed-job-8-fn5vq,16,indexed-job,15
1446,4.0,Ready,indexed-job-8-fn5vq,16,indexed-job,15
1447,4.0,ContainersReady,indexed-job-8-fn5vq,16,indexed-job,15
1448,0.0,PodScheduled,indexed-job-15-r88pp,16,indexed-job,15
1449,0.0,Initialized,indexed-job-15-r88pp,16,indexed-job,15
1450,9.0,Ready,indexed-job-15-r88pp,16,indexed-job,15
1451,9.0,ContainersReady,indexed-job-15-r88pp,16,indexed-job,15
1452,9.815,watch_create,all,16,indexed-job,9
1453,35.15,watch_delete,all,16,indexed-job,9
1454,0.0,PodScheduled,indexed-job-0-hxdgn,16,indexed-job,9
1455,0.0,Initialized,indexed-job-0-hxdgn,16,indexed-job,9
1456,2.0,Ready,indexed-job-0-hxdgn,16,indexed-job,9
1457,2.0,ContainersReady,indexed-job-0-hxdgn,16,indexed-job,9
1458,0.0,PodScheduled,indexed-job-1-5nx79,16,indexed-job,9
1459,0.0,Initialized,indexed-job-1-5nx79,16,indexed-job,9
1460,3.0,Ready,indexed-job-1-5nx79,16,indexed-job,9
1461,3.0,ContainersReady,indexed-job-1-5nx79,16,indexed-job,9
1462,0.0,PodScheduled,indexed-job-2-wglrh,16,indexed-job,9
1463,0.0,Initialized,indexed-job-2-wglrh,16,indexed-job,9
1464,3.0,Ready,indexed-job-2-wglrh,16,indexed-job,9
1465,3.0,ContainersReady,indexed-job-2-wglrh,16,indexed-job,9
1466,0.0,PodScheduled,indexed-job-5-xfhj5,16,indexed-job,9
1467,0.0,Initialized,indexed-job-5-xfhj5,16,indexed-job,9
1468,5.0,Ready,indexed-job-5-xfhj5,16,indexed-job,9
1469,5.0,ContainersReady,indexed-job-5-xfhj5,16,indexed-job,9
1470,0.0,PodScheduled,indexed-job-4-654ft,16,indexed-job,9
1471,0.0,Initialized,indexed-job-4-654ft,16,indexed-job,9
1472,4.0,Ready,indexed-job-4-654ft,16,indexed-job,9
1473,4.0,ContainersReady,indexed-job-4-654ft,16,indexed-job,9
1474,0.0,PodScheduled,indexed-job-3-8dfbp,16,indexed-job,9
1475,0.0,Initialized,indexed-job-3-8dfbp,16,indexed-job,9
1476,9.0,Ready,indexed-job-3-8dfbp,16,indexed-job,9
1477,9.0,ContainersReady,indexed-job-3-8dfbp,16,indexed-job,9
1478,0.0,PodScheduled,indexed-job-6-swmcg,16,indexed-job,9
1479,0.0,Initialized,indexed-job-6-swmcg,16,indexed-job,9
1480,6.0,Ready,indexed-job-6-swmcg,16,indexed-job,9
1481,6.0,ContainersReady,indexed-job-6-swmcg,16,indexed-job,9
1482,0.0,PodScheduled,indexed-job-14-5ww9d,16,indexed-job,9
1483,0.0,Initialized,indexed-job-14-5ww9d,16,indexed-job,9
1484,4.0,Ready,indexed-job-14-5ww9d,16,indexed-job,9
1485,4.0,ContainersReady,indexed-job-14-5ww9d,16,indexed-job,9
1486,0.0,PodScheduled,indexed-job-9-5ph5l,16,indexed-job,9
1487,0.0,Initialized,indexed-job-9-5ph5l,16,indexed-job,9
1488,7.0,Ready,indexed-job-9-5ph5l,16,indexed-job,9
1489,7.0,ContainersReady,indexed-job-9-5ph5l,16,indexed-job,9
1490,0.0,PodScheduled,indexed-job-11-d7gx6,16,indexed-job,9
1491,0.0,Initialized,indexed-job-11-d7gx6,16,indexed-job,9
1492,5.0,Ready,indexed-job-11-d7gx6,16,indexed-job,9
1493,5.0,ContainersReady,indexed-job-11-d7gx6,16,indexed-job,9
1494,0.0,PodScheduled,indexed-job-12-k8sgc,16,indexed-job,9
1495,0.0,Initialized,indexed-job-12-k8sgc,16,indexed-job,9
1496,9.0,Ready,indexed-job-12-k8sgc,16,indexed-job,9
1497,9.0,ContainersReady,indexed-job-12-k8sgc,16,indexed-job,9
1498,0.0,PodScheduled,indexed-job-13-zqgs2,16,indexed-job,9
1499,0.0,Initialized,indexed-job-13-zqgs2,16,indexed-job,9
1500,8.0,Ready,indexed-job-13-zqgs2,16,indexed-job,9
1501,8.0,ContainersReady,indexed-job-13-zqgs2,16,indexed-job,9
1502,0.0,PodScheduled,indexed-job-7-dh9v4,16,indexed-job,9
1503,0.0,Initialized,indexed-job-7-dh9v4,16,indexed-job,9
1504,6.0,Ready,indexed-job-7-dh9v4,16,indexed-job,9
1505,6.0,ContainersReady,indexed-job-7-dh9v4,16,indexed-job,9
1506,0.0,PodScheduled,indexed-job-10-8tw2c,16,indexed-job,9
1507,0.0,Initialized,indexed-job-10-8tw2c,16,indexed-job,9
1508,10.0,Ready,indexed-job-10-8tw2c,16,indexed-job,9
1509,10.0,ContainersReady,indexed-job-10-8tw2c,16,indexed-job,9
1510,0.0,PodScheduled,indexed-job-8-527rq,16,indexed-job,9
1511,0.0,Initialized,indexed-job-8-527rq,16,indexed-job,9
1512,7.0,Ready,indexed-job-8-527rq,16,indexed-job,9
1513,7.0,ContainersReady,indexed-job-8-527rq,16,indexed-job,9
1514,0.0,PodScheduled,indexed-job-15-2ck5n,16,indexed-job,9
1515,0.0,Initialized,indexed-job-15-2ck5n,16,indexed-job,9
1516,8.0,Ready,indexed-job-15-2ck5n,16,indexed-job,9
1517,8.0,ContainersReady,indexed-job-15-2ck5n,16,indexed-job,9
1518,10.945,watch_create,all,16,pods,13
1519,34.178,watch_delete,all,16,pods,13
1520,0.0,PodScheduled,pod-0,16,pods,13
1521,0.0,Initialized,pod-0,16,pods,13
1522,3.0,Ready,pod-0,16,pods,13
1523,3.0,ContainersReady,pod-0,16,pods,13
1524,0.0,PodScheduled,pod-1,16,pods,13
1525,0.0,Initialized,pod-1,16,pods,13
1526,5.0,Ready,pod-1,16,pods,13
1527,5.0,ContainersReady,pod-1,16,pods,13
1528,0.0,PodScheduled,pod-2,16,pods,13
1529,0.0,Initialized,pod-2,16,pods,13
1530,6.0,Ready,pod-2,16,pods,13
1531,6.0,ContainersReady,pod-2,16,pods,13
1532,0.0,PodScheduled,pod-3,16,pods,13
1533,0.0,Initialized,pod-3,16,pods,13
1534,4.0,Ready,pod-3,16,pods,13
1535,4.0,ContainersReady,pod-3,16,pods,13
1536,0.0,PodScheduled,pod-4,16,pods,13
1537,0.0,Initialized,pod-4,16,pods,13
1538,5.0,Ready,pod-4,16,pods,13
1539,5.0,ContainersReady,pod-4,16,pods,13
1540,0.0,PodScheduled,pod-5,16,pods,13
1541,0.0,Initialized,pod-5,16,pods,13
1542,4.0,Ready,pod-5,16,pods,13
1543,4.0,ContainersReady,pod-5,16,pods,13
1544,0.0,PodScheduled,pod-6,16,pods,13
1545,0.0,Initialized,pod-6,16,pods,13
1546,7.0,Ready,pod-6,16,pods,13
1547,7.0,ContainersReady,pod-6,16,pods,13
1548,0.0,PodScheduled,pod-7,16,pods,13
1549,0.0,Initialized,pod-7,16,pods,13
1550,6.0,Ready,pod-7,16,pods,13
1551,6.0,ContainersReady,pod-7,16,pods,13
1552,0.0,PodScheduled,pod-8,16,pods,13
1553,0.0,Initialized,pod-8,16,pods,13
1554,7.0,Ready,pod-8,16,pods,13
1555,7.0,ContainersReady,pod-8,16,pods,13
1556,0.0,PodScheduled,pod-9,16,pods,13
1557,0.0,Initialized,pod-9,16,pods,13
1558,8.0,Ready,pod-9,16,pods,13
1559,8.0,ContainersReady,pod-9,16,pods,13
1560,0.0,PodScheduled,pod-10,16,pods,13
1561,0.0,Initialized,pod-10,16,pods,13
1562,8.0,Ready,pod-10,16,pods,13
1563,8.0,ContainersReady,pod-10,16,pods,13
1564,0.0,PodScheduled,pod-11,16,pods,13
1565,0.0,Initialized,pod-11,16,pods,13
1566,10.0,Ready,pod-11,16,pods,13
1567,10.0,ContainersReady,pod-11,16,pods,13
1568,0.0,PodScheduled,pod-12,16,pods,13
1569,1.0,Initialized,pod-12,16,pods,13
1570,10.0,Ready,pod-12,16,pods,13
1571,10.0,ContainersReady,pod-12,16,pods,13
1572,0.0,PodScheduled,pod-13,16,pods,13
1573,0.0,Initialized,pod-13,16,pods,13
1574,8.0,Ready,pod-13,16,pods,13
1575,8.0,ContainersReady,pod-13,16,pods,13
1576,0.0,PodScheduled,pod-14,16,pods,13
1577,0.0,Initialized,pod-14,16,pods,13
1578,8.0,Ready,pod-14,16,pods,13
1579,8.0,ContainersReady,pod-14,16,pods,13
1580,0.0,PodScheduled,pod-15,16,pods,13
1581,0.0,Initialized,pod-15,16,pods,13
1582,10.0,Ready,pod-15,16,pods,13
1583,10.0,ContainersReady,pod-15,16,pods,13
1584,15.024,watch_create,all,16,pods,6
1585,33.165,watch_delete,all,16,pods,6
1586,0.0,PodScheduled,pod-0,16,pods,6
1587,0.0,Initialized,pod-0,16,pods,6
1588,2.0,Ready,pod-0,16,pods,6
1589,2.0,ContainersReady,pod-0,16,pods,6
1590,0.0,PodScheduled,pod-1,16,pods,6
1591,0.0,Initialized,pod-1,16,pods,6
1592,3.0,Ready,pod-1,16,pods,6
1593,3.0,ContainersReady,pod-1,16,pods,6
1594,0.0,PodScheduled,pod-2,16,pods,6
1595,0.0,Initialized,pod-2,16,pods,6
1596,5.0,Ready,pod-2,16,pods,6
1597,5.0,ContainersReady,pod-2,16,pods,6
1598,0.0,PodScheduled,pod-3,16,pods,6
1599,0.0,Initialized,pod-3,16,pods,6
1600,6.0,Ready,pod-3,16,pods,6
1601,6.0,ContainersReady,pod-3,16,pods,6
1602,0.0,PodScheduled,pod-4,16,pods,6
1603,0.0,Initialized,pod-4,16,pods,6
1604,3.0,Ready,pod-4,16,pods,6
1605,3.0,ContainersReady,pod-4,16,pods,6
1606,0.0,PodScheduled,pod-5,16,pods,6
1607,0.0,Initialized,pod-5,16,pods,6
1608,4.0,Ready,pod-5,16,pods,6
1609,4.0,ContainersReady,pod-5,16,pods,6
1610,0.0,PodScheduled,pod-6,16,pods,6
1611,0.0,Initialized,pod-6,16,pods,6
1612,15.0,Ready,pod-6,16,pods,6
1613,15.0,ContainersReady,pod-6,16,pods,6
1614,0.0,PodScheduled,pod-7,16,pods,6
1615,0.0,Initialized,pod-7,16,pods,6
1616,4.0,Ready,pod-7,16,pods,6
1617,4.0,ContainersReady,pod-7,16,pods,6
1618,0.0,PodScheduled,pod-8,16,pods,6
1619,0.0,Initialized,pod-8,16,pods,6
1620,5.0,Ready,pod-8,16,pods,6
1621,5.0,ContainersReady,pod-8,16,pods,6
1622,0.0,PodScheduled,pod-9,16,pods,6
1623,0.0,Initialized,pod-9,16,pods,6
1624,6.0,Ready,pod-9,16,pods,6
1625,6.0,ContainersReady,pod-9,16,pods,6
1626,1.0,PodScheduled,pod-10,16,pods,6
1627,1.0,Initialized,pod-10,16,pods,6
1628,8.0,Ready,pod-10,16,pods,6
1629,8.0,ContainersReady,pod-10,16,pods,6
1630,0.0,PodScheduled,pod-11,16,pods,6
1631,0.0,Initialized,pod-11,16,pods,6
1632,8.0,Ready,pod-11,16,pods,6
1633,8.0,ContainersReady,pod-11,16,pods,6
1634,0.0,PodScheduled,pod-12,16,pods,6
1635,0.0,Initialized,pod-12,16,pods,6
1636,6.0,Ready,pod-12,16,pods,6
1637,6.0,ContainersReady,pod-12,16,pods,6
1638,0.0,PodScheduled,pod-13,16,pods,6
1639,0.0,Initialized,pod-13,16,pods,6
1640,9.0,Ready,pod-13,16,pods,6
1641,9.0,ContainersReady,pod-13,16,pods,6
1642,0.0,PodScheduled,pod-14,16,pods,6
1643,0.0,Initialized,pod-14,16,pods,6
1644,14.0,Ready,pod-14,16,pods,6
1645,14.0,ContainersReady,pod-14,16,pods,6
1646,0.0,PodScheduled,pod-15,16,pods,6
1647,0.0,Initialized,pod-15,16,pods,6
1648,11.0,Ready,pod-15,16,pods,6
1649,11.0,ContainersReady,pod-15,16,pods,6
1650,9.761,watch_create,all,16,indexed-job,17
1651,34.21,watch_delete,all,16,indexed-job,17
1652,0.0,PodScheduled,indexed-job-0-xdtdl,16,indexed-job,17
1653,0.0,Initialized,indexed-job-0-xdtdl,16,indexed-job,17
1654,1.0,Ready,indexed-job-0-xdtdl,16,indexed-job,17
1655,1.0,ContainersReady,indexed-job-0-xdtdl,16,indexed-job,17
1656,0.0,PodScheduled,indexed-job-2-7p6rc,16,indexed-job,17
1657,0.0,Initialized,indexed-job-2-7p6rc,16,indexed-job,17
1658,2.0,Ready,indexed-job-2-7p6rc,16,indexed-job,17
1659,2.0,ContainersReady,indexed-job-2-7p6rc,16,indexed-job,17
1660,0.0,PodScheduled,indexed-job-1-s42x5,16,indexed-job,17
1661,0.0,Initialized,indexed-job-1-s42x5,16,indexed-job,17
1662,2.0,Ready,indexed-job-1-s42x5,16,indexed-job,17
1663,2.0,ContainersReady,indexed-job-1-s42x5,16,indexed-job,17
1664,0.0,PodScheduled,indexed-job-3-b6shp,16,indexed-job,17
1665,0.0,Initialized,indexed-job-3-b6shp,16,indexed-job,17
1666,4.0,Ready,indexed-job-3-b6shp,16,indexed-job,17
1667,4.0,ContainersReady,indexed-job-3-b6shp,16,indexed-job,17
1668,0.0,PodScheduled,indexed-job-5-q6m4j,16,indexed-job,17
1669,0.0,Initialized,indexed-job-5-q6m4j,16,indexed-job,17
1670,3.0,Ready,indexed-job-5-q6m4j,16,indexed-job,17
1671,3.0,ContainersReady,indexed-job-5-q6m4j,16,indexed-job,17
1672,0.0,PodScheduled,indexed-job-6-kdkpt,16,indexed-job,17
1673,0.0,Initialized,indexed-job-6-kdkpt,16,indexed-job,17
1674,5.0,Ready,indexed-job-6-kdkpt,16,indexed-job,17
1675,5.0,ContainersReady,indexed-job-6-kdkpt,16,indexed-job,17
1676,0.0,PodScheduled,indexed-job-4-22cgg,16,indexed-job,17
1677,0.0,Initialized,indexed-job-4-22cgg,16,indexed-job,17
1678,5.0,Ready,indexed-job-4-22cgg,16,indexed-job,17
1679,5.0,ContainersReady,indexed-job-4-22cgg,16,indexed-job,17
1680,0.0,PodScheduled,indexed-job-9-8ct8q,16,indexed-job,17
1681,0.0,Initialized,indexed-job-9-8ct8q,16,indexed-job,17
1682,6.0,Ready,indexed-job-9-8ct8q,16,indexed-job,17
1683,6.0,ContainersReady,indexed-job-9-8ct8q,16,indexed-job,17
1684,0.0,PodScheduled,indexed-job-14-6ccw5,16,indexed-job,17
1685,0.0,Initialized,indexed-job-14-6ccw5,16,indexed-job,17
1686,7.0,Ready,indexed-job-14-6ccw5,16,indexed-job,17
1687,7.0,ContainersReady,indexed-job-14-6ccw5,16,indexed-job,17
1688,0.0,PodScheduled,indexed-job-7-jx26m,16,indexed-job,17
1689,0.0,Initialized,indexed-job-7-jx26m,16,indexed-job,17
1690,5.0,Ready,indexed-job-7-jx26m,16,indexed-job,17
1691,5.0,ContainersReady,indexed-job-7-jx26m,16,indexed-job,17
1692,0.0,PodScheduled,indexed-job-10-km942,16,indexed-job,17
1693,0.0,Initialized,indexed-job-10-km942,16,indexed-job,17
1694,6.0,Ready,indexed-job-10-km942,16,indexed-job,17
1695,6.0,ContainersReady,indexed-job-10-km942,16,indexed-job,17
1696,0.0,PodScheduled,indexed-job-8-xvfhk,16,indexed-job,17
1697,0.0,Initialized,indexed-job-8-xvfhk,16,indexed-job,17
1698,7.0,Ready,indexed-job-8-xvfhk,16,indexed-job,17
1699,7.0,ContainersReady,indexed-job-8-xvfhk,16,indexed-job,17
1700,0.0,PodScheduled,indexed-job-12-r8lxx,16,indexed-job,17
1701,0.0,Initialized,indexed-job-12-r8lxx,16,indexed-job,17
1702,3.0,Ready,indexed-job-12-r8lxx,16,indexed-job,17
1703,3.0,ContainersReady,indexed-job-12-r8lxx,16,indexed-job,17
1704,0.0,PodScheduled,indexed-job-11-44bcp,16,indexed-job,17
1705,0.0,Initialized,indexed-job-11-44bcp,16,indexed-job,17
1706,8.0,Ready,indexed-job-11-44bcp,16,indexed-job,17
1707,8.0,ContainersReady,indexed-job-11-44bcp,16,indexed-job,17
1708,0.0,PodScheduled,indexed-job-13-hcjbh,16,indexed-job,17
1709,0.0,Initialized,indexed-job-13-hcjbh,16,indexed-job,17
1710,8.0,Ready,indexed-job-13-hcjbh,16,indexed-job,17
1711,8.0,ContainersReady,indexed-job-13-hcjbh,16,indexed-job,17
1712,0.0,PodScheduled,indexed-job-15-frc88,16,indexed-job,17
1713,0.0,Initialized,indexed-job-15-frc88,16,indexed-job,17
1714,9.0,Ready,indexed-job-15-frc88,16,indexed-job,17
1715,9.0,ContainersReady,indexed-job-15-frc88,16,indexed-job,17
1716,9.773,watch_create,all,16,indexed-job,6
1717,34.157,watch_delete,all,16,indexed-job,6
1718,0.0,PodScheduled,indexed-job-0-k8pw9,16,indexed-job,6
1719,0.0,Initialized,indexed-job-0-k8pw9,16,indexed-job,6
1720,2.0,Ready,indexed-job-0-k8pw9,16,indexed-job,6
1721,2.0,ContainersReady,indexed-job-0-k8pw9,16,indexed-job,6
1722,0.0,PodScheduled,indexed-job-1-mfdwx,16,indexed-job,6
1723,0.0,Initialized,indexed-job-1-mfdwx,16,indexed-job,6
1724,3.0,Ready,indexed-job-1-mfdwx,16,indexed-job,6
1725,3.0,ContainersReady,indexed-job-1-mfdwx,16,indexed-job,6
1726,0.0,PodScheduled,indexed-job-2-2pdvv,16,indexed-job,6
1727,0.0,Initialized,indexed-job-2-2pdvv,16,indexed-job,6
1728,3.0,Ready,indexed-job-2-2pdvv,16,indexed-job,6
1729,3.0,ContainersReady,indexed-job-2-2pdvv,16,indexed-job,6
1730,0.0,PodScheduled,indexed-job-6-lqdq2,16,indexed-job,6
1731,0.0,Initialized,indexed-job-6-lqdq2,16,indexed-job,6
1732,5.0,Ready,indexed-job-6-lqdq2,16,indexed-job,6
1733,5.0,ContainersReady,indexed-job-6-lqdq2,16,indexed-job,6
1734,0.0,PodScheduled,indexed-job-5-jnsz4,16,indexed-job,6
1735,0.0,Initialized,indexed-job-5-jnsz4,16,indexed-job,6
1736,6.0,Ready,indexed-job-5-jnsz4,16,indexed-job,6
1737,6.0,ContainersReady,indexed-job-5-jnsz4,16,indexed-job,6
1738,0.0,PodScheduled,indexed-job-3-d6wk5,16,indexed-job,6
1739,0.0,Initialized,indexed-job-3-d6wk5,16,indexed-job,6
1740,8.0,Ready,indexed-job-3-d6wk5,16,indexed-job,6
1741,8.0,ContainersReady,indexed-job-3-d6wk5,16,indexed-job,6
1742,0.0,PodScheduled,indexed-job-4-qxspk,16,indexed-job,6
1743,0.0,Initialized,indexed-job-4-qxspk,16,indexed-job,6
1744,5.0,Ready,indexed-job-4-qxspk,16,indexed-job,6
1745,5.0,ContainersReady,indexed-job-4-qxspk,16,indexed-job,6
1746,0.0,PodScheduled,indexed-job-8-6lcmn,16,indexed-job,6
1747,0.0,Initialized,indexed-job-8-6lcmn,16,indexed-job,6
1748,4.0,Ready,indexed-job-8-6lcmn,16,indexed-job,6
1749,4.0,ContainersReady,indexed-job-8-6lcmn,16,indexed-job,6
1750,0.0,PodScheduled,indexed-job-7-cvgth,16,indexed-job,6
1751,0.0,Initialized,indexed-job-7-cvgth,16,indexed-job,6
1752,6.0,Ready,indexed-job-7-cvgth,16,indexed-job,6
1753,6.0,ContainersReady,indexed-job-7-cvgth,16,indexed-job,6
1754,0.0,PodScheduled,indexed-job-10-g85f4,16,indexed-job,6
1755,0.0,Initialized,indexed-job-10-g85f4,16,indexed-job,6
1756,7.0,Ready,indexed-job-10-g85f4,16,indexed-job,6
1757,7.0,ContainersReady,indexed-job-10-g85f4,16,indexed-job,6
1758,0.0,PodScheduled,indexed-job-13-9x682,16,indexed-job,6
1759,0.0,Initialized,indexed-job-13-9x682,16,indexed-job,6
1760,9.0,Ready,indexed-job-13-9x682,16,indexed-job,6
1761,9.0,ContainersReady,indexed-job-13-9x682,16,indexed-job,6
1762,0.0,PodScheduled,indexed-job-9-wkfk2,16,indexed-job,6
1763,0.0,Initialized,indexed-job-9-wkfk2,16,indexed-job,6
1764,4.0,Ready,indexed-job-9-wkfk2,16,indexed-job,6
1765,4.0,ContainersReady,indexed-job-9-wkfk2,16,indexed-job,6
1766,0.0,PodScheduled,indexed-job-12-rs5pd,16,indexed-job,6
1767,0.0,Initialized,indexed-job-12-rs5pd,16,indexed-job,6
1768,7.0,Ready,indexed-job-12-rs5pd,16,indexed-job,6
1769,7.0,ContainersReady,indexed-job-12-rs5pd,16,indexed-job,6
1770,0.0,PodScheduled,indexed-job-11-jrptp,16,indexed-job,6
1771,0.0,Initialized,indexed-job-11-jrptp,16,indexed-job,6
1772,8.0,Ready,indexed-job-11-jrptp,16,indexed-job,6
1773,8.0,ContainersReady,indexed-job-11-jrptp,16,indexed-job,6
1774,0.0,PodScheduled,indexed-job-14-xbbt9,16,indexed-job,6
1775,0.0,Initialized,indexed-job-14-xbbt9,16,indexed-job,6
1776,9.0,Ready,indexed-job-14-xbbt9,16,indexed-job,6
1777,9.0,ContainersReady,indexed-job-14-xbbt9,16,indexed-job,6
1778,0.0,PodScheduled,indexed-job-15-mzznx,16,indexed-job,6
1779,0.0,Initialized,indexed-job-15-mzznx,16,indexed-job,6
1780,10.0,Ready,indexed-job-15-mzznx,16,indexed-job,6
1781,10.0,ContainersReady,indexed-job-15-mzznx,16,indexed-job,6
1782,8.805,watch_create,all,16,indexed-job,19
1783,33.184,watch_delete,all,16,indexed-job,19
1784,0.0,PodScheduled,indexed-job-0-x5224,16,indexed-job,19
1785,0.0,Initialized,indexed-job-0-x5224,16,indexed-job,19
1786,1.0,Ready,indexed-job-0-x5224,16,indexed-job,19
1787,1.0,ContainersReady,indexed-job-0-x5224,16,indexed-job,19
1788,0.0,PodScheduled,indexed-job-2-sgkhk,16,indexed-job,19
1789,0.0,Initialized,indexed-job-2-sgkhk,16,indexed-job,19
1790,2.0,Ready,indexed-job-2-sgkhk,16,indexed-job,19
1791,2.0,ContainersReady,indexed-job-2-sgkhk,16,indexed-job,19
1792,0.0,PodScheduled,indexed-job-1-x4k8s,16,indexed-job,19
1793,0.0,Initialized,indexed-job-1-x4k8s,16,indexed-job,19
1794,2.0,Ready,indexed-job-1-x4k8s,16,indexed-job,19
1795,2.0,ContainersReady,indexed-job-1-x4k8s,16,indexed-job,19
1796,0.0,PodScheduled,indexed-job-4-726n2,16,indexed-job,19
1797,0.0,Initialized,indexed-job-4-726n2,16,indexed-job,19
1798,6.0,Ready,indexed-job-4-726n2,16,indexed-job,19
1799,6.0,ContainersReady,indexed-job-4-726n2,16,indexed-job,19
1800,0.0,PodScheduled,indexed-job-5-c4n7c,16,indexed-job,19
1801,0.0,Initialized,indexed-job-5-c4n7c,16,indexed-job,19
1802,3.0,Ready,indexed-job-5-c4n7c,16,indexed-job,19
1803,3.0,ContainersReady,indexed-job-5-c4n7c,16,indexed-job,19
1804,0.0,PodScheduled,indexed-job-3-zsxpz,16,indexed-job,19
1805,0.0,Initialized,indexed-job-3-zsxpz,16,indexed-job,19
1806,5.0,Ready,indexed-job-3-zsxpz,16,indexed-job,19
1807,5.0,ContainersReady,indexed-job-3-zsxpz,16,indexed-job,19
1808,0.0,PodScheduled,indexed-job-6-5ck4m,16,indexed-job,19
1809,0.0,Initialized,indexed-job-6-5ck4m,16,indexed-job,19
1810,6.0,Ready,indexed-job-6-5ck4m,16,indexed-job,19
1811,6.0,ContainersReady,indexed-job-6-5ck4m,16,indexed-job,19
1812,0.0,PodScheduled,indexed-job-14-k6v6q,16,indexed-job,19
1813,0.0,Initialized,indexed-job-14-k6v6q,16,indexed-job,19
1814,6.0,Ready,indexed-job-14-k6v6q,16,indexed-job,19
1815,6.0,ContainersReady,indexed-job-14-k6v6q,16,indexed-job,19
1816,0.0,PodScheduled,indexed-job-13-kmlk2,16,indexed-job,19
1817,0.0,Initialized,indexed-job-13-kmlk2,16,indexed-job,19
1818,7.0,Ready,indexed-job-13-kmlk2,16,indexed-job,19
1819,7.0,ContainersReady,indexed-job-13-kmlk2,16,indexed-job,19
1820,0.0,PodScheduled,indexed-job-8-hgj7v,16,indexed-job,19
1821,0.0,Initialized,indexed-job-8-hgj7v,16,indexed-job,19
1822,5.0,Ready,indexed-job-8-hgj7v,16,indexed-job,19
1823,5.0,ContainersReady,indexed-job-8-hgj7v,16,indexed-job,19
1824,0.0,PodScheduled,indexed-job-9-zgdg2,16,indexed-job,19
1825,0.0,Initialized,indexed-job-9-zgdg2,16,indexed-job,19
1826,4.0,Ready,indexed-job-9-zgdg2,16,indexed-job,19
1827,4.0,ContainersReady,indexed-job-9-zgdg2,16,indexed-job,19
1828,0.0,PodScheduled,indexed-job-10-mgnnc,16,indexed-job,19
1829,0.0,Initialized,indexed-job-10-mgnnc,16,indexed-job,19
1830,7.0,Ready,indexed-job-10-mgnnc,16,indexed-job,19
1831,7.0,ContainersReady,indexed-job-10-mgnnc,16,indexed-job,19
1832,0.0,PodScheduled,indexed-job-11-dvnh7,16,indexed-job,19
1833,0.0,Initialized,indexed-job-11-dvnh7,16,indexed-job,19
1834,4.0,Ready,indexed-job-11-dvnh7,16,indexed-job,19
1835,4.0,ContainersReady,indexed-job-11-dvnh7,16,indexed-job,19
1836,0.0,PodScheduled,indexed-job-7-g94bk,16,indexed-job,19
1837,0.0,Initialized,indexed-job-7-g94bk,16,indexed-job,19
1838,8.0,Ready,indexed-job-7-g94bk,16,indexed-job,19
1839,8.0,ContainersReady,indexed-job-7-g94bk,16,indexed-job,19
1840,0.0,PodScheduled,indexed-job-12-qqwxz,16,indexed-job,19
1841,0.0,Initialized,indexed-job-12-qqwxz,16,indexed-job,19
1842,3.0,Ready,indexed-job-12-qqwxz,16,indexed-job,19
1843,3.0,ContainersReady,indexed-job-12-qqwxz,16,indexed-job,19
1844,0.0,PodScheduled,indexed-job-15-ws5vh,16,indexed-job,19
1845,0.0,Initialized,indexed-job-15-ws5vh,16,indexed-job,19
1846,8.0,Ready,indexed-job-15-ws5vh,16,indexed-job,19
1847,8.0,ContainersReady,indexed-job-15-ws5vh,16,indexed-job,19
1848,9.996,watch_create,all,16,pods,8
1849,34.171,watch_delete,all,16,pods,8
1850,0.0,PodScheduled,pod-0,16,pods,8
1851,0.0,Initialized,pod-0,16,pods,8
1852,3.0,Ready,pod-0,16,pods,8
1853,3.0,ContainersReady,pod-0,16,pods,8
1854,0.0,PodScheduled,pod-1,16,pods,8
1855,0.0,Initialized,pod-1,16,pods,8
1856,2.0,Ready,pod-1,16,pods,8
1857,2.0,ContainersReady,pod-1,16,pods,8
1858,0.0,PodScheduled,pod-2,16,pods,8
1859,0.0,Initialized,pod-2,16,pods,8
1860,3.0,Ready,pod-2,16,pods,8
1861,3.0,ContainersReady,pod-2,16,pods,8
1862,0.0,PodScheduled,pod-3,16,pods,8
1863,0.0,Initialized,pod-3,16,pods,8
1864,4.0,Ready,pod-3,16,pods,8
1865,4.0,ContainersReady,pod-3,16,pods,8
1866,0.0,PodScheduled,pod-4,16,pods,8
1867,0.0,Initialized,pod-4,16,pods,8
1868,5.0,Ready,pod-4,16,pods,8
1869,5.0,ContainersReady,pod-4,16,pods,8
1870,0.0,PodScheduled,pod-5,16,pods,8
1871,0.0,Initialized,pod-5,16,pods,8
1872,4.0,Ready,pod-5,16,pods,8
1873,4.0,ContainersReady,pod-5,16,pods,8
1874,0.0,PodScheduled,pod-6,16,pods,8
1875,0.0,Initialized,pod-6,16,pods,8
1876,5.0,Ready,pod-6,16,pods,8
1877,5.0,ContainersReady,pod-6,16,pods,8
1878,0.0,PodScheduled,pod-7,16,pods,8
1879,0.0,Initialized,pod-7,16,pods,8
1880,6.0,Ready,pod-7,16,pods,8
1881,6.0,ContainersReady,pod-7,16,pods,8
1882,0.0,PodScheduled,pod-8,16,pods,8
1883,0.0,Initialized,pod-8,16,pods,8
1884,6.0,Ready,pod-8,16,pods,8
1885,6.0,ContainersReady,pod-8,16,pods,8
1886,0.0,PodScheduled,pod-9,16,pods,8
1887,0.0,Initialized,pod-9,16,pods,8
1888,8.0,Ready,pod-9,16,pods,8
1889,8.0,ContainersReady,pod-9,16,pods,8
1890,0.0,PodScheduled,pod-10,16,pods,8
1891,0.0,Initialized,pod-10,16,pods,8
1892,7.0,Ready,pod-10,16,pods,8
1893,7.0,ContainersReady,pod-10,16,pods,8
1894,0.0,PodScheduled,pod-11,16,pods,8
1895,0.0,Initialized,pod-11,16,pods,8
1896,9.0,Ready,pod-11,16,pods,8
1897,9.0,ContainersReady,pod-11,16,pods,8
1898,0.0,PodScheduled,pod-12,16,pods,8
1899,0.0,Initialized,pod-12,16,pods,8
1900,7.0,Ready,pod-12,16,pods,8
1901,7.0,ContainersReady,pod-12,16,pods,8
1902,0.0,PodScheduled,pod-13,16,pods,8
1903,0.0,Initialized,pod-13,16,pods,8
1904,8.0,Ready,pod-13,16,pods,8
1905,8.0,ContainersReady,pod-13,16,pods,8
1906,0.0,PodScheduled,pod-14,16,pods,8
1907,0.0,Initialized,pod-14,16,pods,8
1908,9.0,Ready,pod-14,16,pods,8
1909,9.0,ContainersReady,pod-14,16,pods,8
1910,0.0,PodScheduled,pod-15,16,pods,8
1911,0.0,Initialized,pod-15,16,pods,8
1912,10.0,Ready,pod-15,16,pods,8
1913,10.0,ContainersReady,pod-15,16,pods,8
1914,9.777,watch_create,all,16,indexed-job,14
1915,33.181,watch_delete,all,16,indexed-job,14
1916,0.0,PodScheduled,indexed-job-0-gm956,16,indexed-job,14
1917,1.0,Initialized,indexed-job-0-gm956,16,indexed-job,14
1918,2.0,Ready,indexed-job-0-gm956,16,indexed-job,14
1919,2.0,ContainersReady,indexed-job-0-gm956,16,indexed-job,14
1920,1.0,PodScheduled,indexed-job-1-jp2rc,16,indexed-job,14
1921,1.0,Initialized,indexed-job-1-jp2rc,16,indexed-job,14
1922,3.0,Ready,indexed-job-1-jp2rc,16,indexed-job,14
1923,3.0,ContainersReady,indexed-job-1-jp2rc,16,indexed-job,14
1924,1.0,PodScheduled,indexed-job-2-8m8wl,16,indexed-job,14
1925,1.0,Initialized,indexed-job-2-8m8wl,16,indexed-job,14
1926,3.0,Ready,indexed-job-2-8m8wl,16,indexed-job,14
1927,3.0,ContainersReady,indexed-job-2-8m8wl,16,indexed-job,14
1928,0.0,PodScheduled,indexed-job-6-5lp4q,16,indexed-job,14
1929,0.0,Initialized,indexed-job-6-5lp4q,16,indexed-job,14
1930,6.0,Ready,indexed-job-6-5lp4q,16,indexed-job,14
1931,6.0,ContainersReady,indexed-job-6-5lp4q,16,indexed-job,14
1932,0.0,PodScheduled,indexed-job-5-gl9pg,16,indexed-job,14
1933,0.0,Initialized,indexed-job-5-gl9pg,16,indexed-job,14
1934,4.0,Ready,indexed-job-5-gl9pg,16,indexed-job,14
1935,4.0,ContainersReady,indexed-job-5-gl9pg,16,indexed-job,14
1936,0.0,PodScheduled,indexed-job-3-f2692,16,indexed-job,14
1937,0.0,Initialized,indexed-job-3-f2692,16,indexed-job,14
1938,3.0,Ready,indexed-job-3-f2692,16,indexed-job,14
1939,3.0,ContainersReady,indexed-job-3-f2692,16,indexed-job,14
1940,0.0,PodScheduled,indexed-job-4-fngxk,16,indexed-job,14
1941,0.0,Initialized,indexed-job-4-fngxk,16,indexed-job,14
1942,4.0,Ready,indexed-job-4-fngxk,16,indexed-job,14
1943,4.0,ContainersReady,indexed-job-4-fngxk,16,indexed-job,14
1944,0.0,PodScheduled,indexed-job-14-knbqt,16,indexed-job,14
1945,0.0,Initialized,indexed-job-14-knbqt,16,indexed-job,14
1946,8.0,Ready,indexed-job-14-knbqt,16,indexed-job,14
1947,8.0,ContainersReady,indexed-job-14-knbqt,16,indexed-job,14
1948,0.0,PodScheduled,indexed-job-8-mj8n6,16,indexed-job,14
1949,0.0,Initialized,indexed-job-8-mj8n6,16,indexed-job,14
1950,9.0,Ready,indexed-job-8-mj8n6,16,indexed-job,14
1951,9.0,ContainersReady,indexed-job-8-mj8n6,16,indexed-job,14
1952,0.0,PodScheduled,indexed-job-10-9n2mf,16,indexed-job,14
1953,0.0,Initialized,indexed-job-10-9n2mf,16,indexed-job,14
1954,5.0,Ready,indexed-job-10-9n2mf,16,indexed-job,14
1955,5.0,ContainersReady,indexed-job-10-9n2mf,16,indexed-job,14
1956,0.0,PodScheduled,indexed-job-12-6mlxm,16,indexed-job,14
1957,0.0,Initialized,indexed-job-12-6mlxm,16,indexed-job,14
1958,3.0,Ready,indexed-job-12-6mlxm,16,indexed-job,14
1959,3.0,ContainersReady,indexed-job-12-6mlxm,16,indexed-job,14
1960,0.0,PodScheduled,indexed-job-13-m9bgr,16,indexed-job,14
1961,0.0,Initialized,indexed-job-13-m9bgr,16,indexed-job,14
1962,5.0,Ready,indexed-job-13-m9bgr,16,indexed-job,14
1963,5.0,ContainersReady,indexed-job-13-m9bgr,16,indexed-job,14
1964,0.0,PodScheduled,indexed-job-7-dzcn7,16,indexed-job,14
1965,0.0,Initialized,indexed-job-7-dzcn7,16,indexed-job,14
1966,6.0,Ready,indexed-job-7-dzcn7,16,indexed-job,14
1967,6.0,ContainersReady,indexed-job-7-dzcn7,16,indexed-job,14
1968,0.0,PodScheduled,indexed-job-11-vmvm9,16,indexed-job,14
1969,0.0,Initialized,indexed-job-11-vmvm9,16,indexed-job,14
1970,7.0,Ready,indexed-job-11-vmvm9,16,indexed-job,14
1971,7.0,ContainersReady,indexed-job-11-vmvm9,16,indexed-job,14
1972,0.0,PodScheduled,indexed-job-9-blkbd,16,indexed-job,14
1973,0.0,Initialized,indexed-job-9-blkbd,16,indexed-job,14
1974,8.0,Ready,indexed-job-9-blkbd,16,indexed-job,14
1975,8.0,ContainersReady,indexed-job-9-blkbd,16,indexed-job,14
1976,0.0,PodScheduled,indexed-job-15-q2gv8,16,indexed-job,14
1977,0.0,Initialized,indexed-job-15-q2gv8,16,indexed-job,14
1978,7.0,Ready,indexed-job-15-q2gv8,16,indexed-job,14
1979,7.0,ContainersReady,indexed-job-15-q2gv8,16,indexed-job,14
1980,9.993,watch_create,all,16,pods,1
1981,34.135,watch_delete,all,16,pods,1
1982,0.0,PodScheduled,pod-0,16,pods,1
1983,0.0,Initialized,pod-0,16,pods,1
1984,5.0,Ready,pod-0,16,pods,1
1985,5.0,ContainersReady,pod-0,16,pods,1
1986,0.0,PodScheduled,pod-1,16,pods,1
1987,0.0,Initialized,pod-1,16,pods,1
1988,2.0,Ready,pod-1,16,pods,1
1989,2.0,ContainersReady,pod-1,16,pods,1
1990,0.0,PodScheduled,pod-2,16,pods,1
1991,0.0,Initialized,pod-2,16,pods,1
1992,3.0,Ready,pod-2,16,pods,1
1993,3.0,ContainersReady,pod-2,16,pods,1
1994,0.0,PodScheduled,pod-3,16,pods,1
1995,0.0,Initialized,pod-3,16,pods,1
1996,4.0,Ready,pod-3,16,pods,1
1997,4.0,ContainersReady,pod-3,16,pods,1
1998,0.0,PodScheduled,pod-4,16,pods,1
1999,0.0,Initialized,pod-4,16,pods,1
2000,3.0,Ready,pod-4,16,pods,1
2001,3.0,ContainersReady,pod-4,16,pods,1
2002,0.0,PodScheduled,pod-5,16,pods,1
2003,0.0,Initialized,pod-5,16,pods,1
2004,4.0,Ready,pod-5,16,pods,1
2005,4.0,ContainersReady,pod-5,16,pods,1
2006,0.0,PodScheduled,pod-6,16,pods,1
2007,0.0,Initialized,pod-6,16,pods,1
2008,5.0,Ready,pod-6,16,pods,1
2009,5.0,ContainersReady,pod-6,16,pods,1
2010,0.0,PodScheduled,pod-7,16,pods,1
2011,0.0,Initialized,pod-7,16,pods,1
2012,6.0,Ready,pod-7,16,pods,1
2013,6.0,ContainersReady,pod-7,16,pods,1
2014,0.0,PodScheduled,pod-8,16,pods,1
2015,0.0,Initialized,pod-8,16,pods,1
2016,8.0,Ready,pod-8,16,pods,1
2017,8.0,ContainersReady,pod-8,16,pods,1
2018,0.0,PodScheduled,pod-9,16,pods,1
2019,0.0,Initialized,pod-9,16,pods,1
2020,7.0,Ready,pod-9,16,pods,1
2021,7.0,ContainersReady,pod-9,16,pods,1
2022,0.0,PodScheduled,pod-10,16,pods,1
2023,0.0,Initialized,pod-10,16,pods,1
2024,9.0,Ready,pod-10,16,pods,1
2025,9.0,ContainersReady,pod-10,16,pods,1
2026,0.0,PodScheduled,pod-11,16,pods,1
2027,0.0,Initialized,pod-11,16,pods,1
2028,7.0,Ready,pod-11,16,pods,1
2029,7.0,ContainersReady,pod-11,16,pods,1
2030,0.0,PodScheduled,pod-12,16,pods,1
2031,0.0,Initialized,pod-12,16,pods,1
2032,9.0,Ready,pod-12,16,pods,1
2033,9.0,ContainersReady,pod-12,16,pods,1
2034,0.0,PodScheduled,pod-13,16,pods,1
2035,0.0,Initialized,pod-13,16,pods,1
2036,8.0,Ready,pod-13,16,pods,1
2037,8.0,ContainersReady,pod-13,16,pods,1
2038,0.0,PodScheduled,pod-14,16,pods,1
2039,0.0,Initialized,pod-14,16,pods,1
2040,10.0,Ready,pod-14,16,pods,1
2041,10.0,ContainersReady,pod-14,16,pods,1
2042,0.0,PodScheduled,pod-15,16,pods,1
2043,0.0,Initialized,pod-15,16,pods,1
2044,6.0,Ready,pod-15,16,pods,1
2045,6.0,ContainersReady,pod-15,16,pods,1
2046,9.818,watch_create,all,16,indexed-job,8
2047,34.113,watch_delete,all,16,indexed-job,8
2048,0.0,PodScheduled,indexed-job-0-668cn,16,indexed-job,8
2049,0.0,Initialized,indexed-job-0-668cn,16,indexed-job,8
2050,2.0,Ready,indexed-job-0-668cn,16,indexed-job,8
2051,2.0,ContainersReady,indexed-job-0-668cn,16,indexed-job,8
2052,0.0,PodScheduled,indexed-job-1-b2ksg,16,indexed-job,8
2053,0.0,Initialized,indexed-job-1-b2ksg,16,indexed-job,8
2054,7.0,Ready,indexed-job-1-b2ksg,16,indexed-job,8
2055,7.0,ContainersReady,indexed-job-1-b2ksg,16,indexed-job,8
2056,0.0,PodScheduled,indexed-job-2-bgtdx,16,indexed-job,8
2057,0.0,Initialized,indexed-job-2-bgtdx,16,indexed-job,8
2058,6.0,Ready,indexed-job-2-bgtdx,16,indexed-job,8
2059,6.0,ContainersReady,indexed-job-2-bgtdx,16,indexed-job,8
2060,0.0,PodScheduled,indexed-job-6-qpkm9,16,indexed-job,8
2061,0.0,Initialized,indexed-job-6-qpkm9,16,indexed-job,8
2062,10.0,Ready,indexed-job-6-qpkm9,16,indexed-job,8
2063,10.0,ContainersReady,indexed-job-6-qpkm9,16,indexed-job,8
2064,0.0,PodScheduled,indexed-job-3-7n268,16,indexed-job,8
2065,0.0,Initialized,indexed-job-3-7n268,16,indexed-job,8
2066,9.0,Ready,indexed-job-3-7n268,16,indexed-job,8
2067,9.0,ContainersReady,indexed-job-3-7n268,16,indexed-job,8
2068,0.0,PodScheduled,indexed-job-4-z24qg,16,indexed-job,8
2069,0.0,Initialized,indexed-job-4-z24qg,16,indexed-job,8
2070,4.0,Ready,indexed-job-4-z24qg,16,indexed-job,8
2071,4.0,ContainersReady,indexed-job-4-z24qg,16,indexed-job,8
2072,0.0,PodScheduled,indexed-job-5-kmrb4,16,indexed-job,8
2073,0.0,Initialized,indexed-job-5-kmrb4,16,indexed-job,8
2074,4.0,Ready,indexed-job-5-kmrb4,16,indexed-job,8
2075,4.0,ContainersReady,indexed-job-5-kmrb4,16,indexed-job,8
2076,0.0,PodScheduled,indexed-job-9-qtt9m,16,indexed-job,8
2077,0.0,Initialized,indexed-job-9-qtt9m,16,indexed-job,8
2078,6.0,Ready,indexed-job-9-qtt9m,16,indexed-job,8
2079,6.0,ContainersReady,indexed-job-9-qtt9m,16,indexed-job,8
2080,0.0,PodScheduled,indexed-job-12-k9jxx,16,indexed-job,8
2081,0.0,Initialized,indexed-job-12-k9jxx,16,indexed-job,8
2082,5.0,Ready,indexed-job-12-k9jxx,16,indexed-job,8
2083,5.0,ContainersReady,indexed-job-12-k9jxx,16,indexed-job,8
2084,0.0,PodScheduled,indexed-job-14-jbl6k,16,indexed-job,8
2085,0.0,Initialized,indexed-job-14-jbl6k,16,indexed-job,8
2086,3.0,Ready,indexed-job-14-jbl6k,16,indexed-job,8
2087,3.0,ContainersReady,indexed-job-14-jbl6k,16,indexed-job,8
2088,0.0,PodScheduled,indexed-job-7-bq7fq,16,indexed-job,8
2089,0.0,Initialized,indexed-job-7-bq7fq,16,indexed-job,8
2090,7.0,Ready,indexed-job-7-bq7fq,16,indexed-job,8
2091,7.0,ContainersReady,indexed-job-7-bq7fq,16,indexed-job,8
2092,0.0,PodScheduled,indexed-job-13-fnk2j,16,indexed-job,8
2093,0.0,Initialized,indexed-job-13-fnk2j,16,indexed-job,8
2094,3.0,Ready,indexed-job-13-fnk2j,16,indexed-job,8
2095,3.0,ContainersReady,indexed-job-13-fnk2j,16,indexed-job,8
2096,0.0,PodScheduled,indexed-job-10-ntzxj,16,indexed-job,8
2097,0.0,Initialized,indexed-job-10-ntzxj,16,indexed-job,8
2098,5.0,Ready,indexed-job-10-ntzxj,16,indexed-job,8
2099,5.0,ContainersReady,indexed-job-10-ntzxj,16,indexed-job,8
2100,0.0,PodScheduled,indexed-job-11-xhkp9,16,indexed-job,8
2101,0.0,Initialized,indexed-job-11-xhkp9,16,indexed-job,8
2102,9.0,Ready,indexed-job-11-xhkp9,16,indexed-job,8
2103,9.0,ContainersReady,indexed-job-11-xhkp9,16,indexed-job,8
2104,0.0,PodScheduled,indexed-job-8-vvvzb,16,indexed-job,8
2105,0.0,Initialized,indexed-job-8-vvvzb,16,indexed-job,8
2106,10.0,Ready,indexed-job-8-vvvzb,16,indexed-job,8
2107,10.0,ContainersReady,indexed-job-8-vvvzb,16,indexed-job,8
2108,0.0,PodScheduled,indexed-job-15-qs57h,16,indexed-job,8
2109,0.0,Initialized,indexed-job-15-qs57h,16,indexed-job,8
2110,8.0,Ready,indexed-job-15-qs57h,16,indexed-job,8
2111,8.0,ContainersReady,indexed-job-15-qs57h,16,indexed-job,8
2112,9.771,watch_create,all,16,indexed-job,4
2113,34.138,watch_delete,all,16,indexed-job,4
2114,0.0,PodScheduled,indexed-job-0-kb5r9,16,indexed-job,4
2115,0.0,Initialized,indexed-job-0-kb5r9,16,indexed-job,4
2116,3.0,Ready,indexed-job-0-kb5r9,16,indexed-job,4
2117,3.0,ContainersReady,indexed-job-0-kb5r9,16,indexed-job,4
2118,0.0,PodScheduled,indexed-job-1-7vwfp,16,indexed-job,4
2119,0.0,Initialized,indexed-job-1-7vwfp,16,indexed-job,4
2120,2.0,Ready,indexed-job-1-7vwfp,16,indexed-job,4
2121,2.0,ContainersReady,indexed-job-1-7vwfp,16,indexed-job,4
2122,0.0,PodScheduled,indexed-job-2-zfdzm,16,indexed-job,4
2123,0.0,Initialized,indexed-job-2-zfdzm,16,indexed-job,4
2124,4.0,Ready,indexed-job-2-zfdzm,16,indexed-job,4
2125,4.0,ContainersReady,indexed-job-2-zfdzm,16,indexed-job,4
2126,0.0,PodScheduled,indexed-job-6-k7vxb,16,indexed-job,4
2127,0.0,Initialized,indexed-job-6-k7vxb,16,indexed-job,4
2128,3.0,Ready,indexed-job-6-k7vxb,16,indexed-job,4
2129,3.0,ContainersReady,indexed-job-6-k7vxb,16,indexed-job,4
2130,0.0,PodScheduled,indexed-job-5-cc4xt,16,indexed-job,4
2131,0.0,Initialized,indexed-job-5-cc4xt,16,indexed-job,4
2132,4.0,Ready,indexed-job-5-cc4xt,16,indexed-job,4
2133,4.0,ContainersReady,indexed-job-5-cc4xt,16,indexed-job,4
2134,0.0,PodScheduled,indexed-job-3-tbqhp,16,indexed-job,4
2135,0.0,Initialized,indexed-job-3-tbqhp,16,indexed-job,4
2136,5.0,Ready,indexed-job-3-tbqhp,16,indexed-job,4
2137,5.0,ContainersReady,indexed-job-3-tbqhp,16,indexed-job,4
2138,0.0,PodScheduled,indexed-job-4-22m29,16,indexed-job,4
2139,0.0,Initialized,indexed-job-4-22m29,16,indexed-job,4
2140,5.0,Ready,indexed-job-4-22m29,16,indexed-job,4
2141,5.0,ContainersReady,indexed-job-4-22m29,16,indexed-job,4
2142,0.0,PodScheduled,indexed-job-9-qjmkr,16,indexed-job,4
2143,0.0,Initialized,indexed-job-9-qjmkr,16,indexed-job,4
2144,8.0,Ready,indexed-job-9-qjmkr,16,indexed-job,4
2145,8.0,ContainersReady,indexed-job-9-qjmkr,16,indexed-job,4
2146,0.0,PodScheduled,indexed-job-14-8gkkv,16,indexed-job,4
2147,0.0,Initialized,indexed-job-14-8gkkv,16,indexed-job,4
2148,6.0,Ready,indexed-job-14-8gkkv,16,indexed-job,4
2149,6.0,ContainersReady,indexed-job-14-8gkkv,16,indexed-job,4
2150,0.0,PodScheduled,indexed-job-10-g2l8x,16,indexed-job,4
2151,0.0,Initialized,indexed-job-10-g2l8x,16,indexed-job,4
2152,7.0,Ready,indexed-job-10-g2l8x,16,indexed-job,4
2153,7.0,ContainersReady,indexed-job-10-g2l8x,16,indexed-job,4
2154,0.0,PodScheduled,indexed-job-12-mqxj9,16,indexed-job,4
2155,0.0,Initialized,indexed-job-12-mqxj9,16,indexed-job,4
2156,6.0,Ready,indexed-job-12-mqxj9,16,indexed-job,4
2157,6.0,ContainersReady,indexed-job-12-mqxj9,16,indexed-job,4
2158,0.0,PodScheduled,indexed-job-7-6c59l,16,indexed-job,4
2159,0.0,Initialized,indexed-job-7-6c59l,16,indexed-job,4
2160,10.0,Ready,indexed-job-7-6c59l,16,indexed-job,4
2161,10.0,ContainersReady,indexed-job-7-6c59l,16,indexed-job,4
2162,0.0,PodScheduled,indexed-job-11-4tr9q,16,indexed-job,4
2163,0.0,Initialized,indexed-job-11-4tr9q,16,indexed-job,4
2164,9.0,Ready,indexed-job-11-4tr9q,16,indexed-job,4
2165,9.0,ContainersReady,indexed-job-11-4tr9q,16,indexed-job,4
2166,0.0,PodScheduled,indexed-job-8-7hrkr,16,indexed-job,4
2167,0.0,Initialized,indexed-job-8-7hrkr,16,indexed-job,4
2168,8.0,Ready,indexed-job-8-7hrkr,16,indexed-job,4
2169,8.0,ContainersReady,indexed-job-8-7hrkr,16,indexed-job,4
2170,0.0,PodScheduled,indexed-job-13-7pdxh,16,indexed-job,4
2171,0.0,Initialized,indexed-job-13-7pdxh,16,indexed-job,4
2172,7.0,Ready,indexed-job-13-7pdxh,16,indexed-job,4
2173,7.0,ContainersReady,indexed-job-13-7pdxh,16,indexed-job,4
2174,0.0,PodScheduled,indexed-job-15-k8dkv,16,indexed-job,4
2175,0.0,Initialized,indexed-job-15-k8dkv,16,indexed-job,4
2176,9.0,Ready,indexed-job-15-k8dkv,16,indexed-job,4
2177,9.0,ContainersReady,indexed-job-15-k8dkv,16,indexed-job,4
2178,9.99,watch_create,all,16,pods,20
2179,33.229,watch_delete,all,16,pods,20
2180,0.0,PodScheduled,pod-0,16,pods,20
2181,0.0,Initialized,pod-0,16,pods,20
2182,4.0,Ready,pod-0,16,pods,20
2183,4.0,ContainersReady,pod-0,16,pods,20
2184,0.0,PodScheduled,pod-1,16,pods,20
2185,0.0,Initialized,pod-1,16,pods,20
2186,2.0,Ready,pod-1,16,pods,20
2187,2.0,ContainersReady,pod-1,16,pods,20
2188,0.0,PodScheduled,pod-2,16,pods,20
2189,0.0,Initialized,pod-2,16,pods,20
2190,4.0,Ready,pod-2,16,pods,20
2191,4.0,ContainersReady,pod-2,16,pods,20
2192,0.0,PodScheduled,pod-3,16,pods,20
2193,0.0,Initialized,pod-3,16,pods,20
2194,6.0,Ready,pod-3,16,pods,20
2195,6.0,ContainersReady,pod-3,16,pods,20
2196,0.0,PodScheduled,pod-4,16,pods,20
2197,0.0,Initialized,pod-4,16,pods,20
2198,3.0,Ready,pod-4,16,pods,20
2199,3.0,ContainersReady,pod-4,16,pods,20
2200,0.0,PodScheduled,pod-5,16,pods,20
2201,0.0,Initialized,pod-5,16,pods,20
2202,3.0,Ready,pod-5,16,pods,20
2203,3.0,ContainersReady,pod-5,16,pods,20
2204,0.0,PodScheduled,pod-6,16,pods,20
2205,0.0,Initialized,pod-6,16,pods,20
2206,5.0,Ready,pod-6,16,pods,20
2207,5.0,ContainersReady,pod-6,16,pods,20
2208,0.0,PodScheduled,pod-7,16,pods,20
2209,0.0,Initialized,pod-7,16,pods,20
2210,6.0,Ready,pod-7,16,pods,20
2211,6.0,ContainersReady,pod-7,16,pods,20
2212,0.0,PodScheduled,pod-8,16,pods,20
2213,0.0,Initialized,pod-8,16,pods,20
2214,5.0,Ready,pod-8,16,pods,20
2215,5.0,ContainersReady,pod-8,16,pods,20
2216,0.0,PodScheduled,pod-9,16,pods,20
2217,0.0,Initialized,pod-9,16,pods,20
2218,7.0,Ready,pod-9,16,pods,20
2219,7.0,ContainersReady,pod-9,16,pods,20
2220,0.0,PodScheduled,pod-10,16,pods,20
2221,0.0,Initialized,pod-10,16,pods,20
2222,9.0,Ready,pod-10,16,pods,20
2223,9.0,ContainersReady,pod-10,16,pods,20
2224,0.0,PodScheduled,pod-11,16,pods,20
2225,0.0,Initialized,pod-11,16,pods,20
2226,8.0,Ready,pod-11,16,pods,20
2227,8.0,ContainersReady,pod-11,16,pods,20
2228,0.0,PodScheduled,pod-12,16,pods,20
2229,0.0,Initialized,pod-12,16,pods,20
2230,8.0,Ready,pod-12,16,pods,20
2231,8.0,ContainersReady,pod-12,16,pods,20
2232,0.0,PodScheduled,pod-13,16,pods,20
2233,1.0,Initialized,pod-13,16,pods,20
2234,9.0,Ready,pod-13,16,pods,20
2235,9.0,ContainersReady,pod-13,16,pods,20
2236,0.0,PodScheduled,pod-14,16,pods,20
2237,0.0,Initialized,pod-14,16,pods,20
2238,6.0,Ready,pod-14,16,pods,20
2239,6.0,ContainersReady,pod-14,16,pods,20
2240,0.0,PodScheduled,pod-15,16,pods,20
2241,0.0,Initialized,pod-15,16,pods,20
2242,9.0,Ready,pod-15,16,pods,20
2243,9.0,ContainersReady,pod-15,16,pods,20
2244,9.982,watch_create,all,16,pods,16
2245,34.18,watch_delete,all,16,pods,16
2246,0.0,PodScheduled,pod-0,16,pods,16
2247,0.0,Initialized,pod-0,16,pods,16
2248,1.0,Ready,pod-0,16,pods,16
2249,1.0,ContainersReady,pod-0,16,pods,16
2250,0.0,PodScheduled,pod-1,16,pods,16
2251,0.0,Initialized,pod-1,16,pods,16
2252,2.0,Ready,pod-1,16,pods,16
2253,2.0,ContainersReady,pod-1,16,pods,16
2254,0.0,PodScheduled,pod-2,16,pods,16
2255,0.0,Initialized,pod-2,16,pods,16
2256,2.0,Ready,pod-2,16,pods,16
2257,2.0,ContainersReady,pod-2,16,pods,16
2258,0.0,PodScheduled,pod-3,16,pods,16
2259,0.0,Initialized,pod-3,16,pods,16
2260,3.0,Ready,pod-3,16,pods,16
2261,3.0,ContainersReady,pod-3,16,pods,16
2262,0.0,PodScheduled,pod-4,16,pods,16
2263,0.0,Initialized,pod-4,16,pods,16
2264,3.0,Ready,pod-4,16,pods,16
2265,3.0,ContainersReady,pod-4,16,pods,16
2266,0.0,PodScheduled,pod-5,16,pods,16
2267,0.0,Initialized,pod-5,16,pods,16
2268,4.0,Ready,pod-5,16,pods,16
2269,4.0,ContainersReady,pod-5,16,pods,16
2270,0.0,PodScheduled,pod-6,16,pods,16
2271,0.0,Initialized,pod-6,16,pods,16
2272,4.0,Ready,pod-6,16,pods,16
2273,4.0,ContainersReady,pod-6,16,pods,16
2274,0.0,PodScheduled,pod-7,16,pods,16
2275,0.0,Initialized,pod-7,16,pods,16
2276,7.0,Ready,pod-7,16,pods,16
2277,7.0,ContainersReady,pod-7,16,pods,16
2278,0.0,PodScheduled,pod-8,16,pods,16
2279,0.0,Initialized,pod-8,16,pods,16
2280,7.0,Ready,pod-8,16,pods,16
2281,7.0,ContainersReady,pod-8,16,pods,16
2282,0.0,PodScheduled,pod-9,16,pods,16
2283,0.0,Initialized,pod-9,16,pods,16
2284,6.0,Ready,pod-9,16,pods,16
2285,6.0,ContainersReady,pod-9,16,pods,16
2286,0.0,PodScheduled,pod-10,16,pods,16
2287,0.0,Initialized,pod-10,16,pods,16
2288,9.0,Ready,pod-10,16,pods,16
2289,9.0,ContainersReady,pod-10,16,pods,16
2290,0.0,PodScheduled,pod-11,16,pods,16
2291,0.0,Initialized,pod-11,16,pods,16
2292,6.0,Ready,pod-11,16,pods,16
2293,6.0,ContainersReady,pod-11,16,pods,16
2294,0.0,PodScheduled,pod-12,16,pods,16
2295,0.0,Initialized,pod-12,16,pods,16
2296,8.0,Ready,pod-12,16,pods,16
2297,8.0,ContainersReady,pod-12,16,pods,16
2298,0.0,PodScheduled,pod-13,16,pods,16
2299,0.0,Initialized,pod-13,16,pods,16
2300,5.0,Ready,pod-13,16,pods,16
2301,5.0,ContainersReady,pod-13,16,pods,16
2302,0.0,PodScheduled,pod-14,16,pods,16
2303,0.0,Initialized,pod-14,16,pods,16
2304,8.0,Ready,pod-14,16,pods,16
2305,8.0,ContainersReady,pod-14,16,pods,16
2306,0.0,PodScheduled,pod-15,16,pods,16
2307,0.0,Initialized,pod-15,16,pods,16
2308,5.0,Ready,pod-15,16,pods,16
2309,5.0,ContainersReady,pod-15,16,pods,16
2310,9.798,watch_create,all,16,indexed-job,7
2311,35.143,watch_delete,all,16,indexed-job,7
2312,0.0,PodScheduled,indexed-job-0-2fmxx,16,indexed-job,7
2313,0.0,Initialized,indexed-job-0-2fmxx,16,indexed-job,7
2314,1.0,Ready,indexed-job-0-2fmxx,16,indexed-job,7
2315,1.0,ContainersReady,indexed-job-0-2fmxx,16,indexed-job,7
2316,0.0,PodScheduled,indexed-job-1-ghvbl,16,indexed-job,7
2317,0.0,Initialized,indexed-job-1-ghvbl,16,indexed-job,7
2318,9.0,Ready,indexed-job-1-ghvbl,16,indexed-job,7
2319,9.0,ContainersReady,indexed-job-1-ghvbl,16,indexed-job,7
2320,0.0,PodScheduled,indexed-job-2-hcqmn,16,indexed-job,7
2321,0.0,Initialized,indexed-job-2-hcqmn,16,indexed-job,7
2322,8.0,Ready,indexed-job-2-hcqmn,16,indexed-job,7
2323,8.0,ContainersReady,indexed-job-2-hcqmn,16,indexed-job,7
2324,0.0,PodScheduled,indexed-job-4-zlcs8,16,indexed-job,7
2325,0.0,Initialized,indexed-job-4-zlcs8,16,indexed-job,7
2326,2.0,Ready,indexed-job-4-zlcs8,16,indexed-job,7
2327,2.0,ContainersReady,indexed-job-4-zlcs8,16,indexed-job,7
2328,0.0,PodScheduled,indexed-job-5-wx4nz,16,indexed-job,7
2329,0.0,Initialized,indexed-job-5-wx4nz,16,indexed-job,7
2330,9.0,Ready,indexed-job-5-wx4nz,16,indexed-job,7
2331,9.0,ContainersReady,indexed-job-5-wx4nz,16,indexed-job,7
2332,0.0,PodScheduled,indexed-job-3-qzfrm,16,indexed-job,7
2333,0.0,Initialized,indexed-job-3-qzfrm,16,indexed-job,7
2334,2.0,Ready,indexed-job-3-qzfrm,16,indexed-job,7
2335,2.0,ContainersReady,indexed-job-3-qzfrm,16,indexed-job,7
2336,0.0,PodScheduled,indexed-job-6-f8pzr,16,indexed-job,7
2337,0.0,Initialized,indexed-job-6-f8pzr,16,indexed-job,7
2338,3.0,Ready,indexed-job-6-f8pzr,16,indexed-job,7
2339,3.0,ContainersReady,indexed-job-6-f8pzr,16,indexed-job,7
2340,0.0,PodScheduled,indexed-job-11-zrkzt,16,indexed-job,7
2341,0.0,Initialized,indexed-job-11-zrkzt,16,indexed-job,7
2342,5.0,Ready,indexed-job-11-zrkzt,16,indexed-job,7
2343,5.0,ContainersReady,indexed-job-11-zrkzt,16,indexed-job,7
2344,0.0,PodScheduled,indexed-job-12-sb4zz,16,indexed-job,7
2345,0.0,Initialized,indexed-job-12-sb4zz,16,indexed-job,7
2346,4.0,Ready,indexed-job-12-sb4zz,16,indexed-job,7
2347,4.0,ContainersReady,indexed-job-12-sb4zz,16,indexed-job,7
2348,0.0,PodScheduled,indexed-job-8-vmfzq,16,indexed-job,7
2349,0.0,Initialized,indexed-job-8-vmfzq,16,indexed-job,7
2350,7.0,Ready,indexed-job-8-vmfzq,16,indexed-job,7
2351,7.0,ContainersReady,indexed-job-8-vmfzq,16,indexed-job,7
2352,0.0,PodScheduled,indexed-job-13-fn27m,16,indexed-job,7
2353,0.0,Initialized,indexed-job-13-fn27m,16,indexed-job,7
2354,6.0,Ready,indexed-job-13-fn27m,16,indexed-job,7
2355,6.0,ContainersReady,indexed-job-13-fn27m,16,indexed-job,7
2356,0.0,PodScheduled,indexed-job-10-xkc4n,16,indexed-job,7
2357,0.0,Initialized,indexed-job-10-xkc4n,16,indexed-job,7
2358,3.0,Ready,indexed-job-10-xkc4n,16,indexed-job,7
2359,3.0,ContainersReady,indexed-job-10-xkc4n,16,indexed-job,7
2360,0.0,PodScheduled,indexed-job-9-9th7j,16,indexed-job,7
2361,0.0,Initialized,indexed-job-9-9th7j,16,indexed-job,7
2362,5.0,Ready,indexed-job-9-9th7j,16,indexed-job,7
2363,5.0,ContainersReady,indexed-job-9-9th7j,16,indexed-job,7
2364,0.0,PodScheduled,indexed-job-7-mg9vc,16,indexed-job,7
2365,0.0,Initialized,indexed-job-7-mg9vc,16,indexed-job,7
2366,6.0,Ready,indexed-job-7-mg9vc,16,indexed-job,7
2367,6.0,ContainersReady,indexed-job-7-mg9vc,16,indexed-job,7
2368,0.0,PodScheduled,indexed-job-14-h85fc,16,indexed-job,7
2369,0.0,Initialized,indexed-job-14-h85fc,16,indexed-job,7
2370,7.0,Ready,indexed-job-14-h85fc,16,indexed-job,7
2371,7.0,ContainersReady,indexed-job-14-h85fc,16,indexed-job,7
2372,0.0,PodScheduled,indexed-job-15-xtl9c,16,indexed-job,7
2373,0.0,Initialized,indexed-job-15-xtl9c,16,indexed-job,7
2374,8.0,Ready,indexed-job-15-xtl9c,16,indexed-job,7
2375,8.0,ContainersReady,indexed-job-15-xtl9c,16,indexed-job,7
2376,8.991,watch_create,all,16,pods,11
2377,34.163,watch_delete,all,16,pods,11
2378,0.0,PodScheduled,pod-0,16,pods,11
2379,0.0,Initialized,pod-0,16,pods,11
2380,2.0,Ready,pod-0,16,pods,11
2381,2.0,ContainersReady,pod-0,16,pods,11
2382,0.0,PodScheduled,pod-1,16,pods,11
2383,0.0,Initialized,pod-1,16,pods,11
2384,3.0,Ready,pod-1,16,pods,11
2385,3.0,ContainersReady,pod-1,16,pods,11
2386,0.0,PodScheduled,pod-2,16,pods,11
2387,0.0,Initialized,pod-2,16,pods,11
2388,4.0,Ready,pod-2,16,pods,11
2389,4.0,ContainersReady,pod-2,16,pods,11
2390,0.0,PodScheduled,pod-3,16,pods,11
2391,0.0,Initialized,pod-3,16,pods,11
2392,3.0,Ready,pod-3,16,pods,11
2393,3.0,ContainersReady,pod-3,16,pods,11
2394,1.0,PodScheduled,pod-4,16,pods,11
2395,1.0,Initialized,pod-4,16,pods,11
2396,4.0,Ready,pod-4,16,pods,11
2397,4.0,ContainersReady,pod-4,16,pods,11
2398,0.0,PodScheduled,pod-5,16,pods,11
2399,0.0,Initialized,pod-5,16,pods,11
2400,4.0,Ready,pod-5,16,pods,11
2401,4.0,ContainersReady,pod-5,16,pods,11
2402,0.0,PodScheduled,pod-6,16,pods,11
2403,0.0,Initialized,pod-6,16,pods,11
2404,4.0,Ready,pod-6,16,pods,11
2405,4.0,ContainersReady,pod-6,16,pods,11
2406,0.0,PodScheduled,pod-7,16,pods,11
2407,0.0,Initialized,pod-7,16,pods,11
2408,5.0,Ready,pod-7,16,pods,11
2409,5.0,ContainersReady,pod-7,16,pods,11
2410,0.0,PodScheduled,pod-8,16,pods,11
2411,0.0,Initialized,pod-8,16,pods,11
2412,5.0,Ready,pod-8,16,pods,11
2413,5.0,ContainersReady,pod-8,16,pods,11
2414,0.0,PodScheduled,pod-9,16,pods,11
2415,0.0,Initialized,pod-9,16,pods,11
2416,6.0,Ready,pod-9,16,pods,11
2417,6.0,ContainersReady,pod-9,16,pods,11
2418,0.0,PodScheduled,pod-10,16,pods,11
2419,0.0,Initialized,pod-10,16,pods,11
2420,7.0,Ready,pod-10,16,pods,11
2421,7.0,ContainersReady,pod-10,16,pods,11
2422,0.0,PodScheduled,pod-11,16,pods,11
2423,0.0,Initialized,pod-11,16,pods,11
2424,6.0,Ready,pod-11,16,pods,11
2425,6.0,ContainersReady,pod-11,16,pods,11
2426,0.0,PodScheduled,pod-12,16,pods,11
2427,0.0,Initialized,pod-12,16,pods,11
2428,8.0,Ready,pod-12,16,pods,11
2429,8.0,ContainersReady,pod-12,16,pods,11
2430,0.0,PodScheduled,pod-13,16,pods,11
2431,0.0,Initialized,pod-13,16,pods,11
2432,7.0,Ready,pod-13,16,pods,11
2433,7.0,ContainersReady,pod-13,16,pods,11
2434,0.0,PodScheduled,pod-14,16,pods,11
2435,0.0,Initialized,pod-14,16,pods,11
2436,8.0,Ready,pod-14,16,pods,11
2437,8.0,ContainersReady,pod-14,16,pods,11
2438,0.0,PodScheduled,pod-15,16,pods,11
2439,0.0,Initialized,pod-15,16,pods,11
2440,8.0,Ready,pod-15,16,pods,11
2441,8.0,ContainersReady,pod-15,16,pods,11
2442,9.016,watch_create,all,16,pods,14
2443,34.174,watch_delete,all,16,pods,14
2444,0.0,PodScheduled,pod-0,16,pods,14
2445,0.0,Initialized,pod-0,16,pods,14
2446,1.0,Ready,pod-0,16,pods,14
2447,1.0,ContainersReady,pod-0,16,pods,14
2448,0.0,PodScheduled,pod-1,16,pods,14
2449,0.0,Initialized,pod-1,16,pods,14
2450,2.0,Ready,pod-1,16,pods,14
2451,2.0,ContainersReady,pod-1,16,pods,14
2452,0.0,PodScheduled,pod-2,16,pods,14
2453,0.0,Initialized,pod-2,16,pods,14
2454,2.0,Ready,pod-2,16,pods,14
2455,2.0,ContainersReady,pod-2,16,pods,14
2456,0.0,PodScheduled,pod-3,16,pods,14
2457,0.0,Initialized,pod-3,16,pods,14
2458,3.0,Ready,pod-3,16,pods,14
2459,3.0,ContainersReady,pod-3,16,pods,14
2460,0.0,PodScheduled,pod-4,16,pods,14
2461,0.0,Initialized,pod-4,16,pods,14
2462,3.0,Ready,pod-4,16,pods,14
2463,3.0,ContainersReady,pod-4,16,pods,14
2464,0.0,PodScheduled,pod-5,16,pods,14
2465,0.0,Initialized,pod-5,16,pods,14
2466,4.0,Ready,pod-5,16,pods,14
2467,4.0,ContainersReady,pod-5,16,pods,14
2468,0.0,PodScheduled,pod-6,16,pods,14
2469,0.0,Initialized,pod-6,16,pods,14
2470,5.0,Ready,pod-6,16,pods,14
2471,5.0,ContainersReady,pod-6,16,pods,14
2472,0.0,PodScheduled,pod-7,16,pods,14
2473,0.0,Initialized,pod-7,16,pods,14
2474,5.0,Ready,pod-7,16,pods,14
2475,5.0,ContainersReady,pod-7,16,pods,14
2476,0.0,PodScheduled,pod-8,16,pods,14
2477,0.0,Initialized,pod-8,16,pods,14
2478,4.0,Ready,pod-8,16,pods,14
2479,4.0,ContainersReady,pod-8,16,pods,14
2480,0.0,PodScheduled,pod-9,16,pods,14
2481,0.0,Initialized,pod-9,16,pods,14
2482,8.0,Ready,pod-9,16,pods,14
2483,8.0,ContainersReady,pod-9,16,pods,14
2484,0.0,PodScheduled,pod-10,16,pods,14
2485,0.0,Initialized,pod-10,16,pods,14
2486,7.0,Ready,pod-10,16,pods,14
2487,7.0,ContainersReady,pod-10,16,pods,14
2488,0.0,PodScheduled,pod-11,16,pods,14
2489,0.0,Initialized,pod-11,16,pods,14
2490,8.0,Ready,pod-11,16,pods,14
2491,8.0,ContainersReady,pod-11,16,pods,14
2492,0.0,PodScheduled,pod-12,16,pods,14
2493,0.0,Initialized,pod-12,16,pods,14
2494,6.0,Ready,pod-12,16,pods,14
2495,6.0,ContainersReady,pod-12,16,pods,14
2496,0.0,PodScheduled,pod-13,16,pods,14
2497,0.0,Initialized,pod-13,16,pods,14
2498,8.0,Ready,pod-13,16,pods,14
2499,8.0,ContainersReady,pod-13,16,pods,14
2500,0.0,PodScheduled,pod-14,16,pods,14
2501,0.0,Initialized,pod-14,16,pods,14
2502,6.0,Ready,pod-14,16,pods,14
2503,6.0,ContainersReady,pod-14,16,pods,14
2504,0.0,PodScheduled,pod-15,16,pods,14
2505,0.0,Initialized,pod-15,16,pods,14
2506,7.0,Ready,pod-15,16,pods,14
2507,7.0,ContainersReady,pod-15,16,pods,14
2508,10.006,watch_create,all,16,pods,12
2509,33.219,watch_delete,all,16,pods,12
2510,0.0,PodScheduled,pod-0,16,pods,12
2511,0.0,Initialized,pod-0,16,pods,12
2512,2.0,Ready,pod-0,16,pods,12
2513,2.0,ContainersReady,pod-0,16,pods,12
2514,0.0,PodScheduled,pod-1,16,pods,12
2515,0.0,Initialized,pod-1,16,pods,12
2516,1.0,Ready,pod-1,16,pods,12
2517,1.0,ContainersReady,pod-1,16,pods,12
2518,0.0,PodScheduled,pod-2,16,pods,12
2519,0.0,Initialized,pod-2,16,pods,12
2520,2.0,Ready,pod-2,16,pods,12
2521,2.0,ContainersReady,pod-2,16,pods,12
2522,0.0,PodScheduled,pod-3,16,pods,12
2523,0.0,Initialized,pod-3,16,pods,12
2524,3.0,Ready,pod-3,16,pods,12
2525,3.0,ContainersReady,pod-3,16,pods,12
2526,0.0,PodScheduled,pod-4,16,pods,12
2527,0.0,Initialized,pod-4,16,pods,12
2528,3.0,Ready,pod-4,16,pods,12
2529,3.0,ContainersReady,pod-4,16,pods,12
2530,0.0,PodScheduled,pod-5,16,pods,12
2531,0.0,Initialized,pod-5,16,pods,12
2532,4.0,Ready,pod-5,16,pods,12
2533,4.0,ContainersReady,pod-5,16,pods,12
2534,0.0,PodScheduled,pod-6,16,pods,12
2535,0.0,Initialized,pod-6,16,pods,12
2536,4.0,Ready,pod-6,16,pods,12
2537,4.0,ContainersReady,pod-6,16,pods,12
2538,0.0,PodScheduled,pod-7,16,pods,12
2539,0.0,Initialized,pod-7,16,pods,12
2540,4.0,Ready,pod-7,16,pods,12
2541,4.0,ContainersReady,pod-7,16,pods,12
2542,0.0,PodScheduled,pod-8,16,pods,12
2543,0.0,Initialized,pod-8,16,pods,12
2544,5.0,Ready,pod-8,16,pods,12
2545,5.0,ContainersReady,pod-8,16,pods,12
2546,0.0,PodScheduled,pod-9,16,pods,12
2547,0.0,Initialized,pod-9,16,pods,12
2548,7.0,Ready,pod-9,16,pods,12
2549,7.0,ContainersReady,pod-9,16,pods,12
2550,0.0,PodScheduled,pod-10,16,pods,12
2551,0.0,Initialized,pod-10,16,pods,12
2552,5.0,Ready,pod-10,16,pods,12
2553,5.0,ContainersReady,pod-10,16,pods,12
2554,0.0,PodScheduled,pod-11,16,pods,12
2555,0.0,Initialized,pod-11,16,pods,12
2556,8.0,Ready,pod-11,16,pods,12
2557,8.0,ContainersReady,pod-11,16,pods,12
2558,0.0,PodScheduled,pod-12,16,pods,12
2559,0.0,Initialized,pod-12,16,pods,12
2560,7.0,Ready,pod-12,16,pods,12
2561,7.0,ContainersReady,pod-12,16,pods,12
2562,0.0,PodScheduled,pod-13,16,pods,12
2563,0.0,Initialized,pod-13,16,pods,12
2564,6.0,Ready,pod-13,16,pods,12
2565,6.0,ContainersReady,pod-13,16,pods,12
2566,0.0,PodScheduled,pod-14,16,pods,12
2567,0.0,Initialized,pod-14,16,pods,12
2568,6.0,Ready,pod-14,16,pods,12
2569,6.0,ContainersReady,pod-14,16,pods,12
2570,0.0,PodScheduled,pod-15,16,pods,12
2571,0.0,Initialized,pod-15,16,pods,12
2572,9.0,Ready,pod-15,16,pods,12
2573,9.0,ContainersReady,pod-15,16,pods,12
2574,9.786,watch_create,all,16,indexed-job,10
2575,33.169,watch_delete,all,16,indexed-job,10
2576,0.0,PodScheduled,indexed-job-0-lmfbs,16,indexed-job,10
2577,0.0,Initialized,indexed-job-0-lmfbs,16,indexed-job,10
2578,1.0,Ready,indexed-job-0-lmfbs,16,indexed-job,10
2579,1.0,ContainersReady,indexed-job-0-lmfbs,16,indexed-job,10
2580,0.0,PodScheduled,indexed-job-1-hzpm2,16,indexed-job,10
2581,0.0,Initialized,indexed-job-1-hzpm2,16,indexed-job,10
2582,2.0,Ready,indexed-job-1-hzpm2,16,indexed-job,10
2583,2.0,ContainersReady,indexed-job-1-hzpm2,16,indexed-job,10
2584,0.0,PodScheduled,indexed-job-2-99pgt,16,indexed-job,10
2585,0.0,Initialized,indexed-job-2-99pgt,16,indexed-job,10
2586,2.0,Ready,indexed-job-2-99pgt,16,indexed-job,10
2587,2.0,ContainersReady,indexed-job-2-99pgt,16,indexed-job,10
2588,0.0,PodScheduled,indexed-job-4-jhc6v,16,indexed-job,10
2589,0.0,Initialized,indexed-job-4-jhc6v,16,indexed-job,10
2590,5.0,Ready,indexed-job-4-jhc6v,16,indexed-job,10
2591,5.0,ContainersReady,indexed-job-4-jhc6v,16,indexed-job,10
2592,0.0,PodScheduled,indexed-job-3-b9vrs,16,indexed-job,10
2593,0.0,Initialized,indexed-job-3-b9vrs,16,indexed-job,10
2594,4.0,Ready,indexed-job-3-b9vrs,16,indexed-job,10
2595,4.0,ContainersReady,indexed-job-3-b9vrs,16,indexed-job,10
2596,0.0,PodScheduled,indexed-job-6-msb2h,16,indexed-job,10
2597,0.0,Initialized,indexed-job-6-msb2h,16,indexed-job,10
2598,3.0,Ready,indexed-job-6-msb2h,16,indexed-job,10
2599,3.0,ContainersReady,indexed-job-6-msb2h,16,indexed-job,10
2600,0.0,PodScheduled,indexed-job-5-kxpzd,16,indexed-job,10
2601,0.0,Initialized,indexed-job-5-kxpzd,16,indexed-job,10
2602,6.0,Ready,indexed-job-5-kxpzd,16,indexed-job,10
2603,6.0,ContainersReady,indexed-job-5-kxpzd,16,indexed-job,10
2604,0.0,PodScheduled,indexed-job-14-tzvzd,16,indexed-job,10
2605,0.0,Initialized,indexed-job-14-tzvzd,16,indexed-job,10
2606,5.0,Ready,indexed-job-14-tzvzd,16,indexed-job,10
2607,5.0,ContainersReady,indexed-job-14-tzvzd,16,indexed-job,10
2608,0.0,PodScheduled,indexed-job-10-zsj2m,16,indexed-job,10
2609,0.0,Initialized,indexed-job-10-zsj2m,16,indexed-job,10
2610,8.0,Ready,indexed-job-10-zsj2m,16,indexed-job,10
2611,8.0,ContainersReady,indexed-job-10-zsj2m,16,indexed-job,10
2612,0.0,PodScheduled,indexed-job-7-nfhsj,16,indexed-job,10
2613,0.0,Initialized,indexed-job-7-nfhsj,16,indexed-job,10
2614,9.0,Ready,indexed-job-7-nfhsj,16,indexed-job,10
2615,9.0,ContainersReady,indexed-job-7-nfhsj,16,indexed-job,10
2616,0.0,PodScheduled,indexed-job-9-x7gfs,16,indexed-job,10
2617,0.0,Initialized,indexed-job-9-x7gfs,16,indexed-job,10
2618,3.0,Ready,indexed-job-9-x7gfs,16,indexed-job,10
2619,3.0,ContainersReady,indexed-job-9-x7gfs,16,indexed-job,10
2620,0.0,PodScheduled,indexed-job-13-jmm9h,16,indexed-job,10
2621,0.0,Initialized,indexed-job-13-jmm9h,16,indexed-job,10
2622,7.0,Ready,indexed-job-13-jmm9h,16,indexed-job,10
2623,7.0,ContainersReady,indexed-job-13-jmm9h,16,indexed-job,10
2624,0.0,PodScheduled,indexed-job-8-tcrjv,16,indexed-job,10
2625,0.0,Initialized,indexed-job-8-tcrjv,16,indexed-job,10
2626,4.0,Ready,indexed-job-8-tcrjv,16,indexed-job,10
2627,4.0,ContainersReady,indexed-job-8-tcrjv,16,indexed-job,10
2628,0.0,PodScheduled,indexed-job-12-5n9cm,16,indexed-job,10
2629,0.0,Initialized,indexed-job-12-5n9cm,16,indexed-job,10
2630,8.0,Ready,indexed-job-12-5n9cm,16,indexed-job,10
2631,8.0,ContainersReady,indexed-job-12-5n9cm,16,indexed-job,10
2632,0.0,PodScheduled,indexed-job-11-sllfr,16,indexed-job,10
2633,0.0,Initialized,indexed-job-11-sllfr,16,indexed-job,10
2634,6.0,Ready,indexed-job-11-sllfr,16,indexed-job,10
2635,6.0,ContainersReady,indexed-job-11-sllfr,16,indexed-job,10
2636,0.0,PodScheduled,indexed-job-15-gnpqn,16,indexed-job,10
2637,0.0,Initialized,indexed-job-15-gnpqn,16,indexed-job,10
2638,7.0,Ready,indexed-job-15-gnpqn,16,indexed-job,10
2639,7.0,ContainersReady,indexed-job-15-gnpqn,16,indexed-job,10
2640,9.827,watch_create,all,16,indexed-job,3
2641,34.181,watch_delete,all,16,indexed-job,3
2642,0.0,PodScheduled,indexed-job-0-pqhbh,16,indexed-job,3
2643,0.0,Initialized,indexed-job-0-pqhbh,16,indexed-job,3
2644,2.0,Ready,indexed-job-0-pqhbh,16,indexed-job,3
2645,2.0,ContainersReady,indexed-job-0-pqhbh,16,indexed-job,3
2646,0.0,PodScheduled,indexed-job-1-snplx,16,indexed-job,3
2647,0.0,Initialized,indexed-job-1-snplx,16,indexed-job,3
2648,1.0,Ready,indexed-job-1-snplx,16,indexed-job,3
2649,1.0,ContainersReady,indexed-job-1-snplx,16,indexed-job,3
2650,0.0,PodScheduled,indexed-job-2-jrmdv,16,indexed-job,3
2651,0.0,Initialized,indexed-job-2-jrmdv,16,indexed-job,3
2652,3.0,Ready,indexed-job-2-jrmdv,16,indexed-job,3
2653,3.0,ContainersReady,indexed-job-2-jrmdv,16,indexed-job,3
2654,0.0,PodScheduled,indexed-job-3-s224l,16,indexed-job,3
2655,0.0,Initialized,indexed-job-3-s224l,16,indexed-job,3
2656,3.0,Ready,indexed-job-3-s224l,16,indexed-job,3
2657,3.0,ContainersReady,indexed-job-3-s224l,16,indexed-job,3
2658,0.0,PodScheduled,indexed-job-6-wj4pn,16,indexed-job,3
2659,0.0,Initialized,indexed-job-6-wj4pn,16,indexed-job,3
2660,4.0,Ready,indexed-job-6-wj4pn,16,indexed-job,3
2661,4.0,ContainersReady,indexed-job-6-wj4pn,16,indexed-job,3
2662,0.0,PodScheduled,indexed-job-5-b9ds6,16,indexed-job,3
2663,0.0,Initialized,indexed-job-5-b9ds6,16,indexed-job,3
2664,4.0,Ready,indexed-job-5-b9ds6,16,indexed-job,3
2665,4.0,ContainersReady,indexed-job-5-b9ds6,16,indexed-job,3
2666,0.0,PodScheduled,indexed-job-4-z695z,16,indexed-job,3
2667,0.0,Initialized,indexed-job-4-z695z,16,indexed-job,3
2668,5.0,Ready,indexed-job-4-z695z,16,indexed-job,3
2669,5.0,ContainersReady,indexed-job-4-z695z,16,indexed-job,3
2670,0.0,PodScheduled,indexed-job-14-8tjj6,16,indexed-job,3
2671,0.0,Initialized,indexed-job-14-8tjj6,16,indexed-job,3
2672,5.0,Ready,indexed-job-14-8tjj6,16,indexed-job,3
2673,5.0,ContainersReady,indexed-job-14-8tjj6,16,indexed-job,3
2674,0.0,PodScheduled,indexed-job-12-r9fdd,16,indexed-job,3
2675,0.0,Initialized,indexed-job-12-r9fdd,16,indexed-job,3
2676,7.0,Ready,indexed-job-12-r9fdd,16,indexed-job,3
2677,7.0,ContainersReady,indexed-job-12-r9fdd,16,indexed-job,3
2678,0.0,PodScheduled,indexed-job-13-27xhs,16,indexed-job,3
2679,0.0,Initialized,indexed-job-13-27xhs,16,indexed-job,3
2680,2.0,Ready,indexed-job-13-27xhs,16,indexed-job,3
2681,2.0,ContainersReady,indexed-job-13-27xhs,16,indexed-job,3
2682,0.0,PodScheduled,indexed-job-7-jq8v5,16,indexed-job,3
2683,0.0,Initialized,indexed-job-7-jq8v5,16,indexed-job,3
2684,6.0,Ready,indexed-job-7-jq8v5,16,indexed-job,3
2685,6.0,ContainersReady,indexed-job-7-jq8v5,16,indexed-job,3
2686,0.0,PodScheduled,indexed-job-11-tgnzf,16,indexed-job,3
2687,0.0,Initialized,indexed-job-11-tgnzf,16,indexed-job,3
2688,7.0,Ready,indexed-job-11-tgnzf,16,indexed-job,3
2689,7.0,ContainersReady,indexed-job-11-tgnzf,16,indexed-job,3
2690,0.0,PodScheduled,indexed-job-10-skmgp,16,indexed-job,3
2691,0.0,Initialized,indexed-job-10-skmgp,16,indexed-job,3
2692,6.0,Ready,indexed-job-10-skmgp,16,indexed-job,3
2693,6.0,ContainersReady,indexed-job-10-skmgp,16,indexed-job,3
2694,0.0,PodScheduled,indexed-job-8-n6k5j,16,indexed-job,3
2695,0.0,Initialized,indexed-job-8-n6k5j,16,indexed-job,3
2696,8.0,Ready,indexed-job-8-n6k5j,16,indexed-job,3
2697,8.0,ContainersReady,indexed-job-8-n6k5j,16,indexed-job,3
2698,0.0,PodScheduled,indexed-job-9-798wt,16,indexed-job,3
2699,0.0,Initialized,indexed-job-9-798wt,16,indexed-job,3
2700,8.0,Ready,indexed-job-9-798wt,16,indexed-job,3
2701,8.0,ContainersReady,indexed-job-9-798wt,16,indexed-job,3
2702,0.0,PodScheduled,indexed-job-15-d9jp2,16,indexed-job,3
2703,0.0,Initialized,indexed-job-15-d9jp2,16,indexed-job,3
2704,9.0,Ready,indexed-job-15-d9jp2,16,indexed-job,3
2705,9.0,ContainersReady,indexed-job-15-d9jp2,16,indexed-job,3
2706,8.99,watch_create,all,16,pods,19
2707,34.125,watch_delete,all,16,pods,19
2708,0.0,PodScheduled,pod-0,16,pods,19
2709,0.0,Initialized,pod-0,16,pods,19
2710,1.0,Ready,pod-0,16,pods,19
2711,1.0,ContainersReady,pod-0,16,pods,19
2712,0.0,PodScheduled,pod-1,16,pods,19
2713,0.0,Initialized,pod-1,16,pods,19
2714,2.0,Ready,pod-1,16,pods,19
2715,2.0,ContainersReady,pod-1,16,pods,19
2716,0.0,PodScheduled,pod-2,16,pods,19
2717,0.0,Initialized,pod-2,16,pods,19
2718,3.0,Ready,pod-2,16,pods,19
2719,3.0,ContainersReady,pod-2,16,pods,19
2720,0.0,PodScheduled,pod-3,16,pods,19
2721,0.0,Initialized,pod-3,16,pods,19
2722,2.0,Ready,pod-3,16,pods,19
2723,2.0,ContainersReady,pod-3,16,pods,19
2724,0.0,PodScheduled,pod-4,16,pods,19
2725,0.0,Initialized,pod-4,16,pods,19
2726,3.0,Ready,pod-4,16,pods,19
2727,3.0,ContainersReady,pod-4,16,pods,19
2728,0.0,PodScheduled,pod-5,16,pods,19
2729,0.0,Initialized,pod-5,16,pods,19
2730,4.0,Ready,pod-5,16,pods,19
2731,4.0,ContainersReady,pod-5,16,pods,19
2732,0.0,PodScheduled,pod-6,16,pods,19
2733,0.0,Initialized,pod-6,16,pods,19
2734,5.0,Ready,pod-6,16,pods,19
2735,5.0,ContainersReady,pod-6,16,pods,19
2736,0.0,PodScheduled,pod-7,16,pods,19
2737,0.0,Initialized,pod-7,16,pods,19
2738,4.0,Ready,pod-7,16,pods,19
2739,4.0,ContainersReady,pod-7,16,pods,19
2740,0.0,PodScheduled,pod-8,16,pods,19
2741,0.0,Initialized,pod-8,16,pods,19
2742,5.0,Ready,pod-8,16,pods,19
2743,5.0,ContainersReady,pod-8,16,pods,19
2744,0.0,PodScheduled,pod-9,16,pods,19
2745,0.0,Initialized,pod-9,16,pods,19
2746,6.0,Ready,pod-9,16,pods,19
2747,6.0,ContainersReady,pod-9,16,pods,19
2748,0.0,PodScheduled,pod-10,16,pods,19
2749,0.0,Initialized,pod-10,16,pods,19
2750,8.0,Ready,pod-10,16,pods,19
2751,8.0,ContainersReady,pod-10,16,pods,19
2752,0.0,PodScheduled,pod-11,16,pods,19
2753,0.0,Initialized,pod-11,16,pods,19
2754,6.0,Ready,pod-11,16,pods,19
2755,6.0,ContainersReady,pod-11,16,pods,19
2756,0.0,PodScheduled,pod-12,16,pods,19
2757,0.0,Initialized,pod-12,16,pods,19
2758,8.0,Ready,pod-12,16,pods,19
2759,8.0,ContainersReady,pod-12,16,pods,19
2760,0.0,PodScheduled,pod-13,16,pods,19
2761,0.0,Initialized,pod-13,16,pods,19
2762,8.0,Ready,pod-13,16,pods,19
2763,8.0,ContainersReady,pod-13,16,pods,19
2764,0.0,PodScheduled,pod-14,16,pods,19
2765,0.0,Initialized,pod-14,16,pods,19
2766,9.0,Ready,pod-14,16,pods,19
2767,9.0,ContainersReady,pod-14,16,pods,19
2768,0.0,PodScheduled,pod-15,16,pods,19
2769,0.0,Initialized,pod-15,16,pods,19
2770,9.0,Ready,pod-15,16,pods,19
2771,9.0,ContainersReady,pod-15,16,pods,19
2772,18.961,watch_create,all,32,pods,10
2773,33.267,watch_delete,all,32,pods,10
2774,0.0,PodScheduled,pod-0,32,pods,10
2775,0.0,Initialized,pod-0,32,pods,10
2776,2.0,Ready,pod-0,32,pods,10
2777,2.0,ContainersReady,pod-0,32,pods,10
2778,0.0,PodScheduled,pod-1,32,pods,10
2779,0.0,Initialized,pod-1,32,pods,10
2780,3.0,Ready,pod-1,32,pods,10
2781,3.0,ContainersReady,pod-1,32,pods,10
2782,0.0,PodScheduled,pod-2,32,pods,10
2783,0.0,Initialized,pod-2,32,pods,10
2784,2.0,Ready,pod-2,32,pods,10
2785,2.0,ContainersReady,pod-2,32,pods,10
2786,0.0,PodScheduled,pod-3,32,pods,10
2787,0.0,Initialized,pod-3,32,pods,10
2788,4.0,Ready,pod-3,32,pods,10
2789,4.0,ContainersReady,pod-3,32,pods,10
2790,0.0,PodScheduled,pod-4,32,pods,10
2791,0.0,Initialized,pod-4,32,pods,10
2792,3.0,Ready,pod-4,32,pods,10
2793,3.0,ContainersReady,pod-4,32,pods,10
2794,0.0,PodScheduled,pod-5,32,pods,10
2795,0.0,Initialized,pod-5,32,pods,10
2796,5.0,Ready,pod-5,32,pods,10
2797,5.0,ContainersReady,pod-5,32,pods,10
2798,0.0,PodScheduled,pod-6,32,pods,10
2799,0.0,Initialized,pod-6,32,pods,10
2800,4.0,Ready,pod-6,32,pods,10
2801,4.0,ContainersReady,pod-6,32,pods,10
2802,0.0,PodScheduled,pod-7,32,pods,10
2803,0.0,Initialized,pod-7,32,pods,10
2804,7.0,Ready,pod-7,32,pods,10
2805,7.0,ContainersReady,pod-7,32,pods,10
2806,0.0,PodScheduled,pod-8,32,pods,10
2807,0.0,Initialized,pod-8,32,pods,10
2808,6.0,Ready,pod-8,32,pods,10
2809,6.0,ContainersReady,pod-8,32,pods,10
2810,0.0,PodScheduled,pod-9,32,pods,10
2811,0.0,Initialized,pod-9,32,pods,10
2812,5.0,Ready,pod-9,32,pods,10
2813,5.0,ContainersReady,pod-9,32,pods,10
2814,0.0,PodScheduled,pod-10,32,pods,10
2815,0.0,Initialized,pod-10,32,pods,10
2816,8.0,Ready,pod-10,32,pods,10
2817,8.0,ContainersReady,pod-10,32,pods,10
2818,0.0,PodScheduled,pod-11,32,pods,10
2819,0.0,Initialized,pod-11,32,pods,10
2820,7.0,Ready,pod-11,32,pods,10
2821,7.0,ContainersReady,pod-11,32,pods,10
2822,0.0,PodScheduled,pod-12,32,pods,10
2823,0.0,Initialized,pod-12,32,pods,10
2824,9.0,Ready,pod-12,32,pods,10
2825,9.0,ContainersReady,pod-12,32,pods,10
2826,0.0,PodScheduled,pod-13,32,pods,10
2827,0.0,Initialized,pod-13,32,pods,10
2828,10.0,Ready,pod-13,32,pods,10
2829,10.0,ContainersReady,pod-13,32,pods,10
2830,0.0,PodScheduled,pod-14,32,pods,10
2831,0.0,Initialized,pod-14,32,pods,10
2832,8.0,Ready,pod-14,32,pods,10
2833,8.0,ContainersReady,pod-14,32,pods,10
2834,0.0,PodScheduled,pod-15,32,pods,10
2835,0.0,Initialized,pod-15,32,pods,10
2836,10.0,Ready,pod-15,32,pods,10
2837,10.0,ContainersReady,pod-15,32,pods,10
2838,0.0,PodScheduled,pod-16,32,pods,10
2839,0.0,Initialized,pod-16,32,pods,10
2840,12.0,Ready,pod-16,32,pods,10
2841,12.0,ContainersReady,pod-16,32,pods,10
2842,0.0,PodScheduled,pod-17,32,pods,10
2843,0.0,Initialized,pod-17,32,pods,10
2844,11.0,Ready,pod-17,32,pods,10
2845,11.0,ContainersReady,pod-17,32,pods,10
2846,0.0,PodScheduled,pod-18,32,pods,10
2847,0.0,Initialized,pod-18,32,pods,10
2848,12.0,Ready,pod-18,32,pods,10
2849,12.0,ContainersReady,pod-18,32,pods,10
2850,0.0,PodScheduled,pod-19,32,pods,10
2851,0.0,Initialized,pod-19,32,pods,10
2852,11.0,Ready,pod-19,32,pods,10
2853,11.0,ContainersReady,pod-19,32,pods,10
2854,0.0,PodScheduled,pod-20,32,pods,10
2855,0.0,Initialized,pod-20,32,pods,10
2856,13.0,Ready,pod-20,32,pods,10
2857,13.0,ContainersReady,pod-20,32,pods,10
2858,0.0,PodScheduled,pod-21,32,pods,10
2859,0.0,Initialized,pod-21,32,pods,10
2860,14.0,Ready,pod-21,32,pods,10
2861,14.0,ContainersReady,pod-21,32,pods,10
2862,0.0,PodScheduled,pod-22,32,pods,10
2863,0.0,Initialized,pod-22,32,pods,10
2864,15.0,Ready,pod-22,32,pods,10
2865,15.0,ContainersReady,pod-22,32,pods,10
2866,0.0,PodScheduled,pod-23,32,pods,10
2867,0.0,Initialized,pod-23,32,pods,10
2868,16.0,Ready,pod-23,32,pods,10
2869,16.0,ContainersReady,pod-23,32,pods,10
2870,0.0,PodScheduled,pod-24,32,pods,10
2871,0.0,Initialized,pod-24,32,pods,10
2872,15.0,Ready,pod-24,32,pods,10
2873,15.0,ContainersReady,pod-24,32,pods,10
2874,0.0,PodScheduled,pod-25,32,pods,10
2875,0.0,Initialized,pod-25,32,pods,10
2876,17.0,Ready,pod-25,32,pods,10
2877,17.0,ContainersReady,pod-25,32,pods,10
2878,0.0,PodScheduled,pod-26,32,pods,10
2879,0.0,Initialized,pod-26,32,pods,10
2880,13.0,Ready,pod-26,32,pods,10
2881,13.0,ContainersReady,pod-26,32,pods,10
2882,0.0,PodScheduled,pod-27,32,pods,10
2883,0.0,Initialized,pod-27,32,pods,10
2884,18.0,Ready,pod-27,32,pods,10
2885,18.0,ContainersReady,pod-27,32,pods,10
2886,0.0,PodScheduled,pod-28,32,pods,10
2887,0.0,Initialized,pod-28,32,pods,10
2888,16.0,Ready,pod-28,32,pods,10
2889,16.0,ContainersReady,pod-28,32,pods,10
2890,1.0,PodScheduled,pod-29,32,pods,10
2891,1.0,Initialized,pod-29,32,pods,10
2892,18.0,Ready,pod-29,32,pods,10
2893,18.0,ContainersReady,pod-29,32,pods,10
2894,0.0,PodScheduled,pod-30,32,pods,10
2895,0.0,Initialized,pod-30,32,pods,10
2896,13.0,Ready,pod-30,32,pods,10
2897,13.0,ContainersReady,pod-30,32,pods,10
2898,0.0,PodScheduled,pod-31,32,pods,10
2899,0.0,Initialized,pod-31,32,pods,10
2900,16.0,Ready,pod-31,32,pods,10
2901,16.0,ContainersReady,pod-31,32,pods,10
2902,18.714,watch_create,all,32,pods,7
2903,33.167,watch_delete,all,32,pods,7
2904,0.0,PodScheduled,pod-0,32,pods,7
2905,0.0,Initialized,pod-0,32,pods,7
2906,2.0,Ready,pod-0,32,pods,7
2907,2.0,ContainersReady,pod-0,32,pods,7
2908,0.0,PodScheduled,pod-1,32,pods,7
2909,0.0,Initialized,pod-1,32,pods,7
2910,3.0,Ready,pod-1,32,pods,7
2911,3.0,ContainersReady,pod-1,32,pods,7
2912,0.0,PodScheduled,pod-2,32,pods,7
2913,0.0,Initialized,pod-2,32,pods,7
2914,3.0,Ready,pod-2,32,pods,7
2915,3.0,ContainersReady,pod-2,32,pods,7
2916,0.0,PodScheduled,pod-3,32,pods,7
2917,0.0,Initialized,pod-3,32,pods,7
2918,4.0,Ready,pod-3,32,pods,7
2919,4.0,ContainersReady,pod-3,32,pods,7
2920,0.0,PodScheduled,pod-4,32,pods,7
2921,0.0,Initialized,pod-4,32,pods,7
2922,4.0,Ready,pod-4,32,pods,7
2923,4.0,ContainersReady,pod-4,32,pods,7
2924,0.0,PodScheduled,pod-5,32,pods,7
2925,0.0,Initialized,pod-5,32,pods,7
2926,13.0,Ready,pod-5,32,pods,7
2927,13.0,ContainersReady,pod-5,32,pods,7
2928,0.0,PodScheduled,pod-6,32,pods,7
2929,0.0,Initialized,pod-6,32,pods,7
2930,8.0,Ready,pod-6,32,pods,7
2931,8.0,ContainersReady,pod-6,32,pods,7
2932,0.0,PodScheduled,pod-7,32,pods,7
2933,1.0,Initialized,pod-7,32,pods,7
2934,5.0,Ready,pod-7,32,pods,7
2935,5.0,ContainersReady,pod-7,32,pods,7
2936,1.0,PodScheduled,pod-8,32,pods,7
2937,1.0,Initialized,pod-8,32,pods,7
2938,6.0,Ready,pod-8,32,pods,7
2939,6.0,ContainersReady,pod-8,32,pods,7
2940,0.0,PodScheduled,pod-9,32,pods,7
2941,0.0,Initialized,pod-9,32,pods,7
2942,5.0,Ready,pod-9,32,pods,7
2943,5.0,ContainersReady,pod-9,32,pods,7
2944,0.0,PodScheduled,pod-10,32,pods,7
2945,0.0,Initialized,pod-10,32,pods,7
2946,4.0,Ready,pod-10,32,pods,7
2947,4.0,ContainersReady,pod-10,32,pods,7
2948,0.0,PodScheduled,pod-11,32,pods,7
2949,0.0,Initialized,pod-11,32,pods,7
2950,6.0,Ready,pod-11,32,pods,7
2951,6.0,ContainersReady,pod-11,32,pods,7
2952,0.0,PodScheduled,pod-12,32,pods,7
2953,0.0,Initialized,pod-12,32,pods,7
2954,6.0,Ready,pod-12,32,pods,7
2955,6.0,ContainersReady,pod-12,32,pods,7
2956,0.0,PodScheduled,pod-13,32,pods,7
2957,0.0,Initialized,pod-13,32,pods,7
2958,14.0,Ready,pod-13,32,pods,7
2959,14.0,ContainersReady,pod-13,32,pods,7
2960,0.0,PodScheduled,pod-14,32,pods,7
2961,0.0,Initialized,pod-14,32,pods,7
2962,7.0,Ready,pod-14,32,pods,7
2963,7.0,ContainersReady,pod-14,32,pods,7
2964,0.0,PodScheduled,pod-15,32,pods,7
2965,0.0,Initialized,pod-15,32,pods,7
2966,10.0,Ready,pod-15,32,pods,7
2967,10.0,ContainersReady,pod-15,32,pods,7
2968,0.0,PodScheduled,pod-16,32,pods,7
2969,0.0,Initialized,pod-16,32,pods,7
2970,8.0,Ready,pod-16,32,pods,7
2971,8.0,ContainersReady,pod-16,32,pods,7
2972,0.0,PodScheduled,pod-17,32,pods,7
2973,0.0,Initialized,pod-17,32,pods,7
2974,8.0,Ready,pod-17,32,pods,7
2975,8.0,ContainersReady,pod-17,32,pods,7
2976,0.0,PodScheduled,pod-18,32,pods,7
2977,0.0,Initialized,pod-18,32,pods,7
2978,9.0,Ready,pod-18,32,pods,7
2979,9.0,ContainersReady,pod-18,32,pods,7
2980,0.0,PodScheduled,pod-19,32,pods,7
2981,0.0,Initialized,pod-19,32,pods,7
2982,9.0,Ready,pod-19,32,pods,7
2983,9.0,ContainersReady,pod-19,32,pods,7
2984,0.0,PodScheduled,pod-20,32,pods,7
2985,0.0,Initialized,pod-20,32,pods,7
2986,17.0,Ready,pod-20,32,pods,7
2987,17.0,ContainersReady,pod-20,32,pods,7
2988,0.0,PodScheduled,pod-21,32,pods,7
2989,0.0,Initialized,pod-21,32,pods,7
2990,15.0,Ready,pod-21,32,pods,7
2991,15.0,ContainersReady,pod-21,32,pods,7
2992,0.0,PodScheduled,pod-22,32,pods,7
2993,0.0,Initialized,pod-22,32,pods,7
2994,12.0,Ready,pod-22,32,pods,7
2995,12.0,ContainersReady,pod-22,32,pods,7
2996,0.0,PodScheduled,pod-23,32,pods,7
2997,0.0,Initialized,pod-23,32,pods,7
2998,10.0,Ready,pod-23,32,pods,7
2999,10.0,ContainersReady,pod-23,32,pods,7
3000,0.0,PodScheduled,pod-24,32,pods,7
3001,0.0,Initialized,pod-24,32,pods,7
3002,11.0,Ready,pod-24,32,pods,7
3003,11.0,ContainersReady,pod-24,32,pods,7
3004,0.0,PodScheduled,pod-25,32,pods,7
3005,0.0,Initialized,pod-25,32,pods,7
3006,13.0,Ready,pod-25,32,pods,7
3007,13.0,ContainersReady,pod-25,32,pods,7
3008,0.0,PodScheduled,pod-26,32,pods,7
3009,0.0,Initialized,pod-26,32,pods,7
3010,16.0,Ready,pod-26,32,pods,7
3011,16.0,ContainersReady,pod-26,32,pods,7
3012,0.0,PodScheduled,pod-27,32,pods,7
3013,0.0,Initialized,pod-27,32,pods,7
3014,13.0,Ready,pod-27,32,pods,7
3015,13.0,ContainersReady,pod-27,32,pods,7
3016,0.0,PodScheduled,pod-28,32,pods,7
3017,0.0,Initialized,pod-28,32,pods,7
3018,11.0,Ready,pod-28,32,pods,7
3019,11.0,ContainersReady,pod-28,32,pods,7
3020,0.0,PodScheduled,pod-29,32,pods,7
3021,0.0,Initialized,pod-29,32,pods,7
3022,15.0,Ready,pod-29,32,pods,7
3023,15.0,ContainersReady,pod-29,32,pods,7
3024,0.0,PodScheduled,pod-30,32,pods,7
3025,0.0,Initialized,pod-30,32,pods,7
3026,14.0,Ready,pod-30,32,pods,7
3027,14.0,ContainersReady,pod-30,32,pods,7
3028,0.0,PodScheduled,pod-31,32,pods,7
3029,0.0,Initialized,pod-31,32,pods,7
3030,16.0,Ready,pod-31,32,pods,7
3031,16.0,ContainersReady,pod-31,32,pods,7
3032,17.994,watch_create,all,32,pods,15
3033,33.217,watch_delete,all,32,pods,15
3034,1.0,PodScheduled,pod-0,32,pods,15
3035,1.0,Initialized,pod-0,32,pods,15
3036,3.0,Ready,pod-0,32,pods,15
3037,3.0,ContainersReady,pod-0,32,pods,15
3038,0.0,PodScheduled,pod-1,32,pods,15
3039,0.0,Initialized,pod-1,32,pods,15
3040,3.0,Ready,pod-1,32,pods,15
3041,3.0,ContainersReady,pod-1,32,pods,15
3042,0.0,PodScheduled,pod-2,32,pods,15
3043,0.0,Initialized,pod-2,32,pods,15
3044,2.0,Ready,pod-2,32,pods,15
3045,2.0,ContainersReady,pod-2,32,pods,15
3046,0.0,PodScheduled,pod-3,32,pods,15
3047,0.0,Initialized,pod-3,32,pods,15
3048,4.0,Ready,pod-3,32,pods,15
3049,4.0,ContainersReady,pod-3,32,pods,15
3050,0.0,PodScheduled,pod-4,32,pods,15
3051,0.0,Initialized,pod-4,32,pods,15
3052,3.0,Ready,pod-4,32,pods,15
3053,3.0,ContainersReady,pod-4,32,pods,15
3054,0.0,PodScheduled,pod-5,32,pods,15
3055,0.0,Initialized,pod-5,32,pods,15
3056,4.0,Ready,pod-5,32,pods,15
3057,4.0,ContainersReady,pod-5,32,pods,15
3058,0.0,PodScheduled,pod-6,32,pods,15
3059,0.0,Initialized,pod-6,32,pods,15
3060,4.0,Ready,pod-6,32,pods,15
3061,4.0,ContainersReady,pod-6,32,pods,15
3062,0.0,PodScheduled,pod-7,32,pods,15
3063,0.0,Initialized,pod-7,32,pods,15
3064,5.0,Ready,pod-7,32,pods,15
3065,5.0,ContainersReady,pod-7,32,pods,15
3066,0.0,PodScheduled,pod-8,32,pods,15
3067,0.0,Initialized,pod-8,32,pods,15
3068,5.0,Ready,pod-8,32,pods,15
3069,5.0,ContainersReady,pod-8,32,pods,15
3070,0.0,PodScheduled,pod-9,32,pods,15
3071,0.0,Initialized,pod-9,32,pods,15
3072,7.0,Ready,pod-9,32,pods,15
3073,7.0,ContainersReady,pod-9,32,pods,15
3074,0.0,PodScheduled,pod-10,32,pods,15
3075,0.0,Initialized,pod-10,32,pods,15
3076,6.0,Ready,pod-10,32,pods,15
3077,6.0,ContainersReady,pod-10,32,pods,15
3078,0.0,PodScheduled,pod-11,32,pods,15
3079,0.0,Initialized,pod-11,32,pods,15
3080,6.0,Ready,pod-11,32,pods,15
3081,6.0,ContainersReady,pod-11,32,pods,15
3082,0.0,PodScheduled,pod-12,32,pods,15
3083,0.0,Initialized,pod-12,32,pods,15
3084,9.0,Ready,pod-12,32,pods,15
3085,9.0,ContainersReady,pod-12,32,pods,15
3086,0.0,PodScheduled,pod-13,32,pods,15
3087,0.0,Initialized,pod-13,32,pods,15
3088,8.0,Ready,pod-13,32,pods,15
3089,8.0,ContainersReady,pod-13,32,pods,15
3090,0.0,PodScheduled,pod-14,32,pods,15
3091,0.0,Initialized,pod-14,32,pods,15
3092,9.0,Ready,pod-14,32,pods,15
3093,9.0,ContainersReady,pod-14,32,pods,15
3094,0.0,PodScheduled,pod-15,32,pods,15
3095,0.0,Initialized,pod-15,32,pods,15
3096,12.0,Ready,pod-15,32,pods,15
3097,12.0,ContainersReady,pod-15,32,pods,15
3098,0.0,PodScheduled,pod-16,32,pods,15
3099,0.0,Initialized,pod-16,32,pods,15
3100,7.0,Ready,pod-16,32,pods,15
3101,7.0,ContainersReady,pod-16,32,pods,15
3102,0.0,PodScheduled,pod-17,32,pods,15
3103,0.0,Initialized,pod-17,32,pods,15
3104,8.0,Ready,pod-17,32,pods,15
3105,8.0,ContainersReady,pod-17,32,pods,15
3106,0.0,PodScheduled,pod-18,32,pods,15
3107,0.0,Initialized,pod-18,32,pods,15
3108,13.0,Ready,pod-18,32,pods,15
3109,13.0,ContainersReady,pod-18,32,pods,15
3110,0.0,PodScheduled,pod-19,32,pods,15
3111,0.0,Initialized,pod-19,32,pods,15
3112,10.0,Ready,pod-19,32,pods,15
3113,10.0,ContainersReady,pod-19,32,pods,15
3114,0.0,PodScheduled,pod-20,32,pods,15
3115,0.0,Initialized,pod-20,32,pods,15
3116,11.0,Ready,pod-20,32,pods,15
3117,11.0,ContainersReady,pod-20,32,pods,15
3118,0.0,PodScheduled,pod-21,32,pods,15
3119,0.0,Initialized,pod-21,32,pods,15
3120,10.0,Ready,pod-21,32,pods,15
3121,10.0,ContainersReady,pod-21,32,pods,15
3122,0.0,PodScheduled,pod-22,32,pods,15
3123,0.0,Initialized,pod-22,32,pods,15
3124,15.0,Ready,pod-22,32,pods,15
3125,15.0,ContainersReady,pod-22,32,pods,15
3126,0.0,PodScheduled,pod-23,32,pods,15
3127,0.0,Initialized,pod-23,32,pods,15
3128,12.0,Ready,pod-23,32,pods,15
3129,12.0,ContainersReady,pod-23,32,pods,15
3130,0.0,PodScheduled,pod-24,32,pods,15
3131,0.0,Initialized,pod-24,32,pods,15
3132,14.0,Ready,pod-24,32,pods,15
3133,14.0,ContainersReady,pod-24,32,pods,15
3134,0.0,PodScheduled,pod-25,32,pods,15
3135,0.0,Initialized,pod-25,32,pods,15
3136,11.0,Ready,pod-25,32,pods,15
3137,11.0,ContainersReady,pod-25,32,pods,15
3138,0.0,PodScheduled,pod-26,32,pods,15
3139,0.0,Initialized,pod-26,32,pods,15
3140,15.0,Ready,pod-26,32,pods,15
3141,15.0,ContainersReady,pod-26,32,pods,15
3142,0.0,PodScheduled,pod-27,32,pods,15
3143,0.0,Initialized,pod-27,32,pods,15
3144,14.0,Ready,pod-27,32,pods,15
3145,14.0,ContainersReady,pod-27,32,pods,15
3146,0.0,PodScheduled,pod-28,32,pods,15
3147,0.0,Initialized,pod-28,32,pods,15
3148,16.0,Ready,pod-28,32,pods,15
3149,16.0,ContainersReady,pod-28,32,pods,15
3150,0.0,PodScheduled,pod-29,32,pods,15
3151,0.0,Initialized,pod-29,32,pods,15
3152,13.0,Ready,pod-29,32,pods,15
3153,13.0,ContainersReady,pod-29,32,pods,15
3154,0.0,PodScheduled,pod-30,32,pods,15
3155,0.0,Initialized,pod-30,32,pods,15
3156,16.0,Ready,pod-30,32,pods,15
3157,16.0,ContainersReady,pod-30,32,pods,15
3158,0.0,PodScheduled,pod-31,32,pods,15
3159,0.0,Initialized,pod-31,32,pods,15
3160,17.0,Ready,pod-31,32,pods,15
3161,17.0,ContainersReady,pod-31,32,pods,15
3162,17.941,watch_create,all,32,pods,3
3163,33.241,watch_delete,all,32,pods,3
3164,0.0,PodScheduled,pod-0,32,pods,3
3165,0.0,Initialized,pod-0,32,pods,3
3166,3.0,Ready,pod-0,32,pods,3
3167,3.0,ContainersReady,pod-0,32,pods,3
3168,0.0,PodScheduled,pod-1,32,pods,3
3169,0.0,Initialized,pod-1,32,pods,3
3170,4.0,Ready,pod-1,32,pods,3
3171,4.0,ContainersReady,pod-1,32,pods,3
3172,0.0,PodScheduled,pod-2,32,pods,3
3173,1.0,Initialized,pod-2,32,pods,3
3174,4.0,Ready,pod-2,32,pods,3
3175,4.0,ContainersReady,pod-2,32,pods,3
3176,0.0,PodScheduled,pod-3,32,pods,3
3177,0.0,Initialized,pod-3,32,pods,3
3178,4.0,Ready,pod-3,32,pods,3
3179,4.0,ContainersReady,pod-3,32,pods,3
3180,0.0,PodScheduled,pod-4,32,pods,3
3181,0.0,Initialized,pod-4,32,pods,3
3182,4.0,Ready,pod-4,32,pods,3
3183,4.0,ContainersReady,pod-4,32,pods,3
3184,0.0,PodScheduled,pod-5,32,pods,3
3185,0.0,Initialized,pod-5,32,pods,3
3186,5.0,Ready,pod-5,32,pods,3
3187,5.0,ContainersReady,pod-5,32,pods,3
3188,0.0,PodScheduled,pod-6,32,pods,3
3189,0.0,Initialized,pod-6,32,pods,3
3190,6.0,Ready,pod-6,32,pods,3
3191,6.0,ContainersReady,pod-6,32,pods,3
3192,0.0,PodScheduled,pod-7,32,pods,3
3193,0.0,Initialized,pod-7,32,pods,3
3194,5.0,Ready,pod-7,32,pods,3
3195,5.0,ContainersReady,pod-7,32,pods,3
3196,0.0,PodScheduled,pod-8,32,pods,3
3197,0.0,Initialized,pod-8,32,pods,3
3198,6.0,Ready,pod-8,32,pods,3
3199,6.0,ContainersReady,pod-8,32,pods,3
3200,0.0,PodScheduled,pod-9,32,pods,3
3201,0.0,Initialized,pod-9,32,pods,3
3202,11.0,Ready,pod-9,32,pods,3
3203,11.0,ContainersReady,pod-9,32,pods,3
3204,0.0,PodScheduled,pod-10,32,pods,3
3205,0.0,Initialized,pod-10,32,pods,3
3206,12.0,Ready,pod-10,32,pods,3
3207,12.0,ContainersReady,pod-10,32,pods,3
3208,0.0,PodScheduled,pod-11,32,pods,3
3209,0.0,Initialized,pod-11,32,pods,3
3210,7.0,Ready,pod-11,32,pods,3
3211,7.0,ContainersReady,pod-11,32,pods,3
3212,0.0,PodScheduled,pod-12,32,pods,3
3213,0.0,Initialized,pod-12,32,pods,3
3214,7.0,Ready,pod-12,32,pods,3
3215,7.0,ContainersReady,pod-12,32,pods,3
3216,0.0,PodScheduled,pod-13,32,pods,3
3217,0.0,Initialized,pod-13,32,pods,3
3218,8.0,Ready,pod-13,32,pods,3
3219,8.0,ContainersReady,pod-13,32,pods,3
3220,0.0,PodScheduled,pod-14,32,pods,3
3221,0.0,Initialized,pod-14,32,pods,3
3222,5.0,Ready,pod-14,32,pods,3
3223,5.0,ContainersReady,pod-14,32,pods,3
3224,0.0,PodScheduled,pod-15,32,pods,3
3225,0.0,Initialized,pod-15,32,pods,3
3226,10.0,Ready,pod-15,32,pods,3
3227,10.0,ContainersReady,pod-15,32,pods,3
3228,0.0,PodScheduled,pod-16,32,pods,3
3229,0.0,Initialized,pod-16,32,pods,3
3230,9.0,Ready,pod-16,32,pods,3
3231,9.0,ContainersReady,pod-16,32,pods,3
3232,0.0,PodScheduled,pod-17,32,pods,3
3233,0.0,Initialized,pod-17,32,pods,3
3234,9.0,Ready,pod-17,32,pods,3
3235,9.0,ContainersReady,pod-17,32,pods,3
3236,0.0,PodScheduled,pod-18,32,pods,3
3237,0.0,Initialized,pod-18,32,pods,3
3238,13.0,Ready,pod-18,32,pods,3
3239,13.0,ContainersReady,pod-18,32,pods,3
3240,0.0,PodScheduled,pod-19,32,pods,3
3241,0.0,Initialized,pod-19,32,pods,3
3242,15.0,Ready,pod-19,32,pods,3
3243,15.0,ContainersReady,pod-19,32,pods,3
3244,0.0,PodScheduled,pod-20,32,pods,3
3245,0.0,Initialized,pod-20,32,pods,3
3246,14.0,Ready,pod-20,32,pods,3
3247,14.0,ContainersReady,pod-20,32,pods,3
3248,0.0,PodScheduled,pod-21,32,pods,3
3249,0.0,Initialized,pod-21,32,pods,3
3250,13.0,Ready,pod-21,32,pods,3
3251,13.0,ContainersReady,pod-21,32,pods,3
3252,0.0,PodScheduled,pod-22,32,pods,3
3253,0.0,Initialized,pod-22,32,pods,3
3254,11.0,Ready,pod-22,32,pods,3
3255,11.0,ContainersReady,pod-22,32,pods,3
3256,0.0,PodScheduled,pod-23,32,pods,3
3257,0.0,Initialized,pod-23,32,pods,3
3258,8.0,Ready,pod-23,32,pods,3
3259,8.0,ContainersReady,pod-23,32,pods,3
3260,0.0,PodScheduled,pod-24,32,pods,3
3261,0.0,Initialized,pod-24,32,pods,3
3262,12.0,Ready,pod-24,32,pods,3
3263,12.0,ContainersReady,pod-24,32,pods,3
3264,0.0,PodScheduled,pod-25,32,pods,3
3265,0.0,Initialized,pod-25,32,pods,3
3266,17.0,Ready,pod-25,32,pods,3
3267,17.0,ContainersReady,pod-25,32,pods,3
3268,0.0,PodScheduled,pod-26,32,pods,3
3269,0.0,Initialized,pod-26,32,pods,3
3270,14.0,Ready,pod-26,32,pods,3
3271,14.0,ContainersReady,pod-26,32,pods,3
3272,0.0,PodScheduled,pod-27,32,pods,3
3273,0.0,Initialized,pod-27,32,pods,3
3274,15.0,Ready,pod-27,32,pods,3
3275,15.0,ContainersReady,pod-27,32,pods,3
3276,0.0,PodScheduled,pod-28,32,pods,3
3277,0.0,Initialized,pod-28,32,pods,3
3278,13.0,Ready,pod-28,32,pods,3
3279,13.0,ContainersReady,pod-28,32,pods,3
3280,0.0,PodScheduled,pod-29,32,pods,3
3281,0.0,Initialized,pod-29,32,pods,3
3282,16.0,Ready,pod-29,32,pods,3
3283,16.0,ContainersReady,pod-29,32,pods,3
3284,0.0,PodScheduled,pod-30,32,pods,3
3285,0.0,Initialized,pod-30,32,pods,3
3286,17.0,Ready,pod-30,32,pods,3
3287,17.0,ContainersReady,pod-30,32,pods,3
3288,0.0,PodScheduled,pod-31,32,pods,3
3289,0.0,Initialized,pod-31,32,pods,3
3290,16.0,Ready,pod-31,32,pods,3
3291,16.0,ContainersReady,pod-31,32,pods,3
3292,18.012,watch_create,all,32,pods,2
3293,35.193,watch_delete,all,32,pods,2
3294,0.0,PodScheduled,pod-0,32,pods,2
3295,0.0,Initialized,pod-0,32,pods,2
3296,3.0,Ready,pod-0,32,pods,2
3297,3.0,ContainersReady,pod-0,32,pods,2
3298,0.0,PodScheduled,pod-1,32,pods,2
3299,0.0,Initialized,pod-1,32,pods,2
3300,2.0,Ready,pod-1,32,pods,2
3301,2.0,ContainersReady,pod-1,32,pods,2
3302,0.0,PodScheduled,pod-2,32,pods,2
3303,0.0,Initialized,pod-2,32,pods,2
3304,3.0,Ready,pod-2,32,pods,2
3305,3.0,ContainersReady,pod-2,32,pods,2
3306,0.0,PodScheduled,pod-3,32,pods,2
3307,0.0,Initialized,pod-3,32,pods,2
3308,2.0,Ready,pod-3,32,pods,2
3309,2.0,ContainersReady,pod-3,32,pods,2
3310,0.0,PodScheduled,pod-4,32,pods,2
3311,0.0,Initialized,pod-4,32,pods,2
3312,5.0,Ready,pod-4,32,pods,2
3313,5.0,ContainersReady,pod-4,32,pods,2
3314,0.0,PodScheduled,pod-5,32,pods,2
3315,0.0,Initialized,pod-5,32,pods,2
3316,4.0,Ready,pod-5,32,pods,2
3317,4.0,ContainersReady,pod-5,32,pods,2
3318,0.0,PodScheduled,pod-6,32,pods,2
3319,0.0,Initialized,pod-6,32,pods,2
3320,5.0,Ready,pod-6,32,pods,2
3321,5.0,ContainersReady,pod-6,32,pods,2
3322,0.0,PodScheduled,pod-7,32,pods,2
3323,0.0,Initialized,pod-7,32,pods,2
3324,17.0,Ready,pod-7,32,pods,2
3325,17.0,ContainersReady,pod-7,32,pods,2
3326,0.0,PodScheduled,pod-8,32,pods,2
3327,0.0,Initialized,pod-8,32,pods,2
3328,16.0,Ready,pod-8,32,pods,2
3329,16.0,ContainersReady,pod-8,32,pods,2
3330,0.0,PodScheduled,pod-9,32,pods,2
3331,0.0,Initialized,pod-9,32,pods,2
3332,4.0,Ready,pod-9,32,pods,2
3333,4.0,ContainersReady,pod-9,32,pods,2
3334,0.0,PodScheduled,pod-10,32,pods,2
3335,0.0,Initialized,pod-10,32,pods,2
3336,6.0,Ready,pod-10,32,pods,2
3337,6.0,ContainersReady,pod-10,32,pods,2
3338,0.0,PodScheduled,pod-11,32,pods,2
3339,0.0,Initialized,pod-11,32,pods,2
3340,6.0,Ready,pod-11,32,pods,2
3341,6.0,ContainersReady,pod-11,32,pods,2
3342,0.0,PodScheduled,pod-12,32,pods,2
3343,0.0,Initialized,pod-12,32,pods,2
3344,7.0,Ready,pod-12,32,pods,2
3345,7.0,ContainersReady,pod-12,32,pods,2
3346,0.0,PodScheduled,pod-13,32,pods,2
3347,0.0,Initialized,pod-13,32,pods,2
3348,8.0,Ready,pod-13,32,pods,2
3349,8.0,ContainersReady,pod-13,32,pods,2
3350,0.0,PodScheduled,pod-14,32,pods,2
3351,0.0,Initialized,pod-14,32,pods,2
3352,7.0,Ready,pod-14,32,pods,2
3353,7.0,ContainersReady,pod-14,32,pods,2
3354,0.0,PodScheduled,pod-15,32,pods,2
3355,0.0,Initialized,pod-15,32,pods,2
3356,10.0,Ready,pod-15,32,pods,2
3357,10.0,ContainersReady,pod-15,32,pods,2
3358,0.0,PodScheduled,pod-16,32,pods,2
3359,0.0,Initialized,pod-16,32,pods,2
3360,10.0,Ready,pod-16,32,pods,2
3361,10.0,ContainersReady,pod-16,32,pods,2
3362,0.0,PodScheduled,pod-17,32,pods,2
3363,0.0,Initialized,pod-17,32,pods,2
3364,9.0,Ready,pod-17,32,pods,2
3365,9.0,ContainersReady,pod-17,32,pods,2
3366,0.0,PodScheduled,pod-18,32,pods,2
3367,0.0,Initialized,pod-18,32,pods,2
3368,8.0,Ready,pod-18,32,pods,2
3369,8.0,ContainersReady,pod-18,32,pods,2
3370,0.0,PodScheduled,pod-19,32,pods,2
3371,0.0,Initialized,pod-19,32,pods,2
3372,9.0,Ready,pod-19,32,pods,2
3373,9.0,ContainersReady,pod-19,32,pods,2
3374,0.0,PodScheduled,pod-20,32,pods,2
3375,0.0,Initialized,pod-20,32,pods,2
3376,11.0,Ready,pod-20,32,pods,2
3377,11.0,ContainersReady,pod-20,32,pods,2
3378,0.0,PodScheduled,pod-21,32,pods,2
3379,0.0,Initialized,pod-21,32,pods,2
3380,12.0,Ready,pod-21,32,pods,2
3381,12.0,ContainersReady,pod-21,32,pods,2
3382,0.0,PodScheduled,pod-22,32,pods,2
3383,0.0,Initialized,pod-22,32,pods,2
3384,15.0,Ready,pod-22,32,pods,2
3385,15.0,ContainersReady,pod-22,32,pods,2
3386,0.0,PodScheduled,pod-23,32,pods,2
3387,0.0,Initialized,pod-23,32,pods,2
3388,12.0,Ready,pod-23,32,pods,2
3389,12.0,ContainersReady,pod-23,32,pods,2
3390,0.0,PodScheduled,pod-24,32,pods,2
3391,0.0,Initialized,pod-24,32,pods,2
3392,13.0,Ready,pod-24,32,pods,2
3393,13.0,ContainersReady,pod-24,32,pods,2
3394,0.0,PodScheduled,pod-25,32,pods,2
3395,0.0,Initialized,pod-25,32,pods,2
3396,11.0,Ready,pod-25,32,pods,2
3397,11.0,ContainersReady,pod-25,32,pods,2
3398,0.0,PodScheduled,pod-26,32,pods,2
3399,0.0,Initialized,pod-26,32,pods,2
3400,17.0,Ready,pod-26,32,pods,2
3401,17.0,ContainersReady,pod-26,32,pods,2
3402,0.0,PodScheduled,pod-27,32,pods,2
3403,0.0,Initialized,pod-27,32,pods,2
3404,14.0,Ready,pod-27,32,pods,2
3405,14.0,ContainersReady,pod-27,32,pods,2
3406,0.0,PodScheduled,pod-28,32,pods,2
3407,0.0,Initialized,pod-28,32,pods,2
3408,16.0,Ready,pod-28,32,pods,2
3409,16.0,ContainersReady,pod-28,32,pods,2
3410,0.0,PodScheduled,pod-29,32,pods,2
3411,0.0,Initialized,pod-29,32,pods,2
3412,13.0,Ready,pod-29,32,pods,2
3413,13.0,ContainersReady,pod-29,32,pods,2
3414,0.0,PodScheduled,pod-30,32,pods,2
3415,0.0,Initialized,pod-30,32,pods,2
3416,15.0,Ready,pod-30,32,pods,2
3417,15.0,ContainersReady,pod-30,32,pods,2
3418,0.0,PodScheduled,pod-31,32,pods,2
3419,0.0,Initialized,pod-31,32,pods,2
3420,14.0,Ready,pod-31,32,pods,2
3421,14.0,ContainersReady,pod-31,32,pods,2
3422,17.505,watch_create,all,32,indexed-job,12
3423,33.323,watch_delete,all,32,indexed-job,12
3424,0.0,PodScheduled,indexed-job-0-2q2rn,32,indexed-job,12
3425,0.0,Initialized,indexed-job-0-2q2rn,32,indexed-job,12
3426,2.0,Ready,indexed-job-0-2q2rn,32,indexed-job,12
3427,2.0,ContainersReady,indexed-job-0-2q2rn,32,indexed-job,12
3428,0.0,PodScheduled,indexed-job-2-rzjnj,32,indexed-job,12
3429,0.0,Initialized,indexed-job-2-rzjnj,32,indexed-job,12
3430,3.0,Ready,indexed-job-2-rzjnj,32,indexed-job,12
3431,3.0,ContainersReady,indexed-job-2-rzjnj,32,indexed-job,12
3432,0.0,PodScheduled,indexed-job-1-x8tcv,32,indexed-job,12
3433,0.0,Initialized,indexed-job-1-x8tcv,32,indexed-job,12
3434,2.0,Ready,indexed-job-1-x8tcv,32,indexed-job,12
3435,2.0,ContainersReady,indexed-job-1-x8tcv,32,indexed-job,12
3436,0.0,PodScheduled,indexed-job-4-x287r,32,indexed-job,12
3437,0.0,Initialized,indexed-job-4-x287r,32,indexed-job,12
3438,3.0,Ready,indexed-job-4-x287r,32,indexed-job,12
3439,3.0,ContainersReady,indexed-job-4-x287r,32,indexed-job,12
3440,0.0,PodScheduled,indexed-job-6-p295x,32,indexed-job,12
3441,0.0,Initialized,indexed-job-6-p295x,32,indexed-job,12
3442,8.0,Ready,indexed-job-6-p295x,32,indexed-job,12
3443,8.0,ContainersReady,indexed-job-6-p295x,32,indexed-job,12
3444,0.0,PodScheduled,indexed-job-3-lrhkc,32,indexed-job,12
3445,0.0,Initialized,indexed-job-3-lrhkc,32,indexed-job,12
3446,4.0,Ready,indexed-job-3-lrhkc,32,indexed-job,12
3447,4.0,ContainersReady,indexed-job-3-lrhkc,32,indexed-job,12
3448,0.0,PodScheduled,indexed-job-5-g52hx,32,indexed-job,12
3449,0.0,Initialized,indexed-job-5-g52hx,32,indexed-job,12
3450,5.0,Ready,indexed-job-5-g52hx,32,indexed-job,12
3451,5.0,ContainersReady,indexed-job-5-g52hx,32,indexed-job,12
3452,0.0,PodScheduled,indexed-job-8-zwqjm,32,indexed-job,12
3453,0.0,Initialized,indexed-job-8-zwqjm,32,indexed-job,12
3454,5.0,Ready,indexed-job-8-zwqjm,32,indexed-job,12
3455,5.0,ContainersReady,indexed-job-8-zwqjm,32,indexed-job,12
3456,0.0,PodScheduled,indexed-job-10-zsj8f,32,indexed-job,12
3457,0.0,Initialized,indexed-job-10-zsj8f,32,indexed-job,12
3458,9.0,Ready,indexed-job-10-zsj8f,32,indexed-job,12
3459,9.0,ContainersReady,indexed-job-10-zsj8f,32,indexed-job,12
3460,0.0,PodScheduled,indexed-job-7-fvqch,32,indexed-job,12
3461,0.0,Initialized,indexed-job-7-fvqch,32,indexed-job,12
3462,6.0,Ready,indexed-job-7-fvqch,32,indexed-job,12
3463,6.0,ContainersReady,indexed-job-7-fvqch,32,indexed-job,12
3464,0.0,PodScheduled,indexed-job-13-f8nw8,32,indexed-job,12
3465,0.0,Initialized,indexed-job-13-f8nw8,32,indexed-job,12
3466,9.0,Ready,indexed-job-13-f8nw8,32,indexed-job,12
3467,9.0,ContainersReady,indexed-job-13-f8nw8,32,indexed-job,12
3468,0.0,PodScheduled,indexed-job-12-jd27h,32,indexed-job,12
3469,0.0,Initialized,indexed-job-12-jd27h,32,indexed-job,12
3470,4.0,Ready,indexed-job-12-jd27h,32,indexed-job,12
3471,4.0,ContainersReady,indexed-job-12-jd27h,32,indexed-job,12
3472,0.0,PodScheduled,indexed-job-9-ppwsj,32,indexed-job,12
3473,0.0,Initialized,indexed-job-9-ppwsj,32,indexed-job,12
3474,5.0,Ready,indexed-job-9-ppwsj,32,indexed-job,12
3475,5.0,ContainersReady,indexed-job-9-ppwsj,32,indexed-job,12
3476,0.0,PodScheduled,indexed-job-14-fvr8v,32,indexed-job,12
3477,0.0,Initialized,indexed-job-14-fvr8v,32,indexed-job,12
3478,11.0,Ready,indexed-job-14-fvr8v,32,indexed-job,12
3479,11.0,ContainersReady,indexed-job-14-fvr8v,32,indexed-job,12
3480,0.0,PodScheduled,indexed-job-11-78mfh,32,indexed-job,12
3481,0.0,Initialized,indexed-job-11-78mfh,32,indexed-job,12
3482,7.0,Ready,indexed-job-11-78mfh,32,indexed-job,12
3483,7.0,ContainersReady,indexed-job-11-78mfh,32,indexed-job,12
3484,0.0,PodScheduled,indexed-job-21-qrf5z,32,indexed-job,12
3485,0.0,Initialized,indexed-job-21-qrf5z,32,indexed-job,12
3486,7.0,Ready,indexed-job-21-qrf5z,32,indexed-job,12
3487,7.0,ContainersReady,indexed-job-21-qrf5z,32,indexed-job,12
3488,0.0,PodScheduled,indexed-job-30-gjblr,32,indexed-job,12
3489,0.0,Initialized,indexed-job-30-gjblr,32,indexed-job,12
3490,11.0,Ready,indexed-job-30-gjblr,32,indexed-job,12
3491,11.0,ContainersReady,indexed-job-30-gjblr,32,indexed-job,12
3492,0.0,PodScheduled,indexed-job-22-4psjf,32,indexed-job,12
3493,0.0,Initialized,indexed-job-22-4psjf,32,indexed-job,12
3494,14.0,Ready,indexed-job-22-4psjf,32,indexed-job,12
3495,14.0,ContainersReady,indexed-job-22-4psjf,32,indexed-job,12
3496,0.0,PodScheduled,indexed-job-15-gtwtf,32,indexed-job,12
3497,0.0,Initialized,indexed-job-15-gtwtf,32,indexed-job,12
3498,15.0,Ready,indexed-job-15-gtwtf,32,indexed-job,12
3499,15.0,ContainersReady,indexed-job-15-gtwtf,32,indexed-job,12
3500,0.0,PodScheduled,indexed-job-23-swrqq,32,indexed-job,12
3501,0.0,Initialized,indexed-job-23-swrqq,32,indexed-job,12
3502,6.0,Ready,indexed-job-23-swrqq,32,indexed-job,12
3503,6.0,ContainersReady,indexed-job-23-swrqq,32,indexed-job,12
3504,0.0,PodScheduled,indexed-job-25-pjqf2,32,indexed-job,12
3505,0.0,Initialized,indexed-job-25-pjqf2,32,indexed-job,12
3506,13.0,Ready,indexed-job-25-pjqf2,32,indexed-job,12
3507,13.0,ContainersReady,indexed-job-25-pjqf2,32,indexed-job,12
3508,0.0,PodScheduled,indexed-job-16-ghvxd,32,indexed-job,12
3509,0.0,Initialized,indexed-job-16-ghvxd,32,indexed-job,12
3510,13.0,Ready,indexed-job-16-ghvxd,32,indexed-job,12
3511,13.0,ContainersReady,indexed-job-16-ghvxd,32,indexed-job,12
3512,0.0,PodScheduled,indexed-job-17-nsvnq,32,indexed-job,12
3513,0.0,Initialized,indexed-job-17-nsvnq,32,indexed-job,12
3514,12.0,Ready,indexed-job-17-nsvnq,32,indexed-job,12
3515,12.0,ContainersReady,indexed-job-17-nsvnq,32,indexed-job,12
3516,0.0,PodScheduled,indexed-job-24-dvlpv,32,indexed-job,12
3517,0.0,Initialized,indexed-job-24-dvlpv,32,indexed-job,12
3518,8.0,Ready,indexed-job-24-dvlpv,32,indexed-job,12
3519,8.0,ContainersReady,indexed-job-24-dvlpv,32,indexed-job,12
3520,0.0,PodScheduled,indexed-job-20-qcl8n,32,indexed-job,12
3521,0.0,Initialized,indexed-job-20-qcl8n,32,indexed-job,12
3522,14.0,Ready,indexed-job-20-qcl8n,32,indexed-job,12
3523,14.0,ContainersReady,indexed-job-20-qcl8n,32,indexed-job,12
3524,0.0,PodScheduled,indexed-job-19-2wcw7,32,indexed-job,12
3525,0.0,Initialized,indexed-job-19-2wcw7,32,indexed-job,12
3526,10.0,Ready,indexed-job-19-2wcw7,32,indexed-job,12
3527,10.0,ContainersReady,indexed-job-19-2wcw7,32,indexed-job,12
3528,0.0,PodScheduled,indexed-job-26-6t5m4,32,indexed-job,12
3529,0.0,Initialized,indexed-job-26-6t5m4,32,indexed-job,12
3530,12.0,Ready,indexed-job-26-6t5m4,32,indexed-job,12
3531,12.0,ContainersReady,indexed-job-26-6t5m4,32,indexed-job,12
3532,0.0,PodScheduled,indexed-job-27-55vnq,32,indexed-job,12
3533,0.0,Initialized,indexed-job-27-55vnq,32,indexed-job,12
3534,16.0,Ready,indexed-job-27-55vnq,32,indexed-job,12
3535,16.0,ContainersReady,indexed-job-27-55vnq,32,indexed-job,12
3536,0.0,PodScheduled,indexed-job-18-95jg2,32,indexed-job,12
3537,0.0,Initialized,indexed-job-18-95jg2,32,indexed-job,12
3538,15.0,Ready,indexed-job-18-95jg2,32,indexed-job,12
3539,15.0,ContainersReady,indexed-job-18-95jg2,32,indexed-job,12
3540,0.0,PodScheduled,indexed-job-28-h6mbh,32,indexed-job,12
3541,0.0,Initialized,indexed-job-28-h6mbh,32,indexed-job,12
3542,16.0,Ready,indexed-job-28-h6mbh,32,indexed-job,12
3543,16.0,ContainersReady,indexed-job-28-h6mbh,32,indexed-job,12
3544,0.0,PodScheduled,indexed-job-29-hk9zf,32,indexed-job,12
3545,0.0,Initialized,indexed-job-29-hk9zf,32,indexed-job,12
3546,16.0,Ready,indexed-job-29-hk9zf,32,indexed-job,12
3547,16.0,ContainersReady,indexed-job-29-hk9zf,32,indexed-job,12
3548,0.0,PodScheduled,indexed-job-31-vrjqh,32,indexed-job,12
3549,0.0,Initialized,indexed-job-31-vrjqh,32,indexed-job,12
3550,17.0,Ready,indexed-job-31-vrjqh,32,indexed-job,12
3551,17.0,ContainersReady,indexed-job-31-vrjqh,32,indexed-job,12
3552,18.054,watch_create,all,32,pods,18
3553,34.202,watch_delete,all,32,pods,18
3554,0.0,PodScheduled,pod-0,32,pods,18
3555,0.0,Initialized,pod-0,32,pods,18
3556,2.0,Ready,pod-0,32,pods,18
3557,2.0,ContainersReady,pod-0,32,pods,18
3558,0.0,PodScheduled,pod-1,32,pods,18
3559,0.0,Initialized,pod-1,32,pods,18
3560,3.0,Ready,pod-1,32,pods,18
3561,3.0,ContainersReady,pod-1,32,pods,18
3562,0.0,PodScheduled,pod-2,32,pods,18
3563,0.0,Initialized,pod-2,32,pods,18
3564,3.0,Ready,pod-2,32,pods,18
3565,3.0,ContainersReady,pod-2,32,pods,18
3566,0.0,PodScheduled,pod-3,32,pods,18
3567,0.0,Initialized,pod-3,32,pods,18
3568,4.0,Ready,pod-3,32,pods,18
3569,4.0,ContainersReady,pod-3,32,pods,18
3570,0.0,PodScheduled,pod-4,32,pods,18
3571,0.0,Initialized,pod-4,32,pods,18
3572,4.0,Ready,pod-4,32,pods,18
3573,4.0,ContainersReady,pod-4,32,pods,18
3574,0.0,PodScheduled,pod-5,32,pods,18
3575,0.0,Initialized,pod-5,32,pods,18
3576,2.0,Ready,pod-5,32,pods,18
3577,2.0,ContainersReady,pod-5,32,pods,18
3578,0.0,PodScheduled,pod-6,32,pods,18
3579,0.0,Initialized,pod-6,32,pods,18
3580,5.0,Ready,pod-6,32,pods,18
3581,5.0,ContainersReady,pod-6,32,pods,18
3582,0.0,PodScheduled,pod-7,32,pods,18
3583,0.0,Initialized,pod-7,32,pods,18
3584,5.0,Ready,pod-7,32,pods,18
3585,5.0,ContainersReady,pod-7,32,pods,18
3586,0.0,PodScheduled,pod-8,32,pods,18
3587,0.0,Initialized,pod-8,32,pods,18
3588,6.0,Ready,pod-8,32,pods,18
3589,6.0,ContainersReady,pod-8,32,pods,18
3590,0.0,PodScheduled,pod-9,32,pods,18
3591,0.0,Initialized,pod-9,32,pods,18
3592,6.0,Ready,pod-9,32,pods,18
3593,6.0,ContainersReady,pod-9,32,pods,18
3594,0.0,PodScheduled,pod-10,32,pods,18
3595,0.0,Initialized,pod-10,32,pods,18
3596,8.0,Ready,pod-10,32,pods,18
3597,8.0,ContainersReady,pod-10,32,pods,18
3598,0.0,PodScheduled,pod-11,32,pods,18
3599,0.0,Initialized,pod-11,32,pods,18
3600,7.0,Ready,pod-11,32,pods,18
3601,7.0,ContainersReady,pod-11,32,pods,18
3602,0.0,PodScheduled,pod-12,32,pods,18
3603,0.0,Initialized,pod-12,32,pods,18
3604,7.0,Ready,pod-12,32,pods,18
3605,7.0,ContainersReady,pod-12,32,pods,18
3606,0.0,PodScheduled,pod-13,32,pods,18
3607,0.0,Initialized,pod-13,32,pods,18
3608,9.0,Ready,pod-13,32,pods,18
3609,9.0,ContainersReady,pod-13,32,pods,18
3610,0.0,PodScheduled,pod-14,32,pods,18
3611,0.0,Initialized,pod-14,32,pods,18
3612,8.0,Ready,pod-14,32,pods,18
3613,8.0,ContainersReady,pod-14,32,pods,18
3614,0.0,PodScheduled,pod-15,32,pods,18
3615,0.0,Initialized,pod-15,32,pods,18
3616,10.0,Ready,pod-15,32,pods,18
3617,10.0,ContainersReady,pod-15,32,pods,18
3618,0.0,PodScheduled,pod-16,32,pods,18
3619,0.0,Initialized,pod-16,32,pods,18
3620,9.0,Ready,pod-16,32,pods,18
3621,9.0,ContainersReady,pod-16,32,pods,18
3622,0.0,PodScheduled,pod-17,32,pods,18
3623,0.0,Initialized,pod-17,32,pods,18
3624,16.0,Ready,pod-17,32,pods,18
3625,16.0,ContainersReady,pod-17,32,pods,18
3626,0.0,PodScheduled,pod-18,32,pods,18
3627,0.0,Initialized,pod-18,32,pods,18
3628,9.0,Ready,pod-18,32,pods,18
3629,9.0,ContainersReady,pod-18,32,pods,18
3630,0.0,PodScheduled,pod-19,32,pods,18
3631,0.0,Initialized,pod-19,32,pods,18
3632,11.0,Ready,pod-19,32,pods,18
3633,11.0,ContainersReady,pod-19,32,pods,18
3634,0.0,PodScheduled,pod-20,32,pods,18
3635,0.0,Initialized,pod-20,32,pods,18
3636,14.0,Ready,pod-20,32,pods,18
3637,14.0,ContainersReady,pod-20,32,pods,18
3638,0.0,PodScheduled,pod-21,32,pods,18
3639,0.0,Initialized,pod-21,32,pods,18
3640,11.0,Ready,pod-21,32,pods,18
3641,11.0,ContainersReady,pod-21,32,pods,18
3642,0.0,PodScheduled,pod-22,32,pods,18
3643,0.0,Initialized,pod-22,32,pods,18
3644,12.0,Ready,pod-22,32,pods,18
3645,12.0,ContainersReady,pod-22,32,pods,18
3646,0.0,PodScheduled,pod-23,32,pods,18
3647,0.0,Initialized,pod-23,32,pods,18
3648,13.0,Ready,pod-23,32,pods,18
3649,13.0,ContainersReady,pod-23,32,pods,18
3650,0.0,PodScheduled,pod-24,32,pods,18
3651,0.0,Initialized,pod-24,32,pods,18
3652,10.0,Ready,pod-24,32,pods,18
3653,10.0,ContainersReady,pod-24,32,pods,18
3654,0.0,PodScheduled,pod-25,32,pods,18
3655,0.0,Initialized,pod-25,32,pods,18
3656,12.0,Ready,pod-25,32,pods,18
3657,12.0,ContainersReady,pod-25,32,pods,18
3658,0.0,PodScheduled,pod-26,32,pods,18
3659,0.0,Initialized,pod-26,32,pods,18
3660,15.0,Ready,pod-26,32,pods,18
3661,15.0,ContainersReady,pod-26,32,pods,18
3662,0.0,PodScheduled,pod-27,32,pods,18
3663,0.0,Initialized,pod-27,32,pods,18
3664,13.0,Ready,pod-27,32,pods,18
3665,13.0,ContainersReady,pod-27,32,pods,18
3666,0.0,PodScheduled,pod-28,32,pods,18
3667,0.0,Initialized,pod-28,32,pods,18
3668,17.0,Ready,pod-28,32,pods,18
3669,17.0,ContainersReady,pod-28,32,pods,18
3670,0.0,PodScheduled,pod-29,32,pods,18
3671,0.0,Initialized,pod-29,32,pods,18
3672,15.0,Ready,pod-29,32,pods,18
3673,15.0,ContainersReady,pod-29,32,pods,18
3674,0.0,PodScheduled,pod-30,32,pods,18
3675,0.0,Initialized,pod-30,32,pods,18
3676,16.0,Ready,pod-30,32,pods,18
3677,16.0,ContainersReady,pod-30,32,pods,18
3678,0.0,PodScheduled,pod-31,32,pods,18
3679,0.0,Initialized,pod-31,32,pods,18
3680,14.0,Ready,pod-31,32,pods,18
3681,14.0,ContainersReady,pod-31,32,pods,18
3682,16.784,watch_create,all,32,indexed-job,11
3683,33.305,watch_delete,all,32,indexed-job,11
3684,0.0,PodScheduled,indexed-job-0-8nbdl,32,indexed-job,11
3685,0.0,Initialized,indexed-job-0-8nbdl,32,indexed-job,11
3686,3.0,Ready,indexed-job-0-8nbdl,32,indexed-job,11
3687,3.0,ContainersReady,indexed-job-0-8nbdl,32,indexed-job,11
3688,0.0,PodScheduled,indexed-job-1-hnzjd,32,indexed-job,11
3689,0.0,Initialized,indexed-job-1-hnzjd,32,indexed-job,11
3690,4.0,Ready,indexed-job-1-hnzjd,32,indexed-job,11
3691,4.0,ContainersReady,indexed-job-1-hnzjd,32,indexed-job,11
3692,0.0,PodScheduled,indexed-job-2-kqxrx,32,indexed-job,11
3693,0.0,Initialized,indexed-job-2-kqxrx,32,indexed-job,11
3694,3.0,Ready,indexed-job-2-kqxrx,32,indexed-job,11
3695,3.0,ContainersReady,indexed-job-2-kqxrx,32,indexed-job,11
3696,0.0,PodScheduled,indexed-job-5-jhf8b,32,indexed-job,11
3697,0.0,Initialized,indexed-job-5-jhf8b,32,indexed-job,11
3698,4.0,Ready,indexed-job-5-jhf8b,32,indexed-job,11
3699,4.0,ContainersReady,indexed-job-5-jhf8b,32,indexed-job,11
3700,0.0,PodScheduled,indexed-job-3-f45rs,32,indexed-job,11
3701,0.0,Initialized,indexed-job-3-f45rs,32,indexed-job,11
3702,14.0,Ready,indexed-job-3-f45rs,32,indexed-job,11
3703,14.0,ContainersReady,indexed-job-3-f45rs,32,indexed-job,11
3704,0.0,PodScheduled,indexed-job-6-7q9pm,32,indexed-job,11
3705,0.0,Initialized,indexed-job-6-7q9pm,32,indexed-job,11
3706,13.0,Ready,indexed-job-6-7q9pm,32,indexed-job,11
3707,13.0,ContainersReady,indexed-job-6-7q9pm,32,indexed-job,11
3708,0.0,PodScheduled,indexed-job-4-sskh6,32,indexed-job,11
3709,0.0,Initialized,indexed-job-4-sskh6,32,indexed-job,11
3710,7.0,Ready,indexed-job-4-sskh6,32,indexed-job,11
3711,7.0,ContainersReady,indexed-job-4-sskh6,32,indexed-job,11
3712,0.0,PodScheduled,indexed-job-7-2v99b,32,indexed-job,11
3713,0.0,Initialized,indexed-job-7-2v99b,32,indexed-job,11
3714,5.0,Ready,indexed-job-7-2v99b,32,indexed-job,11
3715,5.0,ContainersReady,indexed-job-7-2v99b,32,indexed-job,11
3716,0.0,PodScheduled,indexed-job-14-plbxl,32,indexed-job,11
3717,0.0,Initialized,indexed-job-14-plbxl,32,indexed-job,11
3718,11.0,Ready,indexed-job-14-plbxl,32,indexed-job,11
3719,11.0,ContainersReady,indexed-job-14-plbxl,32,indexed-job,11
3720,0.0,PodScheduled,indexed-job-10-9mttt,32,indexed-job,11
3721,0.0,Initialized,indexed-job-10-9mttt,32,indexed-job,11
3722,9.0,Ready,indexed-job-10-9mttt,32,indexed-job,11
3723,9.0,ContainersReady,indexed-job-10-9mttt,32,indexed-job,11
3724,0.0,PodScheduled,indexed-job-13-jhmw6,32,indexed-job,11
3725,0.0,Initialized,indexed-job-13-jhmw6,32,indexed-job,11
3726,14.0,Ready,indexed-job-13-jhmw6,32,indexed-job,11
3727,14.0,ContainersReady,indexed-job-13-jhmw6,32,indexed-job,11
3728,0.0,PodScheduled,indexed-job-8-p6962,32,indexed-job,11
3729,0.0,Initialized,indexed-job-8-p6962,32,indexed-job,11
3730,10.0,Ready,indexed-job-8-p6962,32,indexed-job,11
3731,10.0,ContainersReady,indexed-job-8-p6962,32,indexed-job,11
3732,0.0,PodScheduled,indexed-job-9-wxj26,32,indexed-job,11
3733,0.0,Initialized,indexed-job-9-wxj26,32,indexed-job,11
3734,6.0,Ready,indexed-job-9-wxj26,32,indexed-job,11
3735,6.0,ContainersReady,indexed-job-9-wxj26,32,indexed-job,11
3736,0.0,PodScheduled,indexed-job-11-829pd,32,indexed-job,11
3737,0.0,Initialized,indexed-job-11-829pd,32,indexed-job,11
3738,11.0,Ready,indexed-job-11-829pd,32,indexed-job,11
3739,11.0,ContainersReady,indexed-job-11-829pd,32,indexed-job,11
3740,0.0,PodScheduled,indexed-job-12-rgnsd,32,indexed-job,11
3741,0.0,Initialized,indexed-job-12-rgnsd,32,indexed-job,11
3742,16.0,Ready,indexed-job-12-rgnsd,32,indexed-job,11
3743,16.0,ContainersReady,indexed-job-12-rgnsd,32,indexed-job,11
3744,0.0,PodScheduled,indexed-job-21-966r8,32,indexed-job,11
3745,0.0,Initialized,indexed-job-21-966r8,32,indexed-job,11
3746,6.0,Ready,indexed-job-21-966r8,32,indexed-job,11
3747,6.0,ContainersReady,indexed-job-21-966r8,32,indexed-job,11
3748,0.0,PodScheduled,indexed-job-30-hxbdh,32,indexed-job,11
3749,0.0,Initialized,indexed-job-30-hxbdh,32,indexed-job,11
3750,16.0,Ready,indexed-job-30-hxbdh,32,indexed-job,11
3751,16.0,ContainersReady,indexed-job-30-hxbdh,32,indexed-job,11
3752,0.0,PodScheduled,indexed-job-29-hkjsn,32,indexed-job,11
3753,0.0,Initialized,indexed-job-29-hkjsn,32,indexed-job,11
3754,8.0,Ready,indexed-job-29-hkjsn,32,indexed-job,11
3755,8.0,ContainersReady,indexed-job-29-hkjsn,32,indexed-job,11
3756,0.0,PodScheduled,indexed-job-22-csgnl,32,indexed-job,11
3757,0.0,Initialized,indexed-job-22-csgnl,32,indexed-job,11
3758,12.0,Ready,indexed-job-22-csgnl,32,indexed-job,11
3759,12.0,ContainersReady,indexed-job-22-csgnl,32,indexed-job,11
3760,0.0,PodScheduled,indexed-job-16-5ntww,32,indexed-job,11
3761,0.0,Initialized,indexed-job-16-5ntww,32,indexed-job,11
3762,7.0,Ready,indexed-job-16-5ntww,32,indexed-job,11
3763,7.0,ContainersReady,indexed-job-16-5ntww,32,indexed-job,11
3764,0.0,PodScheduled,indexed-job-24-zwkt6,32,indexed-job,11
3765,0.0,Initialized,indexed-job-24-zwkt6,32,indexed-job,11
3766,9.0,Ready,indexed-job-24-zwkt6,32,indexed-job,11
3767,9.0,ContainersReady,indexed-job-24-zwkt6,32,indexed-job,11
3768,0.0,PodScheduled,indexed-job-27-4r8x4,32,indexed-job,11
3769,0.0,Initialized,indexed-job-27-4r8x4,32,indexed-job,11
3770,10.0,Ready,indexed-job-27-4r8x4,32,indexed-job,11
3771,10.0,ContainersReady,indexed-job-27-4r8x4,32,indexed-job,11
3772,0.0,PodScheduled,indexed-job-23-lfwps,32,indexed-job,11
3773,0.0,Initialized,indexed-job-23-lfwps,32,indexed-job,11
3774,17.0,Ready,indexed-job-23-lfwps,32,indexed-job,11
3775,17.0,ContainersReady,indexed-job-23-lfwps,32,indexed-job,11
3776,0.0,PodScheduled,indexed-job-15-pn8wb,32,indexed-job,11
3777,0.0,Initialized,indexed-job-15-pn8wb,32,indexed-job,11
3778,13.0,Ready,indexed-job-15-pn8wb,32,indexed-job,11
3779,13.0,ContainersReady,indexed-job-15-pn8wb,32,indexed-job,11
3780,0.0,PodScheduled,indexed-job-26-fvrkf,32,indexed-job,11
3781,0.0,Initialized,indexed-job-26-fvrkf,32,indexed-job,11
3782,6.0,Ready,indexed-job-26-fvrkf,32,indexed-job,11
3783,6.0,ContainersReady,indexed-job-26-fvrkf,32,indexed-job,11
3784,0.0,PodScheduled,indexed-job-17-7c5kg,32,indexed-job,11
3785,0.0,Initialized,indexed-job-17-7c5kg,32,indexed-job,11
3786,5.0,Ready,indexed-job-17-7c5kg,32,indexed-job,11
3787,5.0,ContainersReady,indexed-job-17-7c5kg,32,indexed-job,11
3788,0.0,PodScheduled,indexed-job-28-cxrgm,32,indexed-job,11
3789,0.0,Initialized,indexed-job-28-cxrgm,32,indexed-job,11
3790,15.0,Ready,indexed-job-28-cxrgm,32,indexed-job,11
3791,15.0,ContainersReady,indexed-job-28-cxrgm,32,indexed-job,11
3792,0.0,PodScheduled,indexed-job-18-xxz4n,32,indexed-job,11
3793,0.0,Initialized,indexed-job-18-xxz4n,32,indexed-job,11
3794,12.0,Ready,indexed-job-18-xxz4n,32,indexed-job,11
3795,12.0,ContainersReady,indexed-job-18-xxz4n,32,indexed-job,11
3796,0.0,PodScheduled,indexed-job-25-6sbs5,32,indexed-job,11
3797,0.0,Initialized,indexed-job-25-6sbs5,32,indexed-job,11
3798,8.0,Ready,indexed-job-25-6sbs5,32,indexed-job,11
3799,8.0,ContainersReady,indexed-job-25-6sbs5,32,indexed-job,11
3800,0.0,PodScheduled,indexed-job-19-b6ckj,32,indexed-job,11
3801,0.0,Initialized,indexed-job-19-b6ckj,32,indexed-job,11
3802,17.0,Ready,indexed-job-19-b6ckj,32,indexed-job,11
3803,17.0,ContainersReady,indexed-job-19-b6ckj,32,indexed-job,11
3804,0.0,PodScheduled,indexed-job-20-8v59n,32,indexed-job,11
3805,0.0,Initialized,indexed-job-20-8v59n,32,indexed-job,11
3806,14.0,Ready,indexed-job-20-8v59n,32,indexed-job,11
3807,14.0,ContainersReady,indexed-job-20-8v59n,32,indexed-job,11
3808,0.0,PodScheduled,indexed-job-31-57tfb,32,indexed-job,11
3809,0.0,Initialized,indexed-job-31-57tfb,32,indexed-job,11
3810,16.0,Ready,indexed-job-31-57tfb,32,indexed-job,11
3811,16.0,ContainersReady,indexed-job-31-57tfb,32,indexed-job,11
3812,16.837,watch_create,all,32,indexed-job,13
3813,33.313,watch_delete,all,32,indexed-job,13
3814,0.0,PodScheduled,indexed-job-0-7fbcn,32,indexed-job,13
3815,0.0,Initialized,indexed-job-0-7fbcn,32,indexed-job,13
3816,2.0,Ready,indexed-job-0-7fbcn,32,indexed-job,13
3817,2.0,ContainersReady,indexed-job-0-7fbcn,32,indexed-job,13
3818,0.0,PodScheduled,indexed-job-2-rccpn,32,indexed-job,13
3819,0.0,Initialized,indexed-job-2-rccpn,32,indexed-job,13
3820,3.0,Ready,indexed-job-2-rccpn,32,indexed-job,13
3821,3.0,ContainersReady,indexed-job-2-rccpn,32,indexed-job,13
3822,0.0,PodScheduled,indexed-job-1-5c2jf,32,indexed-job,13
3823,0.0,Initialized,indexed-job-1-5c2jf,32,indexed-job,13
3824,3.0,Ready,indexed-job-1-5c2jf,32,indexed-job,13
3825,3.0,ContainersReady,indexed-job-1-5c2jf,32,indexed-job,13
3826,0.0,PodScheduled,indexed-job-6-z49l5,32,indexed-job,13
3827,1.0,Initialized,indexed-job-6-z49l5,32,indexed-job,13
3828,4.0,Ready,indexed-job-6-z49l5,32,indexed-job,13
3829,4.0,ContainersReady,indexed-job-6-z49l5,32,indexed-job,13
3830,0.0,PodScheduled,indexed-job-5-t726t,32,indexed-job,13
3831,1.0,Initialized,indexed-job-5-t726t,32,indexed-job,13
3832,4.0,Ready,indexed-job-5-t726t,32,indexed-job,13
3833,4.0,ContainersReady,indexed-job-5-t726t,32,indexed-job,13
3834,0.0,PodScheduled,indexed-job-4-fk9kz,32,indexed-job,13
3835,1.0,Initialized,indexed-job-4-fk9kz,32,indexed-job,13
3836,5.0,Ready,indexed-job-4-fk9kz,32,indexed-job,13
3837,5.0,ContainersReady,indexed-job-4-fk9kz,32,indexed-job,13
3838,0.0,PodScheduled,indexed-job-3-k5996,32,indexed-job,13
3839,1.0,Initialized,indexed-job-3-k5996,32,indexed-job,13
3840,10.0,Ready,indexed-job-3-k5996,32,indexed-job,13
3841,10.0,ContainersReady,indexed-job-3-k5996,32,indexed-job,13
3842,1.0,PodScheduled,indexed-job-14-pzjf2,32,indexed-job,13
3843,1.0,Initialized,indexed-job-14-pzjf2,32,indexed-job,13
3844,17.0,Ready,indexed-job-14-pzjf2,32,indexed-job,13
3845,17.0,ContainersReady,indexed-job-14-pzjf2,32,indexed-job,13
3846,1.0,PodScheduled,indexed-job-13-mbd25,32,indexed-job,13
3847,1.0,Initialized,indexed-job-13-mbd25,32,indexed-job,13
3848,7.0,Ready,indexed-job-13-mbd25,32,indexed-job,13
3849,7.0,ContainersReady,indexed-job-13-mbd25,32,indexed-job,13
3850,1.0,PodScheduled,indexed-job-9-wh58c,32,indexed-job,13
3851,1.0,Initialized,indexed-job-9-wh58c,32,indexed-job,13
3852,11.0,Ready,indexed-job-9-wh58c,32,indexed-job,13
3853,11.0,ContainersReady,indexed-job-9-wh58c,32,indexed-job,13
3854,1.0,PodScheduled,indexed-job-12-cfk6j,32,indexed-job,13
3855,1.0,Initialized,indexed-job-12-cfk6j,32,indexed-job,13
3856,6.0,Ready,indexed-job-12-cfk6j,32,indexed-job,13
3857,6.0,ContainersReady,indexed-job-12-cfk6j,32,indexed-job,13
3858,1.0,PodScheduled,indexed-job-8-fvjgp,32,indexed-job,13
3859,1.0,Initialized,indexed-job-8-fvjgp,32,indexed-job,13
3860,14.0,Ready,indexed-job-8-fvjgp,32,indexed-job,13
3861,14.0,ContainersReady,indexed-job-8-fvjgp,32,indexed-job,13
3862,1.0,PodScheduled,indexed-job-10-q697h,32,indexed-job,13
3863,1.0,Initialized,indexed-job-10-q697h,32,indexed-job,13
3864,6.0,Ready,indexed-job-10-q697h,32,indexed-job,13
3865,6.0,ContainersReady,indexed-job-10-q697h,32,indexed-job,13
3866,1.0,PodScheduled,indexed-job-7-c2ghd,32,indexed-job,13
3867,1.0,Initialized,indexed-job-7-c2ghd,32,indexed-job,13
3868,9.0,Ready,indexed-job-7-c2ghd,32,indexed-job,13
3869,9.0,ContainersReady,indexed-job-7-c2ghd,32,indexed-job,13
3870,1.0,PodScheduled,indexed-job-11-9cb4w,32,indexed-job,13
3871,1.0,Initialized,indexed-job-11-9cb4w,32,indexed-job,13
3872,5.0,Ready,indexed-job-11-9cb4w,32,indexed-job,13
3873,5.0,ContainersReady,indexed-job-11-9cb4w,32,indexed-job,13
3874,0.0,PodScheduled,indexed-job-21-59mlv,32,indexed-job,13
3875,0.0,Initialized,indexed-job-21-59mlv,32,indexed-job,13
3876,11.0,Ready,indexed-job-21-59mlv,32,indexed-job,13
3877,11.0,ContainersReady,indexed-job-21-59mlv,32,indexed-job,13
3878,0.0,PodScheduled,indexed-job-15-dlh4z,32,indexed-job,13
3879,0.0,Initialized,indexed-job-15-dlh4z,32,indexed-job,13
3880,12.0,Ready,indexed-job-15-dlh4z,32,indexed-job,13
3881,12.0,ContainersReady,indexed-job-15-dlh4z,32,indexed-job,13
3882,0.0,PodScheduled,indexed-job-30-gs462,32,indexed-job,13
3883,0.0,Initialized,indexed-job-30-gs462,32,indexed-job,13
3884,7.0,Ready,indexed-job-30-gs462,32,indexed-job,13
3885,7.0,ContainersReady,indexed-job-30-gs462,32,indexed-job,13
3886,0.0,PodScheduled,indexed-job-22-fzh6b,32,indexed-job,13
3887,0.0,Initialized,indexed-job-22-fzh6b,32,indexed-job,13
3888,10.0,Ready,indexed-job-22-fzh6b,32,indexed-job,13
3889,10.0,ContainersReady,indexed-job-22-fzh6b,32,indexed-job,13
3890,0.0,PodScheduled,indexed-job-24-t5dxs,32,indexed-job,13
3891,0.0,Initialized,indexed-job-24-t5dxs,32,indexed-job,13
3892,11.0,Ready,indexed-job-24-t5dxs,32,indexed-job,13
3893,11.0,ContainersReady,indexed-job-24-t5dxs,32,indexed-job,13
3894,0.0,PodScheduled,indexed-job-16-fjnwt,32,indexed-job,13
3895,0.0,Initialized,indexed-job-16-fjnwt,32,indexed-job,13
3896,14.0,Ready,indexed-job-16-fjnwt,32,indexed-job,13
3897,14.0,ContainersReady,indexed-job-16-fjnwt,32,indexed-job,13
3898,0.0,PodScheduled,indexed-job-27-zbt7m,32,indexed-job,13
3899,0.0,Initialized,indexed-job-27-zbt7m,32,indexed-job,13
3900,7.0,Ready,indexed-job-27-zbt7m,32,indexed-job,13
3901,7.0,ContainersReady,indexed-job-27-zbt7m,32,indexed-job,13
3902,0.0,PodScheduled,indexed-job-23-5zt7c,32,indexed-job,13
3903,0.0,Initialized,indexed-job-23-5zt7c,32,indexed-job,13
3904,13.0,Ready,indexed-job-23-5zt7c,32,indexed-job,13
3905,13.0,ContainersReady,indexed-job-23-5zt7c,32,indexed-job,13
3906,0.0,PodScheduled,indexed-job-25-92vg7,32,indexed-job,13
3907,0.0,Initialized,indexed-job-25-92vg7,32,indexed-job,13
3908,6.0,Ready,indexed-job-25-92vg7,32,indexed-job,13
3909,6.0,ContainersReady,indexed-job-25-92vg7,32,indexed-job,13
3910,0.0,PodScheduled,indexed-job-26-j52fs,32,indexed-job,13
3911,0.0,Initialized,indexed-job-26-j52fs,32,indexed-job,13
3912,14.0,Ready,indexed-job-26-j52fs,32,indexed-job,13
3913,14.0,ContainersReady,indexed-job-26-j52fs,32,indexed-job,13
3914,0.0,PodScheduled,indexed-job-17-nlmnm,32,indexed-job,13
3915,0.0,Initialized,indexed-job-17-nlmnm,32,indexed-job,13
3916,12.0,Ready,indexed-job-17-nlmnm,32,indexed-job,13
3917,12.0,ContainersReady,indexed-job-17-nlmnm,32,indexed-job,13
3918,0.0,PodScheduled,indexed-job-28-znh2f,32,indexed-job,13
3919,0.0,Initialized,indexed-job-28-znh2f,32,indexed-job,13
3920,8.0,Ready,indexed-job-28-znh2f,32,indexed-job,13
3921,8.0,ContainersReady,indexed-job-28-znh2f,32,indexed-job,13
3922,0.0,PodScheduled,indexed-job-29-8gf6p,32,indexed-job,13
3923,0.0,Initialized,indexed-job-29-8gf6p,32,indexed-job,13
3924,9.0,Ready,indexed-job-29-8gf6p,32,indexed-job,13
3925,9.0,ContainersReady,indexed-job-29-8gf6p,32,indexed-job,13
3926,0.0,PodScheduled,indexed-job-19-p2qbx,32,indexed-job,13
3927,0.0,Initialized,indexed-job-19-p2qbx,32,indexed-job,13
3928,15.0,Ready,indexed-job-19-p2qbx,32,indexed-job,13
3929,15.0,ContainersReady,indexed-job-19-p2qbx,32,indexed-job,13
3930,0.0,PodScheduled,indexed-job-18-vth6b,32,indexed-job,13
3931,0.0,Initialized,indexed-job-18-vth6b,32,indexed-job,13
3932,16.0,Ready,indexed-job-18-vth6b,32,indexed-job,13
3933,16.0,ContainersReady,indexed-job-18-vth6b,32,indexed-job,13
3934,0.0,PodScheduled,indexed-job-20-n85qx,32,indexed-job,13
3935,0.0,Initialized,indexed-job-20-n85qx,32,indexed-job,13
3936,15.0,Ready,indexed-job-20-n85qx,32,indexed-job,13
3937,15.0,ContainersReady,indexed-job-20-n85qx,32,indexed-job,13
3938,0.0,PodScheduled,indexed-job-31-rtqv7,32,indexed-job,13
3939,0.0,Initialized,indexed-job-31-rtqv7,32,indexed-job,13
3940,12.0,Ready,indexed-job-31-rtqv7,32,indexed-job,13
3941,12.0,ContainersReady,indexed-job-31-rtqv7,32,indexed-job,13
3942,18.026,watch_create,all,32,pods,9
3943,33.276,watch_delete,all,32,pods,9
3944,0.0,PodScheduled,pod-0,32,pods,9
3945,0.0,Initialized,pod-0,32,pods,9
3946,3.0,Ready,pod-0,32,pods,9
3947,3.0,ContainersReady,pod-0,32,pods,9
3948,0.0,PodScheduled,pod-1,32,pods,9
3949,0.0,Initialized,pod-1,32,pods,9
3950,3.0,Ready,pod-1,32,pods,9
3951,3.0,ContainersReady,pod-1,32,pods,9
3952,0.0,PodScheduled,pod-2,32,pods,9
3953,0.0,Initialized,pod-2,32,pods,9
3954,4.0,Ready,pod-2,32,pods,9
3955,4.0,ContainersReady,pod-2,32,pods,9
3956,0.0,PodScheduled,pod-3,32,pods,9
3957,1.0,Initialized,pod-3,32,pods,9
3958,4.0,Ready,pod-3,32,pods,9
3959,4.0,ContainersReady,pod-3,32,pods,9
3960,0.0,PodScheduled,pod-4,32,pods,9
3961,0.0,Initialized,pod-4,32,pods,9
3962,4.0,Ready,pod-4,32,pods,9
3963,4.0,ContainersReady,pod-4,32,pods,9
3964,0.0,PodScheduled,pod-5,32,pods,9
3965,0.0,Initialized,pod-5,32,pods,9
3966,4.0,Ready,pod-5,32,pods,9
3967,4.0,ContainersReady,pod-5,32,pods,9
3968,0.0,PodScheduled,pod-6,32,pods,9
3969,0.0,Initialized,pod-6,32,pods,9
3970,5.0,Ready,pod-6,32,pods,9
3971,5.0,ContainersReady,pod-6,32,pods,9
3972,0.0,PodScheduled,pod-7,32,pods,9
3973,0.0,Initialized,pod-7,32,pods,9
3974,5.0,Ready,pod-7,32,pods,9
3975,5.0,ContainersReady,pod-7,32,pods,9
3976,0.0,PodScheduled,pod-8,32,pods,9
3977,0.0,Initialized,pod-8,32,pods,9
3978,6.0,Ready,pod-8,32,pods,9
3979,6.0,ContainersReady,pod-8,32,pods,9
3980,0.0,PodScheduled,pod-9,32,pods,9
3981,0.0,Initialized,pod-9,32,pods,9
3982,5.0,Ready,pod-9,32,pods,9
3983,5.0,ContainersReady,pod-9,32,pods,9
3984,0.0,PodScheduled,pod-10,32,pods,9
3985,0.0,Initialized,pod-10,32,pods,9
3986,6.0,Ready,pod-10,32,pods,9
3987,6.0,ContainersReady,pod-10,32,pods,9
3988,0.0,PodScheduled,pod-11,32,pods,9
3989,0.0,Initialized,pod-11,32,pods,9
3990,8.0,Ready,pod-11,32,pods,9
3991,8.0,ContainersReady,pod-11,32,pods,9
3992,0.0,PodScheduled,pod-12,32,pods,9
3993,0.0,Initialized,pod-12,32,pods,9
3994,7.0,Ready,pod-12,32,pods,9
3995,7.0,ContainersReady,pod-12,32,pods,9
3996,0.0,PodScheduled,pod-13,32,pods,9
3997,0.0,Initialized,pod-13,32,pods,9
3998,7.0,Ready,pod-13,32,pods,9
3999,7.0,ContainersReady,pod-13,32,pods,9
4000,0.0,PodScheduled,pod-14,32,pods,9
4001,0.0,Initialized,pod-14,32,pods,9
4002,9.0,Ready,pod-14,32,pods,9
4003,9.0,ContainersReady,pod-14,32,pods,9
4004,0.0,PodScheduled,pod-15,32,pods,9
4005,0.0,Initialized,pod-15,32,pods,9
4006,8.0,Ready,pod-15,32,pods,9
4007,8.0,ContainersReady,pod-15,32,pods,9
4008,0.0,PodScheduled,pod-16,32,pods,9
4009,0.0,Initialized,pod-16,32,pods,9
4010,9.0,Ready,pod-16,32,pods,9
4011,9.0,ContainersReady,pod-16,32,pods,9
4012,0.0,PodScheduled,pod-17,32,pods,9
4013,0.0,Initialized,pod-17,32,pods,9
4014,12.0,Ready,pod-17,32,pods,9
4015,12.0,ContainersReady,pod-17,32,pods,9
4016,0.0,PodScheduled,pod-18,32,pods,9
4017,0.0,Initialized,pod-18,32,pods,9
4018,10.0,Ready,pod-18,32,pods,9
4019,10.0,ContainersReady,pod-18,32,pods,9
4020,0.0,PodScheduled,pod-19,32,pods,9
4021,0.0,Initialized,pod-19,32,pods,9
4022,10.0,Ready,pod-19,32,pods,9
4023,10.0,ContainersReady,pod-19,32,pods,9
4024,0.0,PodScheduled,pod-20,32,pods,9
4025,0.0,Initialized,pod-20,32,pods,9
4026,12.0,Ready,pod-20,32,pods,9
4027,12.0,ContainersReady,pod-20,32,pods,9
4028,0.0,PodScheduled,pod-21,32,pods,9
4029,0.0,Initialized,pod-21,32,pods,9
4030,13.0,Ready,pod-21,32,pods,9
4031,13.0,ContainersReady,pod-21,32,pods,9
4032,0.0,PodScheduled,pod-22,32,pods,9
4033,0.0,Initialized,pod-22,32,pods,9
4034,11.0,Ready,pod-22,32,pods,9
4035,11.0,ContainersReady,pod-22,32,pods,9
4036,0.0,PodScheduled,pod-23,32,pods,9
4037,0.0,Initialized,pod-23,32,pods,9
4038,11.0,Ready,pod-23,32,pods,9
4039,11.0,ContainersReady,pod-23,32,pods,9
4040,0.0,PodScheduled,pod-24,32,pods,9
4041,0.0,Initialized,pod-24,32,pods,9
4042,15.0,Ready,pod-24,32,pods,9
4043,15.0,ContainersReady,pod-24,32,pods,9
4044,0.0,PodScheduled,pod-25,32,pods,9
4045,0.0,Initialized,pod-25,32,pods,9
4046,14.0,Ready,pod-25,32,pods,9
4047,14.0,ContainersReady,pod-25,32,pods,9
4048,0.0,PodScheduled,pod-26,32,pods,9
4049,0.0,Initialized,pod-26,32,pods,9
4050,15.0,Ready,pod-26,32,pods,9
4051,15.0,ContainersReady,pod-26,32,pods,9
4052,0.0,PodScheduled,pod-27,32,pods,9
4053,0.0,Initialized,pod-27,32,pods,9
4054,14.0,Ready,pod-27,32,pods,9
4055,14.0,ContainersReady,pod-27,32,pods,9
4056,0.0,PodScheduled,pod-28,32,pods,9
4057,0.0,Initialized,pod-28,32,pods,9
4058,16.0,Ready,pod-28,32,pods,9
4059,16.0,ContainersReady,pod-28,32,pods,9
4060,0.0,PodScheduled,pod-29,32,pods,9
4061,0.0,Initialized,pod-29,32,pods,9
4062,17.0,Ready,pod-29,32,pods,9
4063,17.0,ContainersReady,pod-29,32,pods,9
4064,0.0,PodScheduled,pod-30,32,pods,9
4065,0.0,Initialized,pod-30,32,pods,9
4066,13.0,Ready,pod-30,32,pods,9
4067,13.0,ContainersReady,pod-30,32,pods,9
4068,0.0,PodScheduled,pod-31,32,pods,9
4069,0.0,Initialized,pod-31,32,pods,9
4070,16.0,Ready,pod-31,32,pods,9
4071,16.0,ContainersReady,pod-31,32,pods,9
4072,17.701,watch_create,all,32,pods,4
4073,33.22,watch_delete,all,32,pods,4
4074,0.0,PodScheduled,pod-0,32,pods,4
4075,0.0,Initialized,pod-0,32,pods,4
4076,2.0,Ready,pod-0,32,pods,4
4077,2.0,ContainersReady,pod-0,32,pods,4
4078,0.0,PodScheduled,pod-1,32,pods,4
4079,0.0,Initialized,pod-1,32,pods,4
4080,2.0,Ready,pod-1,32,pods,4
4081,2.0,ContainersReady,pod-1,32,pods,4
4082,0.0,PodScheduled,pod-2,32,pods,4
4083,0.0,Initialized,pod-2,32,pods,4
4084,3.0,Ready,pod-2,32,pods,4
4085,3.0,ContainersReady,pod-2,32,pods,4
4086,0.0,PodScheduled,pod-3,32,pods,4
4087,0.0,Initialized,pod-3,32,pods,4
4088,3.0,Ready,pod-3,32,pods,4
4089,3.0,ContainersReady,pod-3,32,pods,4
4090,0.0,PodScheduled,pod-4,32,pods,4
4091,0.0,Initialized,pod-4,32,pods,4
4092,4.0,Ready,pod-4,32,pods,4
4093,4.0,ContainersReady,pod-4,32,pods,4
4094,0.0,PodScheduled,pod-5,32,pods,4
4095,0.0,Initialized,pod-5,32,pods,4
4096,4.0,Ready,pod-5,32,pods,4
4097,4.0,ContainersReady,pod-5,32,pods,4
4098,0.0,PodScheduled,pod-6,32,pods,4
4099,0.0,Initialized,pod-6,32,pods,4
4100,5.0,Ready,pod-6,32,pods,4
4101,5.0,ContainersReady,pod-6,32,pods,4
4102,0.0,PodScheduled,pod-7,32,pods,4
4103,0.0,Initialized,pod-7,32,pods,4
4104,5.0,Ready,pod-7,32,pods,4
4105,5.0,ContainersReady,pod-7,32,pods,4
4106,1.0,PodScheduled,pod-8,32,pods,4
4107,1.0,Initialized,pod-8,32,pods,4
4108,7.0,Ready,pod-8,32,pods,4
4109,7.0,ContainersReady,pod-8,32,pods,4
4110,0.0,PodScheduled,pod-9,32,pods,4
4111,0.0,Initialized,pod-9,32,pods,4
4112,5.0,Ready,pod-9,32,pods,4
4113,5.0,ContainersReady,pod-9,32,pods,4
4114,0.0,PodScheduled,pod-10,32,pods,4
4115,0.0,Initialized,pod-10,32,pods,4
4116,7.0,Ready,pod-10,32,pods,4
4117,7.0,ContainersReady,pod-10,32,pods,4
4118,0.0,PodScheduled,pod-11,32,pods,4
4119,0.0,Initialized,pod-11,32,pods,4
4120,5.0,Ready,pod-11,32,pods,4
4121,5.0,ContainersReady,pod-11,32,pods,4
4122,0.0,PodScheduled,pod-12,32,pods,4
4123,0.0,Initialized,pod-12,32,pods,4
4124,6.0,Ready,pod-12,32,pods,4
4125,6.0,ContainersReady,pod-12,32,pods,4
4126,0.0,PodScheduled,pod-13,32,pods,4
4127,0.0,Initialized,pod-13,32,pods,4
4128,7.0,Ready,pod-13,32,pods,4
4129,7.0,ContainersReady,pod-13,32,pods,4
4130,0.0,PodScheduled,pod-14,32,pods,4
4131,0.0,Initialized,pod-14,32,pods,4
4132,8.0,Ready,pod-14,32,pods,4
4133,8.0,ContainersReady,pod-14,32,pods,4
4134,0.0,PodScheduled,pod-15,32,pods,4
4135,0.0,Initialized,pod-15,32,pods,4
4136,7.0,Ready,pod-15,32,pods,4
4137,7.0,ContainersReady,pod-15,32,pods,4
4138,0.0,PodScheduled,pod-16,32,pods,4
4139,0.0,Initialized,pod-16,32,pods,4
4140,11.0,Ready,pod-16,32,pods,4
4141,11.0,ContainersReady,pod-16,32,pods,4
4142,0.0,PodScheduled,pod-17,32,pods,4
4143,0.0,Initialized,pod-17,32,pods,4
4144,8.0,Ready,pod-17,32,pods,4
4145,8.0,ContainersReady,pod-17,32,pods,4
4146,0.0,PodScheduled,pod-18,32,pods,4
4147,0.0,Initialized,pod-18,32,pods,4
4148,12.0,Ready,pod-18,32,pods,4
4149,12.0,ContainersReady,pod-18,32,pods,4
4150,0.0,PodScheduled,pod-19,32,pods,4
4151,0.0,Initialized,pod-19,32,pods,4
4152,9.0,Ready,pod-19,32,pods,4
4153,9.0,ContainersReady,pod-19,32,pods,4
4154,0.0,PodScheduled,pod-20,32,pods,4
4155,0.0,Initialized,pod-20,32,pods,4
4156,10.0,Ready,pod-20,32,pods,4
4157,10.0,ContainersReady,pod-20,32,pods,4
4158,0.0,PodScheduled,pod-21,32,pods,4
4159,0.0,Initialized,pod-21,32,pods,4
4160,9.0,Ready,pod-21,32,pods,4
4161,9.0,ContainersReady,pod-21,32,pods,4
4162,0.0,PodScheduled,pod-22,32,pods,4
4163,0.0,Initialized,pod-22,32,pods,4
4164,12.0,Ready,pod-22,32,pods,4
4165,12.0,ContainersReady,pod-22,32,pods,4
4166,0.0,PodScheduled,pod-23,32,pods,4
4167,0.0,Initialized,pod-23,32,pods,4
4168,10.0,Ready,pod-23,32,pods,4
4169,10.0,ContainersReady,pod-23,32,pods,4
4170,0.0,PodScheduled,pod-24,32,pods,4
4171,0.0,Initialized,pod-24,32,pods,4
4172,11.0,Ready,pod-24,32,pods,4
4173,11.0,ContainersReady,pod-24,32,pods,4
4174,0.0,PodScheduled,pod-25,32,pods,4
4175,0.0,Initialized,pod-25,32,pods,4
4176,14.0,Ready,pod-25,32,pods,4
4177,14.0,ContainersReady,pod-25,32,pods,4
4178,0.0,PodScheduled,pod-26,32,pods,4
4179,0.0,Initialized,pod-26,32,pods,4
4180,15.0,Ready,pod-26,32,pods,4
4181,15.0,ContainersReady,pod-26,32,pods,4
4182,0.0,PodScheduled,pod-27,32,pods,4
4183,0.0,Initialized,pod-27,32,pods,4
4184,13.0,Ready,pod-27,32,pods,4
4185,13.0,ContainersReady,pod-27,32,pods,4
4186,0.0,PodScheduled,pod-28,32,pods,4
4187,0.0,Initialized,pod-28,32,pods,4
4188,13.0,Ready,pod-28,32,pods,4
4189,13.0,ContainersReady,pod-28,32,pods,4
4190,0.0,PodScheduled,pod-29,32,pods,4
4191,0.0,Initialized,pod-29,32,pods,4
4192,16.0,Ready,pod-29,32,pods,4
4193,16.0,ContainersReady,pod-29,32,pods,4
4194,0.0,PodScheduled,pod-30,32,pods,4
4195,0.0,Initialized,pod-30,32,pods,4
4196,14.0,Ready,pod-30,32,pods,4
4197,14.0,ContainersReady,pod-30,32,pods,4
4198,0.0,PodScheduled,pod-31,32,pods,4
4199,0.0,Initialized,pod-31,32,pods,4
4200,16.0,Ready,pod-31,32,pods,4
4201,16.0,ContainersReady,pod-31,32,pods,4
4202,17.782,watch_create,all,32,indexed-job,0
4203,33.47,watch_delete,all,32,indexed-job,0
4204,0.0,PodScheduled,indexed-job-0-cwccs,32,indexed-job,0
4205,0.0,Initialized,indexed-job-0-cwccs,32,indexed-job,0
4206,2.0,Ready,indexed-job-0-cwccs,32,indexed-job,0
4207,2.0,ContainersReady,indexed-job-0-cwccs,32,indexed-job,0
4208,0.0,PodScheduled,indexed-job-2-mddxl,32,indexed-job,0
4209,0.0,Initialized,indexed-job-2-mddxl,32,indexed-job,0
4210,7.0,Ready,indexed-job-2-mddxl,32,indexed-job,0
4211,7.0,ContainersReady,indexed-job-2-mddxl,32,indexed-job,0
4212,0.0,PodScheduled,indexed-job-1-xjlrq,32,indexed-job,0
4213,0.0,Initialized,indexed-job-1-xjlrq,32,indexed-job,0
4214,3.0,Ready,indexed-job-1-xjlrq,32,indexed-job,0
4215,3.0,ContainersReady,indexed-job-1-xjlrq,32,indexed-job,0
4216,0.0,PodScheduled,indexed-job-6-cb9nt,32,indexed-job,0
4217,0.0,Initialized,indexed-job-6-cb9nt,32,indexed-job,0
4218,4.0,Ready,indexed-job-6-cb9nt,32,indexed-job,0
4219,4.0,ContainersReady,indexed-job-6-cb9nt,32,indexed-job,0
4220,0.0,PodScheduled,indexed-job-4-lstfh,32,indexed-job,0
4221,0.0,Initialized,indexed-job-4-lstfh,32,indexed-job,0
4222,7.0,Ready,indexed-job-4-lstfh,32,indexed-job,0
4223,7.0,ContainersReady,indexed-job-4-lstfh,32,indexed-job,0
4224,0.0,PodScheduled,indexed-job-3-c9lrj,32,indexed-job,0
4225,0.0,Initialized,indexed-job-3-c9lrj,32,indexed-job,0
4226,5.0,Ready,indexed-job-3-c9lrj,32,indexed-job,0
4227,5.0,ContainersReady,indexed-job-3-c9lrj,32,indexed-job,0
4228,0.0,PodScheduled,indexed-job-5-2cf7n,32,indexed-job,0
4229,0.0,Initialized,indexed-job-5-2cf7n,32,indexed-job,0
4230,13.0,Ready,indexed-job-5-2cf7n,32,indexed-job,0
4231,13.0,ContainersReady,indexed-job-5-2cf7n,32,indexed-job,0
4232,0.0,PodScheduled,indexed-job-12-f92kq,32,indexed-job,0
4233,0.0,Initialized,indexed-job-12-f92kq,32,indexed-job,0
4234,4.0,Ready,indexed-job-12-f92kq,32,indexed-job,0
4235,4.0,ContainersReady,indexed-job-12-f92kq,32,indexed-job,0
4236,0.0,PodScheduled,indexed-job-8-vbzwf,32,indexed-job,0
4237,0.0,Initialized,indexed-job-8-vbzwf,32,indexed-job,0
4238,6.0,Ready,indexed-job-8-vbzwf,32,indexed-job,0
4239,6.0,ContainersReady,indexed-job-8-vbzwf,32,indexed-job,0
4240,0.0,PodScheduled,indexed-job-10-gv2nv,32,indexed-job,0
4241,0.0,Initialized,indexed-job-10-gv2nv,32,indexed-job,0
4242,6.0,Ready,indexed-job-10-gv2nv,32,indexed-job,0
4243,6.0,ContainersReady,indexed-job-10-gv2nv,32,indexed-job,0
4244,0.0,PodScheduled,indexed-job-14-p5pm9,32,indexed-job,0
4245,0.0,Initialized,indexed-job-14-p5pm9,32,indexed-job,0
4246,2.0,Ready,indexed-job-14-p5pm9,32,indexed-job,0
4247,2.0,ContainersReady,indexed-job-14-p5pm9,32,indexed-job,0
4248,0.0,PodScheduled,indexed-job-7-s6tw7,32,indexed-job,0
4249,0.0,Initialized,indexed-job-7-s6tw7,32,indexed-job,0
4250,11.0,Ready,indexed-job-7-s6tw7,32,indexed-job,0
4251,11.0,ContainersReady,indexed-job-7-s6tw7,32,indexed-job,0
4252,0.0,PodScheduled,indexed-job-11-cxbvc,32,indexed-job,0
4253,0.0,Initialized,indexed-job-11-cxbvc,32,indexed-job,0
4254,8.0,Ready,indexed-job-11-cxbvc,32,indexed-job,0
4255,8.0,ContainersReady,indexed-job-11-cxbvc,32,indexed-job,0
4256,0.0,PodScheduled,indexed-job-13-bttqt,32,indexed-job,0
4257,0.0,Initialized,indexed-job-13-bttqt,32,indexed-job,0
4258,5.0,Ready,indexed-job-13-bttqt,32,indexed-job,0
4259,5.0,ContainersReady,indexed-job-13-bttqt,32,indexed-job,0
4260,0.0,PodScheduled,indexed-job-9-qdgkx,32,indexed-job,0
4261,0.0,Initialized,indexed-job-9-qdgkx,32,indexed-job,0
4262,12.0,Ready,indexed-job-9-qdgkx,32,indexed-job,0
4263,12.0,ContainersReady,indexed-job-9-qdgkx,32,indexed-job,0
4264,0.0,PodScheduled,indexed-job-15-5bwb4,32,indexed-job,0
4265,0.0,Initialized,indexed-job-15-5bwb4,32,indexed-job,0
4266,7.0,Ready,indexed-job-15-5bwb4,32,indexed-job,0
4267,7.0,ContainersReady,indexed-job-15-5bwb4,32,indexed-job,0
4268,0.0,PodScheduled,indexed-job-17-vhln6,32,indexed-job,0
4269,0.0,Initialized,indexed-job-17-vhln6,32,indexed-job,0
4270,3.0,Ready,indexed-job-17-vhln6,32,indexed-job,0
4271,3.0,ContainersReady,indexed-job-17-vhln6,32,indexed-job,0
4272,0.0,PodScheduled,indexed-job-26-4b67h,32,indexed-job,0
4273,0.0,Initialized,indexed-job-26-4b67h,32,indexed-job,0
4274,14.0,Ready,indexed-job-26-4b67h,32,indexed-job,0
4275,14.0,ContainersReady,indexed-job-26-4b67h,32,indexed-job,0
4276,0.0,PodScheduled,indexed-job-24-czv8g,32,indexed-job,0
4277,0.0,Initialized,indexed-job-24-czv8g,32,indexed-job,0
4278,14.0,Ready,indexed-job-24-czv8g,32,indexed-job,0
4279,14.0,ContainersReady,indexed-job-24-czv8g,32,indexed-job,0
4280,0.0,PodScheduled,indexed-job-27-xn6ns,32,indexed-job,0
4281,0.0,Initialized,indexed-job-27-xn6ns,32,indexed-job,0
4282,17.0,Ready,indexed-job-27-xn6ns,32,indexed-job,0
4283,17.0,ContainersReady,indexed-job-27-xn6ns,32,indexed-job,0
4284,0.0,PodScheduled,indexed-job-21-kl76z,32,indexed-job,0
4285,0.0,Initialized,indexed-job-21-kl76z,32,indexed-job,0
4286,12.0,Ready,indexed-job-21-kl76z,32,indexed-job,0
4287,12.0,ContainersReady,indexed-job-21-kl76z,32,indexed-job,0
4288,0.0,PodScheduled,indexed-job-30-jdrrk,32,indexed-job,0
4289,0.0,Initialized,indexed-job-30-jdrrk,32,indexed-job,0
4290,8.0,Ready,indexed-job-30-jdrrk,32,indexed-job,0
4291,8.0,ContainersReady,indexed-job-30-jdrrk,32,indexed-job,0
4292,0.0,PodScheduled,indexed-job-23-85x5j,32,indexed-job,0
4293,0.0,Initialized,indexed-job-23-85x5j,32,indexed-job,0
4294,10.0,Ready,indexed-job-23-85x5j,32,indexed-job,0
4295,10.0,ContainersReady,indexed-job-23-85x5j,32,indexed-job,0
4296,0.0,PodScheduled,indexed-job-16-kd2m8,32,indexed-job,0
4297,0.0,Initialized,indexed-job-16-kd2m8,32,indexed-job,0
4298,10.0,Ready,indexed-job-16-kd2m8,32,indexed-job,0
4299,10.0,ContainersReady,indexed-job-16-kd2m8,32,indexed-job,0
4300,0.0,PodScheduled,indexed-job-25-4nqqz,32,indexed-job,0
4301,0.0,Initialized,indexed-job-25-4nqqz,32,indexed-job,0
4302,9.0,Ready,indexed-job-25-4nqqz,32,indexed-job,0
4303,9.0,ContainersReady,indexed-job-25-4nqqz,32,indexed-job,0
4304,0.0,PodScheduled,indexed-job-22-bbfcp,32,indexed-job,0
4305,0.0,Initialized,indexed-job-22-bbfcp,32,indexed-job,0
4306,11.0,Ready,indexed-job-22-bbfcp,32,indexed-job,0
4307,11.0,ContainersReady,indexed-job-22-bbfcp,32,indexed-job,0
4308,0.0,PodScheduled,indexed-job-19-hg6k4,32,indexed-job,0
4309,0.0,Initialized,indexed-job-19-hg6k4,32,indexed-job,0
4310,16.0,Ready,indexed-job-19-hg6k4,32,indexed-job,0
4311,16.0,ContainersReady,indexed-job-19-hg6k4,32,indexed-job,0
4312,0.0,PodScheduled,indexed-job-29-vgzrw,32,indexed-job,0
4313,0.0,Initialized,indexed-job-29-vgzrw,32,indexed-job,0
4314,9.0,Ready,indexed-job-29-vgzrw,32,indexed-job,0
4315,9.0,ContainersReady,indexed-job-29-vgzrw,32,indexed-job,0
4316,0.0,PodScheduled,indexed-job-18-jf84q,32,indexed-job,0
4317,0.0,Initialized,indexed-job-18-jf84q,32,indexed-job,0
4318,13.0,Ready,indexed-job-18-jf84q,32,indexed-job,0
4319,13.0,ContainersReady,indexed-job-18-jf84q,32,indexed-job,0
4320,0.0,PodScheduled,indexed-job-20-wpggg,32,indexed-job,0
4321,0.0,Initialized,indexed-job-20-wpggg,32,indexed-job,0
4322,15.0,Ready,indexed-job-20-wpggg,32,indexed-job,0
4323,15.0,ContainersReady,indexed-job-20-wpggg,32,indexed-job,0
4324,0.0,PodScheduled,indexed-job-28-8rsh4,32,indexed-job,0
4325,0.0,Initialized,indexed-job-28-8rsh4,32,indexed-job,0
4326,15.0,Ready,indexed-job-28-8rsh4,32,indexed-job,0
4327,15.0,ContainersReady,indexed-job-28-8rsh4,32,indexed-job,0
4328,0.0,PodScheduled,indexed-job-31-r2jg2,32,indexed-job,0
4329,0.0,Initialized,indexed-job-31-r2jg2,32,indexed-job,0
4330,16.0,Ready,indexed-job-31-r2jg2,32,indexed-job,0
4331,16.0,ContainersReady,indexed-job-31-r2jg2,32,indexed-job,0
4332,16.782,watch_create,all,32,indexed-job,1
4333,33.371,watch_delete,all,32,indexed-job,1
4334,0.0,PodScheduled,indexed-job-0-jbpzq,32,indexed-job,1
4335,0.0,Initialized,indexed-job-0-jbpzq,32,indexed-job,1
4336,2.0,Ready,indexed-job-0-jbpzq,32,indexed-job,1
4337,2.0,ContainersReady,indexed-job-0-jbpzq,32,indexed-job,1
4338,0.0,PodScheduled,indexed-job-1-kf8nr,32,indexed-job,1
4339,0.0,Initialized,indexed-job-1-kf8nr,32,indexed-job,1
4340,4.0,Ready,indexed-job-1-kf8nr,32,indexed-job,1
4341,4.0,ContainersReady,indexed-job-1-kf8nr,32,indexed-job,1
4342,0.0,PodScheduled,indexed-job-2-7n82r,32,indexed-job,1
4343,0.0,Initialized,indexed-job-2-7n82r,32,indexed-job,1
4344,3.0,Ready,indexed-job-2-7n82r,32,indexed-job,1
4345,3.0,ContainersReady,indexed-job-2-7n82r,32,indexed-job,1
4346,0.0,PodScheduled,indexed-job-3-whqxq,32,indexed-job,1
4347,0.0,Initialized,indexed-job-3-whqxq,32,indexed-job,1
4348,3.0,Ready,indexed-job-3-whqxq,32,indexed-job,1
4349,3.0,ContainersReady,indexed-job-3-whqxq,32,indexed-job,1
4350,0.0,PodScheduled,indexed-job-4-dcsf2,32,indexed-job,1
4351,0.0,Initialized,indexed-job-4-dcsf2,32,indexed-job,1
4352,6.0,Ready,indexed-job-4-dcsf2,32,indexed-job,1
4353,6.0,ContainersReady,indexed-job-4-dcsf2,32,indexed-job,1
4354,0.0,PodScheduled,indexed-job-5-qm547,32,indexed-job,1
4355,0.0,Initialized,indexed-job-5-qm547,32,indexed-job,1
4356,4.0,Ready,indexed-job-5-qm547,32,indexed-job,1
4357,4.0,ContainersReady,indexed-job-5-qm547,32,indexed-job,1
4358,0.0,PodScheduled,indexed-job-6-hcrcx,32,indexed-job,1
4359,0.0,Initialized,indexed-job-6-hcrcx,32,indexed-job,1
4360,8.0,Ready,indexed-job-6-hcrcx,32,indexed-job,1
4361,8.0,ContainersReady,indexed-job-6-hcrcx,32,indexed-job,1
4362,0.0,PodScheduled,indexed-job-14-78qk5,32,indexed-job,1
4363,0.0,Initialized,indexed-job-14-78qk5,32,indexed-job,1
4364,14.0,Ready,indexed-job-14-78qk5,32,indexed-job,1
4365,14.0,ContainersReady,indexed-job-14-78qk5,32,indexed-job,1
4366,0.0,PodScheduled,indexed-job-10-sxkw7,32,indexed-job,1
4367,0.0,Initialized,indexed-job-10-sxkw7,32,indexed-job,1
4368,7.0,Ready,indexed-job-10-sxkw7,32,indexed-job,1
4369,7.0,ContainersReady,indexed-job-10-sxkw7,32,indexed-job,1
4370,0.0,PodScheduled,indexed-job-13-j2tj7,32,indexed-job,1
4371,0.0,Initialized,indexed-job-13-j2tj7,32,indexed-job,1
4372,5.0,Ready,indexed-job-13-j2tj7,32,indexed-job,1
4373,5.0,ContainersReady,indexed-job-13-j2tj7,32,indexed-job,1
4374,0.0,PodScheduled,indexed-job-11-xpvq5,32,indexed-job,1
4375,0.0,Initialized,indexed-job-11-xpvq5,32,indexed-job,1
4376,12.0,Ready,indexed-job-11-xpvq5,32,indexed-job,1
4377,12.0,ContainersReady,indexed-job-11-xpvq5,32,indexed-job,1
4378,0.0,PodScheduled,indexed-job-7-jj465,32,indexed-job,1
4379,0.0,Initialized,indexed-job-7-jj465,32,indexed-job,1
4380,10.0,Ready,indexed-job-7-jj465,32,indexed-job,1
4381,10.0,ContainersReady,indexed-job-7-jj465,32,indexed-job,1
4382,0.0,PodScheduled,indexed-job-12-lwb6v,32,indexed-job,1
4383,0.0,Initialized,indexed-job-12-lwb6v,32,indexed-job,1
4384,5.0,Ready,indexed-job-12-lwb6v,32,indexed-job,1
4385,5.0,ContainersReady,indexed-job-12-lwb6v,32,indexed-job,1
4386,0.0,PodScheduled,indexed-job-8-f5pcw,32,indexed-job,1
4387,0.0,Initialized,indexed-job-8-f5pcw,32,indexed-job,1
4388,11.0,Ready,indexed-job-8-f5pcw,32,indexed-job,1
4389,11.0,ContainersReady,indexed-job-8-f5pcw,32,indexed-job,1
4390,0.0,PodScheduled,indexed-job-9-r7xm2,32,indexed-job,1
4391,0.0,Initialized,indexed-job-9-r7xm2,32,indexed-job,1
4392,13.0,Ready,indexed-job-9-r7xm2,32,indexed-job,1
4393,13.0,ContainersReady,indexed-job-9-r7xm2,32,indexed-job,1
4394,0.0,PodScheduled,indexed-job-30-45nff,32,indexed-job,1
4395,0.0,Initialized,indexed-job-30-45nff,32,indexed-job,1
4396,6.0,Ready,indexed-job-30-45nff,32,indexed-job,1
4397,6.0,ContainersReady,indexed-job-30-45nff,32,indexed-job,1
4398,0.0,PodScheduled,indexed-job-17-dwzrd,32,indexed-job,1
4399,0.0,Initialized,indexed-job-17-dwzrd,32,indexed-job,1
4400,8.0,Ready,indexed-job-17-dwzrd,32,indexed-job,1
4401,8.0,ContainersReady,indexed-job-17-dwzrd,32,indexed-job,1
4402,0.0,PodScheduled,indexed-job-15-f9pfg,32,indexed-job,1
4403,0.0,Initialized,indexed-job-15-f9pfg,32,indexed-job,1
4404,16.0,Ready,indexed-job-15-f9pfg,32,indexed-job,1
4405,16.0,ContainersReady,indexed-job-15-f9pfg,32,indexed-job,1
4406,0.0,PodScheduled,indexed-job-25-4f5sz,32,indexed-job,1
4407,0.0,Initialized,indexed-job-25-4f5sz,32,indexed-job,1
4408,15.0,Ready,indexed-job-25-4f5sz,32,indexed-job,1
4409,15.0,ContainersReady,indexed-job-25-4f5sz,32,indexed-job,1
4410,0.0,PodScheduled,indexed-job-16-n2v6l,32,indexed-job,1
4411,0.0,Initialized,indexed-job-16-n2v6l,32,indexed-job,1
4412,10.0,Ready,indexed-job-16-n2v6l,32,indexed-job,1
4413,10.0,ContainersReady,indexed-job-16-n2v6l,32,indexed-job,1
4414,0.0,PodScheduled,indexed-job-27-2nk2w,32,indexed-job,1
4415,0.0,Initialized,indexed-job-27-2nk2w,32,indexed-job,1
4416,9.0,Ready,indexed-job-27-2nk2w,32,indexed-job,1
4417,9.0,ContainersReady,indexed-job-27-2nk2w,32,indexed-job,1
4418,0.0,PodScheduled,indexed-job-20-mzb79,32,indexed-job,1
4419,0.0,Initialized,indexed-job-20-mzb79,32,indexed-job,1
4420,11.0,Ready,indexed-job-20-mzb79,32,indexed-job,1
4421,11.0,ContainersReady,indexed-job-20-mzb79,32,indexed-job,1
4422,0.0,PodScheduled,indexed-job-28-g9kp8,32,indexed-job,1
4423,0.0,Initialized,indexed-job-28-g9kp8,32,indexed-job,1
4424,10.0,Ready,indexed-job-28-g9kp8,32,indexed-job,1
4425,10.0,ContainersReady,indexed-job-28-g9kp8,32,indexed-job,1
4426,0.0,PodScheduled,indexed-job-29-zjbwr,32,indexed-job,1
4427,0.0,Initialized,indexed-job-29-zjbwr,32,indexed-job,1
4428,15.0,Ready,indexed-job-29-zjbwr,32,indexed-job,1
4429,15.0,ContainersReady,indexed-job-29-zjbwr,32,indexed-job,1
4430,0.0,PodScheduled,indexed-job-24-2l2x2,32,indexed-job,1
4431,0.0,Initialized,indexed-job-24-2l2x2,32,indexed-job,1
4432,13.0,Ready,indexed-job-24-2l2x2,32,indexed-job,1
4433,13.0,ContainersReady,indexed-job-24-2l2x2,32,indexed-job,1
4434,0.0,PodScheduled,indexed-job-26-q9txt,32,indexed-job,1
4435,0.0,Initialized,indexed-job-26-q9txt,32,indexed-job,1
4436,7.0,Ready,indexed-job-26-q9txt,32,indexed-job,1
4437,7.0,ContainersReady,indexed-job-26-q9txt,32,indexed-job,1
4438,0.0,PodScheduled,indexed-job-23-lk9lh,32,indexed-job,1
4439,0.0,Initialized,indexed-job-23-lk9lh,32,indexed-job,1
4440,16.0,Ready,indexed-job-23-lk9lh,32,indexed-job,1
4441,16.0,ContainersReady,indexed-job-23-lk9lh,32,indexed-job,1
4442,0.0,PodScheduled,indexed-job-18-qdfwt,32,indexed-job,1
4443,0.0,Initialized,indexed-job-18-qdfwt,32,indexed-job,1
4444,14.0,Ready,indexed-job-18-qdfwt,32,indexed-job,1
4445,14.0,ContainersReady,indexed-job-18-qdfwt,32,indexed-job,1
4446,0.0,PodScheduled,indexed-job-19-j2zkc,32,indexed-job,1
4447,0.0,Initialized,indexed-job-19-j2zkc,32,indexed-job,1
4448,9.0,Ready,indexed-job-19-j2zkc,32,indexed-job,1
4449,9.0,ContainersReady,indexed-job-19-j2zkc,32,indexed-job,1
4450,0.0,PodScheduled,indexed-job-22-qlnbz,32,indexed-job,1
4451,0.0,Initialized,indexed-job-22-qlnbz,32,indexed-job,1
4452,13.0,Ready,indexed-job-22-qlnbz,32,indexed-job,1
4453,13.0,ContainersReady,indexed-job-22-qlnbz,32,indexed-job,1
4454,0.0,PodScheduled,indexed-job-21-v86gc,32,indexed-job,1
4455,0.0,Initialized,indexed-job-21-v86gc,32,indexed-job,1
4456,17.0,Ready,indexed-job-21-v86gc,32,indexed-job,1
4457,17.0,ContainersReady,indexed-job-21-v86gc,32,indexed-job,1
4458,0.0,PodScheduled,indexed-job-31-mnxjg,32,indexed-job,1
4459,0.0,Initialized,indexed-job-31-mnxjg,32,indexed-job,1
4460,16.0,Ready,indexed-job-31-mnxjg,32,indexed-job,1
4461,16.0,ContainersReady,indexed-job-31-mnxjg,32,indexed-job,1
4462,17.983,watch_create,all,32,pods,5
4463,33.325,watch_delete,all,32,pods,5
4464,0.0,PodScheduled,pod-0,32,pods,5
4465,0.0,Initialized,pod-0,32,pods,5
4466,2.0,Ready,pod-0,32,pods,5
4467,2.0,ContainersReady,pod-0,32,pods,5
4468,0.0,PodScheduled,pod-1,32,pods,5
4469,0.0,Initialized,pod-1,32,pods,5
4470,2.0,Ready,pod-1,32,pods,5
4471,2.0,ContainersReady,pod-1,32,pods,5
4472,0.0,PodScheduled,pod-2,32,pods,5
4473,0.0,Initialized,pod-2,32,pods,5
4474,3.0,Ready,pod-2,32,pods,5
4475,3.0,ContainersReady,pod-2,32,pods,5
4476,0.0,PodScheduled,pod-3,32,pods,5
4477,0.0,Initialized,pod-3,32,pods,5
4478,3.0,Ready,pod-3,32,pods,5
4479,3.0,ContainersReady,pod-3,32,pods,5
4480,0.0,PodScheduled,pod-4,32,pods,5
4481,0.0,Initialized,pod-4,32,pods,5
4482,4.0,Ready,pod-4,32,pods,5
4483,4.0,ContainersReady,pod-4,32,pods,5
4484,0.0,PodScheduled,pod-5,32,pods,5
4485,0.0,Initialized,pod-5,32,pods,5
4486,4.0,Ready,pod-5,32,pods,5
4487,4.0,ContainersReady,pod-5,32,pods,5
4488,0.0,PodScheduled,pod-6,32,pods,5
4489,0.0,Initialized,pod-6,32,pods,5
4490,5.0,Ready,pod-6,32,pods,5
4491,5.0,ContainersReady,pod-6,32,pods,5
4492,0.0,PodScheduled,pod-7,32,pods,5
4493,0.0,Initialized,pod-7,32,pods,5
4494,6.0,Ready,pod-7,32,pods,5
4495,6.0,ContainersReady,pod-7,32,pods,5
4496,0.0,PodScheduled,pod-8,32,pods,5
4497,0.0,Initialized,pod-8,32,pods,5
4498,6.0,Ready,pod-8,32,pods,5
4499,6.0,ContainersReady,pod-8,32,pods,5
4500,0.0,PodScheduled,pod-9,32,pods,5
4501,0.0,Initialized,pod-9,32,pods,5
4502,6.0,Ready,pod-9,32,pods,5
4503,6.0,ContainersReady,pod-9,32,pods,5
4504,0.0,PodScheduled,pod-10,32,pods,5
4505,0.0,Initialized,pod-10,32,pods,5
4506,7.0,Ready,pod-10,32,pods,5
4507,7.0,ContainersReady,pod-10,32,pods,5
4508,0.0,PodScheduled,pod-11,32,pods,5
4509,0.0,Initialized,pod-11,32,pods,5
4510,7.0,Ready,pod-11,32,pods,5
4511,7.0,ContainersReady,pod-11,32,pods,5
4512,0.0,PodScheduled,pod-12,32,pods,5
4513,0.0,Initialized,pod-12,32,pods,5
4514,8.0,Ready,pod-12,32,pods,5
4515,8.0,ContainersReady,pod-12,32,pods,5
4516,0.0,PodScheduled,pod-13,32,pods,5
4517,0.0,Initialized,pod-13,32,pods,5
4518,10.0,Ready,pod-13,32,pods,5
4519,10.0,ContainersReady,pod-13,32,pods,5
4520,0.0,PodScheduled,pod-14,32,pods,5
4521,0.0,Initialized,pod-14,32,pods,5
4522,9.0,Ready,pod-14,32,pods,5
4523,9.0,ContainersReady,pod-14,32,pods,5
4524,0.0,PodScheduled,pod-15,32,pods,5
4525,0.0,Initialized,pod-15,32,pods,5
4526,9.0,Ready,pod-15,32,pods,5
4527,9.0,ContainersReady,pod-15,32,pods,5
4528,0.0,PodScheduled,pod-16,32,pods,5
4529,0.0,Initialized,pod-16,32,pods,5
4530,8.0,Ready,pod-16,32,pods,5
4531,8.0,ContainersReady,pod-16,32,pods,5
4532,0.0,PodScheduled,pod-17,32,pods,5
4533,0.0,Initialized,pod-17,32,pods,5
4534,10.0,Ready,pod-17,32,pods,5
4535,10.0,ContainersReady,pod-17,32,pods,5
4536,0.0,PodScheduled,pod-18,32,pods,5
4537,0.0,Initialized,pod-18,32,pods,5
4538,12.0,Ready,pod-18,32,pods,5
4539,12.0,ContainersReady,pod-18,32,pods,5
4540,0.0,PodScheduled,pod-19,32,pods,5
4541,0.0,Initialized,pod-19,32,pods,5
4542,11.0,Ready,pod-19,32,pods,5
4543,11.0,ContainersReady,pod-19,32,pods,5
4544,0.0,PodScheduled,pod-20,32,pods,5
4545,0.0,Initialized,pod-20,32,pods,5
4546,11.0,Ready,pod-20,32,pods,5
4547,11.0,ContainersReady,pod-20,32,pods,5
4548,0.0,PodScheduled,pod-21,32,pods,5
4549,0.0,Initialized,pod-21,32,pods,5
4550,12.0,Ready,pod-21,32,pods,5
4551,12.0,ContainersReady,pod-21,32,pods,5
4552,0.0,PodScheduled,pod-22,32,pods,5
4553,0.0,Initialized,pod-22,32,pods,5
4554,13.0,Ready,pod-22,32,pods,5
4555,13.0,ContainersReady,pod-22,32,pods,5
4556,0.0,PodScheduled,pod-23,32,pods,5
4557,0.0,Initialized,pod-23,32,pods,5
4558,13.0,Ready,pod-23,32,pods,5
4559,13.0,ContainersReady,pod-23,32,pods,5
4560,0.0,PodScheduled,pod-24,32,pods,5
4561,0.0,Initialized,pod-24,32,pods,5
4562,14.0,Ready,pod-24,32,pods,5
4563,14.0,ContainersReady,pod-24,32,pods,5
4564,0.0,PodScheduled,pod-25,32,pods,5
4565,0.0,Initialized,pod-25,32,pods,5
4566,15.0,Ready,pod-25,32,pods,5
4567,15.0,ContainersReady,pod-25,32,pods,5
4568,0.0,PodScheduled,pod-26,32,pods,5
4569,0.0,Initialized,pod-26,32,pods,5
4570,15.0,Ready,pod-26,32,pods,5
4571,15.0,ContainersReady,pod-26,32,pods,5
4572,0.0,PodScheduled,pod-27,32,pods,5
4573,0.0,Initialized,pod-27,32,pods,5
4574,14.0,Ready,pod-27,32,pods,5
4575,14.0,ContainersReady,pod-27,32,pods,5
4576,0.0,PodScheduled,pod-28,32,pods,5
4577,0.0,Initialized,pod-28,32,pods,5
4578,16.0,Ready,pod-28,32,pods,5
4579,16.0,ContainersReady,pod-28,32,pods,5
4580,0.0,PodScheduled,pod-29,32,pods,5
4581,0.0,Initialized,pod-29,32,pods,5
4582,17.0,Ready,pod-29,32,pods,5
4583,17.0,ContainersReady,pod-29,32,pods,5
4584,0.0,PodScheduled,pod-30,32,pods,5
4585,0.0,Initialized,pod-30,32,pods,5
4586,16.0,Ready,pod-30,32,pods,5
4587,16.0,ContainersReady,pod-30,32,pods,5
4588,0.0,PodScheduled,pod-31,32,pods,5
4589,0.0,Initialized,pod-31,32,pods,5
4590,17.0,Ready,pod-31,32,pods,5
4591,17.0,ContainersReady,pod-31,32,pods,5
4592,17.812,watch_create,all,32,indexed-job,20
4593,33.24,watch_delete,all,32,indexed-job,20
4594,0.0,PodScheduled,indexed-job-0-t9jkr,32,indexed-job,20
4595,0.0,Initialized,indexed-job-0-t9jkr,32,indexed-job,20
4596,3.0,Ready,indexed-job-0-t9jkr,32,indexed-job,20
4597,3.0,ContainersReady,indexed-job-0-t9jkr,32,indexed-job,20
4598,0.0,PodScheduled,indexed-job-1-6jxcl,32,indexed-job,20
4599,0.0,Initialized,indexed-job-1-6jxcl,32,indexed-job,20
4600,3.0,Ready,indexed-job-1-6jxcl,32,indexed-job,20
4601,3.0,ContainersReady,indexed-job-1-6jxcl,32,indexed-job,20
4602,0.0,PodScheduled,indexed-job-2-pzts7,32,indexed-job,20
4603,0.0,Initialized,indexed-job-2-pzts7,32,indexed-job,20
4604,4.0,Ready,indexed-job-2-pzts7,32,indexed-job,20
4605,4.0,ContainersReady,indexed-job-2-pzts7,32,indexed-job,20
4606,0.0,PodScheduled,indexed-job-4-gjw9s,32,indexed-job,20
4607,0.0,Initialized,indexed-job-4-gjw9s,32,indexed-job,20
4608,3.0,Ready,indexed-job-4-gjw9s,32,indexed-job,20
4609,3.0,ContainersReady,indexed-job-4-gjw9s,32,indexed-job,20
4610,0.0,PodScheduled,indexed-job-5-pkxg4,32,indexed-job,20
4611,0.0,Initialized,indexed-job-5-pkxg4,32,indexed-job,20
4612,5.0,Ready,indexed-job-5-pkxg4,32,indexed-job,20
4613,5.0,ContainersReady,indexed-job-5-pkxg4,32,indexed-job,20
4614,0.0,PodScheduled,indexed-job-3-qqbf8,32,indexed-job,20
4615,0.0,Initialized,indexed-job-3-qqbf8,32,indexed-job,20
4616,9.0,Ready,indexed-job-3-qqbf8,32,indexed-job,20
4617,9.0,ContainersReady,indexed-job-3-qqbf8,32,indexed-job,20
4618,0.0,PodScheduled,indexed-job-6-sdh2l,32,indexed-job,20
4619,0.0,Initialized,indexed-job-6-sdh2l,32,indexed-job,20
4620,8.0,Ready,indexed-job-6-sdh2l,32,indexed-job,20
4621,8.0,ContainersReady,indexed-job-6-sdh2l,32,indexed-job,20
4622,0.0,PodScheduled,indexed-job-14-vjp2s,32,indexed-job,20
4623,0.0,Initialized,indexed-job-14-vjp2s,32,indexed-job,20
4624,9.0,Ready,indexed-job-14-vjp2s,32,indexed-job,20
4625,9.0,ContainersReady,indexed-job-14-vjp2s,32,indexed-job,20
4626,0.0,PodScheduled,indexed-job-11-6ql5m,32,indexed-job,20
4627,0.0,Initialized,indexed-job-11-6ql5m,32,indexed-job,20
4628,12.0,Ready,indexed-job-11-6ql5m,32,indexed-job,20
4629,12.0,ContainersReady,indexed-job-11-6ql5m,32,indexed-job,20
4630,0.0,PodScheduled,indexed-job-8-q6rwb,32,indexed-job,20
4631,0.0,Initialized,indexed-job-8-q6rwb,32,indexed-job,20
4632,6.0,Ready,indexed-job-8-q6rwb,32,indexed-job,20
4633,6.0,ContainersReady,indexed-job-8-q6rwb,32,indexed-job,20
4634,0.0,PodScheduled,indexed-job-12-hr65q,32,indexed-job,20
4635,0.0,Initialized,indexed-job-12-hr65q,32,indexed-job,20
4636,4.0,Ready,indexed-job-12-hr65q,32,indexed-job,20
4637,4.0,ContainersReady,indexed-job-12-hr65q,32,indexed-job,20
4638,0.0,PodScheduled,indexed-job-13-t4678,32,indexed-job,20
4639,0.0,Initialized,indexed-job-13-t4678,32,indexed-job,20
4640,7.0,Ready,indexed-job-13-t4678,32,indexed-job,20
4641,7.0,ContainersReady,indexed-job-13-t4678,32,indexed-job,20
4642,0.0,PodScheduled,indexed-job-10-pw2f2,32,indexed-job,20
4643,0.0,Initialized,indexed-job-10-pw2f2,32,indexed-job,20
4644,8.0,Ready,indexed-job-10-pw2f2,32,indexed-job,20
4645,8.0,ContainersReady,indexed-job-10-pw2f2,32,indexed-job,20
4646,0.0,PodScheduled,indexed-job-9-9gvr4,32,indexed-job,20
4647,0.0,Initialized,indexed-job-9-9gvr4,32,indexed-job,20
4648,11.0,Ready,indexed-job-9-9gvr4,32,indexed-job,20
4649,11.0,ContainersReady,indexed-job-9-9gvr4,32,indexed-job,20
4650,0.0,PodScheduled,indexed-job-7-xlkg4,32,indexed-job,20
4651,0.0,Initialized,indexed-job-7-xlkg4,32,indexed-job,20
4652,13.0,Ready,indexed-job-7-xlkg4,32,indexed-job,20
4653,13.0,ContainersReady,indexed-job-7-xlkg4,32,indexed-job,20
4654,0.0,PodScheduled,indexed-job-15-zd77x,32,indexed-job,20
4655,0.0,Initialized,indexed-job-15-zd77x,32,indexed-job,20
4656,6.0,Ready,indexed-job-15-zd77x,32,indexed-job,20
4657,6.0,ContainersReady,indexed-job-15-zd77x,32,indexed-job,20
4658,0.0,PodScheduled,indexed-job-19-fxh4n,32,indexed-job,20
4659,0.0,Initialized,indexed-job-19-fxh4n,32,indexed-job,20
4660,11.0,Ready,indexed-job-19-fxh4n,32,indexed-job,20
4661,11.0,ContainersReady,indexed-job-19-fxh4n,32,indexed-job,20
4662,0.0,PodScheduled,indexed-job-17-hfjs6,32,indexed-job,20
4663,0.0,Initialized,indexed-job-17-hfjs6,32,indexed-job,20
4664,10.0,Ready,indexed-job-17-hfjs6,32,indexed-job,20
4665,10.0,ContainersReady,indexed-job-17-hfjs6,32,indexed-job,20
4666,0.0,PodScheduled,indexed-job-23-mqrsl,32,indexed-job,20
4667,0.0,Initialized,indexed-job-23-mqrsl,32,indexed-job,20
4668,7.0,Ready,indexed-job-23-mqrsl,32,indexed-job,20
4669,7.0,ContainersReady,indexed-job-23-mqrsl,32,indexed-job,20
4670,0.0,PodScheduled,indexed-job-22-sv9br,32,indexed-job,20
4671,0.0,Initialized,indexed-job-22-sv9br,32,indexed-job,20
4672,12.0,Ready,indexed-job-22-sv9br,32,indexed-job,20
4673,12.0,ContainersReady,indexed-job-22-sv9br,32,indexed-job,20
4674,0.0,PodScheduled,indexed-job-21-fgnnk,32,indexed-job,20
4675,0.0,Initialized,indexed-job-21-fgnnk,32,indexed-job,20
4676,10.0,Ready,indexed-job-21-fgnnk,32,indexed-job,20
4677,10.0,ContainersReady,indexed-job-21-fgnnk,32,indexed-job,20
4678,0.0,PodScheduled,indexed-job-18-g6cwf,32,indexed-job,20
4679,0.0,Initialized,indexed-job-18-g6cwf,32,indexed-job,20
4680,11.0,Ready,indexed-job-18-g6cwf,32,indexed-job,20
4681,11.0,ContainersReady,indexed-job-18-g6cwf,32,indexed-job,20
4682,0.0,PodScheduled,indexed-job-30-29585,32,indexed-job,20
4683,0.0,Initialized,indexed-job-30-29585,32,indexed-job,20
4684,14.0,Ready,indexed-job-30-29585,32,indexed-job,20
4685,14.0,ContainersReady,indexed-job-30-29585,32,indexed-job,20
4686,0.0,PodScheduled,indexed-job-20-82gv9,32,indexed-job,20
4687,0.0,Initialized,indexed-job-20-82gv9,32,indexed-job,20
4688,13.0,Ready,indexed-job-20-82gv9,32,indexed-job,20
4689,13.0,ContainersReady,indexed-job-20-82gv9,32,indexed-job,20
4690,0.0,PodScheduled,indexed-job-16-z8r2b,32,indexed-job,20
4691,0.0,Initialized,indexed-job-16-z8r2b,32,indexed-job,20
4692,16.0,Ready,indexed-job-16-z8r2b,32,indexed-job,20
4693,16.0,ContainersReady,indexed-job-16-z8r2b,32,indexed-job,20
4694,0.0,PodScheduled,indexed-job-24-f2ght,32,indexed-job,20
4695,0.0,Initialized,indexed-job-24-f2ght,32,indexed-job,20
4696,15.0,Ready,indexed-job-24-f2ght,32,indexed-job,20
4697,15.0,ContainersReady,indexed-job-24-f2ght,32,indexed-job,20
4698,0.0,PodScheduled,indexed-job-25-52gj7,32,indexed-job,20
4699,0.0,Initialized,indexed-job-25-52gj7,32,indexed-job,20
4700,14.0,Ready,indexed-job-25-52gj7,32,indexed-job,20
4701,14.0,ContainersReady,indexed-job-25-52gj7,32,indexed-job,20
4702,0.0,PodScheduled,indexed-job-26-n5tjk,32,indexed-job,20
4703,0.0,Initialized,indexed-job-26-n5tjk,32,indexed-job,20
4704,15.0,Ready,indexed-job-26-n5tjk,32,indexed-job,20
4705,15.0,ContainersReady,indexed-job-26-n5tjk,32,indexed-job,20
4706,0.0,PodScheduled,indexed-job-27-9n9dl,32,indexed-job,20
4707,0.0,Initialized,indexed-job-27-9n9dl,32,indexed-job,20
4708,18.0,Ready,indexed-job-27-9n9dl,32,indexed-job,20
4709,18.0,ContainersReady,indexed-job-27-9n9dl,32,indexed-job,20
4710,0.0,PodScheduled,indexed-job-28-bvbvd,32,indexed-job,20
4711,0.0,Initialized,indexed-job-28-bvbvd,32,indexed-job,20
4712,15.0,Ready,indexed-job-28-bvbvd,32,indexed-job,20
4713,15.0,ContainersReady,indexed-job-28-bvbvd,32,indexed-job,20
4714,0.0,PodScheduled,indexed-job-29-4hs2p,32,indexed-job,20
4715,0.0,Initialized,indexed-job-29-4hs2p,32,indexed-job,20
4716,16.0,Ready,indexed-job-29-4hs2p,32,indexed-job,20
4717,16.0,ContainersReady,indexed-job-29-4hs2p,32,indexed-job,20
4718,0.0,PodScheduled,indexed-job-31-scqbs,32,indexed-job,20
4719,0.0,Initialized,indexed-job-31-scqbs,32,indexed-job,20
4720,16.0,Ready,indexed-job-31-scqbs,32,indexed-job,20
4721,16.0,ContainersReady,indexed-job-31-scqbs,32,indexed-job,20
4722,16.79,watch_create,all,32,indexed-job,18
4723,34.148,watch_delete,all,32,indexed-job,18
4724,0.0,PodScheduled,indexed-job-0-b96n7,32,indexed-job,18
4725,0.0,Initialized,indexed-job-0-b96n7,32,indexed-job,18
4726,2.0,Ready,indexed-job-0-b96n7,32,indexed-job,18
4727,2.0,ContainersReady,indexed-job-0-b96n7,32,indexed-job,18
4728,0.0,PodScheduled,indexed-job-1-nbgjp,32,indexed-job,18
4729,0.0,Initialized,indexed-job-1-nbgjp,32,indexed-job,18
4730,3.0,Ready,indexed-job-1-nbgjp,32,indexed-job,18
4731,3.0,ContainersReady,indexed-job-1-nbgjp,32,indexed-job,18
4732,0.0,PodScheduled,indexed-job-2-wtq2j,32,indexed-job,18
4733,0.0,Initialized,indexed-job-2-wtq2j,32,indexed-job,18
4734,2.0,Ready,indexed-job-2-wtq2j,32,indexed-job,18
4735,2.0,ContainersReady,indexed-job-2-wtq2j,32,indexed-job,18
4736,0.0,PodScheduled,indexed-job-5-5mct9,32,indexed-job,18
4737,0.0,Initialized,indexed-job-5-5mct9,32,indexed-job,18
4738,2.0,Ready,indexed-job-5-5mct9,32,indexed-job,18
4739,2.0,ContainersReady,indexed-job-5-5mct9,32,indexed-job,18
4740,0.0,PodScheduled,indexed-job-6-hnb8k,32,indexed-job,18
4741,0.0,Initialized,indexed-job-6-hnb8k,32,indexed-job,18
4742,12.0,Ready,indexed-job-6-hnb8k,32,indexed-job,18
4743,12.0,ContainersReady,indexed-job-6-hnb8k,32,indexed-job,18
4744,0.0,PodScheduled,indexed-job-4-bgcbh,32,indexed-job,18
4745,0.0,Initialized,indexed-job-4-bgcbh,32,indexed-job,18
4746,4.0,Ready,indexed-job-4-bgcbh,32,indexed-job,18
4747,4.0,ContainersReady,indexed-job-4-bgcbh,32,indexed-job,18
4748,0.0,PodScheduled,indexed-job-3-q4nwh,32,indexed-job,18
4749,0.0,Initialized,indexed-job-3-q4nwh,32,indexed-job,18
4750,3.0,Ready,indexed-job-3-q4nwh,32,indexed-job,18
4751,3.0,ContainersReady,indexed-job-3-q4nwh,32,indexed-job,18
4752,0.0,PodScheduled,indexed-job-12-499sj,32,indexed-job,18
4753,0.0,Initialized,indexed-job-12-499sj,32,indexed-job,18
4754,11.0,Ready,indexed-job-12-499sj,32,indexed-job,18
4755,11.0,ContainersReady,indexed-job-12-499sj,32,indexed-job,18
4756,0.0,PodScheduled,indexed-job-11-vxtgr,32,indexed-job,18
4757,0.0,Initialized,indexed-job-11-vxtgr,32,indexed-job,18
4758,11.0,Ready,indexed-job-11-vxtgr,32,indexed-job,18
4759,11.0,ContainersReady,indexed-job-11-vxtgr,32,indexed-job,18
4760,0.0,PodScheduled,indexed-job-10-sk5tp,32,indexed-job,18
4761,0.0,Initialized,indexed-job-10-sk5tp,32,indexed-job,18
4762,16.0,Ready,indexed-job-10-sk5tp,32,indexed-job,18
4763,16.0,ContainersReady,indexed-job-10-sk5tp,32,indexed-job,18
4764,0.0,PodScheduled,indexed-job-14-xkbzl,32,indexed-job,18
4765,0.0,Initialized,indexed-job-14-xkbzl,32,indexed-job,18
4766,13.0,Ready,indexed-job-14-xkbzl,32,indexed-job,18
4767,13.0,ContainersReady,indexed-job-14-xkbzl,32,indexed-job,18
4768,0.0,PodScheduled,indexed-job-13-fr5zh,32,indexed-job,18
4769,0.0,Initialized,indexed-job-13-fr5zh,32,indexed-job,18
4770,4.0,Ready,indexed-job-13-fr5zh,32,indexed-job,18
4771,4.0,ContainersReady,indexed-job-13-fr5zh,32,indexed-job,18
4772,0.0,PodScheduled,indexed-job-9-ct45x,32,indexed-job,18
4773,0.0,Initialized,indexed-job-9-ct45x,32,indexed-job,18
4774,10.0,Ready,indexed-job-9-ct45x,32,indexed-job,18
4775,10.0,ContainersReady,indexed-job-9-ct45x,32,indexed-job,18
4776,0.0,PodScheduled,indexed-job-7-f6bsr,32,indexed-job,18
4777,0.0,Initialized,indexed-job-7-f6bsr,32,indexed-job,18
4778,9.0,Ready,indexed-job-7-f6bsr,32,indexed-job,18
4779,9.0,ContainersReady,indexed-job-7-f6bsr,32,indexed-job,18
4780,0.0,PodScheduled,indexed-job-8-dmtxh,32,indexed-job,18
4781,0.0,Initialized,indexed-job-8-dmtxh,32,indexed-job,18
4782,12.0,Ready,indexed-job-8-dmtxh,32,indexed-job,18
4783,12.0,ContainersReady,indexed-job-8-dmtxh,32,indexed-job,18
4784,0.0,PodScheduled,indexed-job-30-m9qg5,32,indexed-job,18
4785,0.0,Initialized,indexed-job-30-m9qg5,32,indexed-job,18
4786,14.0,Ready,indexed-job-30-m9qg5,32,indexed-job,18
4787,14.0,ContainersReady,indexed-job-30-m9qg5,32,indexed-job,18
4788,0.0,PodScheduled,indexed-job-16-v9tsr,32,indexed-job,18
4789,0.0,Initialized,indexed-job-16-v9tsr,32,indexed-job,18
4790,7.0,Ready,indexed-job-16-v9tsr,32,indexed-job,18
4791,7.0,ContainersReady,indexed-job-16-v9tsr,32,indexed-job,18
4792,0.0,PodScheduled,indexed-job-25-62qjs,32,indexed-job,18
4793,0.0,Initialized,indexed-job-25-62qjs,32,indexed-job,18
4794,12.0,Ready,indexed-job-25-62qjs,32,indexed-job,18
4795,12.0,ContainersReady,indexed-job-25-62qjs,32,indexed-job,18
4796,0.0,PodScheduled,indexed-job-24-p75fp,32,indexed-job,18
4797,0.0,Initialized,indexed-job-24-p75fp,32,indexed-job,18
4798,9.0,Ready,indexed-job-24-p75fp,32,indexed-job,18
4799,9.0,ContainersReady,indexed-job-24-p75fp,32,indexed-job,18
4800,0.0,PodScheduled,indexed-job-15-j9dvg,32,indexed-job,18
4801,0.0,Initialized,indexed-job-15-j9dvg,32,indexed-job,18
4802,5.0,Ready,indexed-job-15-j9dvg,32,indexed-job,18
4803,5.0,ContainersReady,indexed-job-15-j9dvg,32,indexed-job,18
4804,0.0,PodScheduled,indexed-job-23-qhqjm,32,indexed-job,18
4805,0.0,Initialized,indexed-job-23-qhqjm,32,indexed-job,18
4806,15.0,Ready,indexed-job-23-qhqjm,32,indexed-job,18
4807,15.0,ContainersReady,indexed-job-23-qhqjm,32,indexed-job,18
4808,0.0,PodScheduled,indexed-job-27-hfqw4,32,indexed-job,18
4809,0.0,Initialized,indexed-job-27-hfqw4,32,indexed-job,18
4810,15.0,Ready,indexed-job-27-hfqw4,32,indexed-job,18
4811,15.0,ContainersReady,indexed-job-27-hfqw4,32,indexed-job,18
4812,0.0,PodScheduled,indexed-job-26-vwqjk,32,indexed-job,18
4813,0.0,Initialized,indexed-job-26-vwqjk,32,indexed-job,18
4814,8.0,Ready,indexed-job-26-vwqjk,32,indexed-job,18
4815,8.0,ContainersReady,indexed-job-26-vwqjk,32,indexed-job,18
4816,0.0,PodScheduled,indexed-job-17-8fdjb,32,indexed-job,18
4817,0.0,Initialized,indexed-job-17-8fdjb,32,indexed-job,18
4818,5.0,Ready,indexed-job-17-8fdjb,32,indexed-job,18
4819,5.0,ContainersReady,indexed-job-17-8fdjb,32,indexed-job,18
4820,0.0,PodScheduled,indexed-job-28-87xnp,32,indexed-job,18
4821,0.0,Initialized,indexed-job-28-87xnp,32,indexed-job,18
4822,6.0,Ready,indexed-job-28-87xnp,32,indexed-job,18
4823,6.0,ContainersReady,indexed-job-28-87xnp,32,indexed-job,18
4824,0.0,PodScheduled,indexed-job-29-r8tx5,32,indexed-job,18
4825,0.0,Initialized,indexed-job-29-r8tx5,32,indexed-job,18
4826,8.0,Ready,indexed-job-29-r8tx5,32,indexed-job,18
4827,8.0,ContainersReady,indexed-job-29-r8tx5,32,indexed-job,18
4828,0.0,PodScheduled,indexed-job-20-5s2s8,32,indexed-job,18
4829,0.0,Initialized,indexed-job-20-5s2s8,32,indexed-job,18
4830,17.0,Ready,indexed-job-20-5s2s8,32,indexed-job,18
4831,17.0,ContainersReady,indexed-job-20-5s2s8,32,indexed-job,18
4832,0.0,PodScheduled,indexed-job-18-sng68,32,indexed-job,18
4833,0.0,Initialized,indexed-job-18-sng68,32,indexed-job,18
4834,17.0,Ready,indexed-job-18-sng68,32,indexed-job,18
4835,17.0,ContainersReady,indexed-job-18-sng68,32,indexed-job,18
4836,0.0,PodScheduled,indexed-job-19-4hvcl,32,indexed-job,18
4837,0.0,Initialized,indexed-job-19-4hvcl,32,indexed-job,18
4838,13.0,Ready,indexed-job-19-4hvcl,32,indexed-job,18
4839,13.0,ContainersReady,indexed-job-19-4hvcl,32,indexed-job,18
4840,0.0,PodScheduled,indexed-job-22-jmbdr,32,indexed-job,18
4841,0.0,Initialized,indexed-job-22-jmbdr,32,indexed-job,18
4842,10.0,Ready,indexed-job-22-jmbdr,32,indexed-job,18
4843,10.0,ContainersReady,indexed-job-22-jmbdr,32,indexed-job,18
4844,0.0,PodScheduled,indexed-job-21-wb2pr,32,indexed-job,18
4845,0.0,Initialized,indexed-job-21-wb2pr,32,indexed-job,18
4846,14.0,Ready,indexed-job-21-wb2pr,32,indexed-job,18
4847,14.0,ContainersReady,indexed-job-21-wb2pr,32,indexed-job,18
4848,0.0,PodScheduled,indexed-job-31-mdwgg,32,indexed-job,18
4849,0.0,Initialized,indexed-job-31-mdwgg,32,indexed-job,18
4850,16.0,Ready,indexed-job-31-mdwgg,32,indexed-job,18
4851,16.0,ContainersReady,indexed-job-31-mdwgg,32,indexed-job,18
4852,16.804,watch_create,all,32,indexed-job,16
4853,34.22,watch_delete,all,32,indexed-job,16
4854,0.0,PodScheduled,indexed-job-0-lcv4z,32,indexed-job,16
4855,0.0,Initialized,indexed-job-0-lcv4z,32,indexed-job,16
4856,2.0,Ready,indexed-job-0-lcv4z,32,indexed-job,16
4857,2.0,ContainersReady,indexed-job-0-lcv4z,32,indexed-job,16
4858,0.0,PodScheduled,indexed-job-2-8dw7z,32,indexed-job,16
4859,0.0,Initialized,indexed-job-2-8dw7z,32,indexed-job,16
4860,3.0,Ready,indexed-job-2-8dw7z,32,indexed-job,16
4861,3.0,ContainersReady,indexed-job-2-8dw7z,32,indexed-job,16
4862,0.0,PodScheduled,indexed-job-1-n6d8s,32,indexed-job,16
4863,0.0,Initialized,indexed-job-1-n6d8s,32,indexed-job,16
4864,3.0,Ready,indexed-job-1-n6d8s,32,indexed-job,16
4865,3.0,ContainersReady,indexed-job-1-n6d8s,32,indexed-job,16
4866,0.0,PodScheduled,indexed-job-5-lg2xn,32,indexed-job,16
4867,0.0,Initialized,indexed-job-5-lg2xn,32,indexed-job,16
4868,4.0,Ready,indexed-job-5-lg2xn,32,indexed-job,16
4869,4.0,ContainersReady,indexed-job-5-lg2xn,32,indexed-job,16
4870,0.0,PodScheduled,indexed-job-6-tdkcf,32,indexed-job,16
4871,0.0,Initialized,indexed-job-6-tdkcf,32,indexed-job,16
4872,5.0,Ready,indexed-job-6-tdkcf,32,indexed-job,16
4873,5.0,ContainersReady,indexed-job-6-tdkcf,32,indexed-job,16
4874,0.0,PodScheduled,indexed-job-3-hg8wx,32,indexed-job,16
4875,0.0,Initialized,indexed-job-3-hg8wx,32,indexed-job,16
4876,6.0,Ready,indexed-job-3-hg8wx,32,indexed-job,16
4877,6.0,ContainersReady,indexed-job-3-hg8wx,32,indexed-job,16
4878,0.0,PodScheduled,indexed-job-4-jm2nb,32,indexed-job,16
4879,1.0,Initialized,indexed-job-4-jm2nb,32,indexed-job,16
4880,4.0,Ready,indexed-job-4-jm2nb,32,indexed-job,16
4881,4.0,ContainersReady,indexed-job-4-jm2nb,32,indexed-job,16
4882,0.0,PodScheduled,indexed-job-7-jjkrf,32,indexed-job,16
4883,1.0,Initialized,indexed-job-7-jjkrf,32,indexed-job,16
4884,5.0,Ready,indexed-job-7-jjkrf,32,indexed-job,16
4885,5.0,ContainersReady,indexed-job-7-jjkrf,32,indexed-job,16
4886,0.0,PodScheduled,indexed-job-12-8rzxk,32,indexed-job,16
4887,1.0,Initialized,indexed-job-12-8rzxk,32,indexed-job,16
4888,14.0,Ready,indexed-job-12-8rzxk,32,indexed-job,16
4889,14.0,ContainersReady,indexed-job-12-8rzxk,32,indexed-job,16
4890,1.0,PodScheduled,indexed-job-8-fcklm,32,indexed-job,16
4891,1.0,Initialized,indexed-job-8-fcklm,32,indexed-job,16
4892,16.0,Ready,indexed-job-8-fcklm,32,indexed-job,16
4893,16.0,ContainersReady,indexed-job-8-fcklm,32,indexed-job,16
4894,1.0,PodScheduled,indexed-job-14-vmck8,32,indexed-job,16
4895,1.0,Initialized,indexed-job-14-vmck8,32,indexed-job,16
4896,6.0,Ready,indexed-job-14-vmck8,32,indexed-job,16
4897,6.0,ContainersReady,indexed-job-14-vmck8,32,indexed-job,16
4898,1.0,PodScheduled,indexed-job-11-ptkv4,32,indexed-job,16
4899,1.0,Initialized,indexed-job-11-ptkv4,32,indexed-job,16
4900,13.0,Ready,indexed-job-11-ptkv4,32,indexed-job,16
4901,13.0,ContainersReady,indexed-job-11-ptkv4,32,indexed-job,16
4902,1.0,PodScheduled,indexed-job-10-24vtm,32,indexed-job,16
4903,1.0,Initialized,indexed-job-10-24vtm,32,indexed-job,16
4904,14.0,Ready,indexed-job-10-24vtm,32,indexed-job,16
4905,14.0,ContainersReady,indexed-job-10-24vtm,32,indexed-job,16
4906,1.0,PodScheduled,indexed-job-13-lxqb5,32,indexed-job,16
4907,1.0,Initialized,indexed-job-13-lxqb5,32,indexed-job,16
4908,16.0,Ready,indexed-job-13-lxqb5,32,indexed-job,16
4909,16.0,ContainersReady,indexed-job-13-lxqb5,32,indexed-job,16
4910,1.0,PodScheduled,indexed-job-9-nwhct,32,indexed-job,16
4911,1.0,Initialized,indexed-job-9-nwhct,32,indexed-job,16
4912,7.0,Ready,indexed-job-9-nwhct,32,indexed-job,16
4913,7.0,ContainersReady,indexed-job-9-nwhct,32,indexed-job,16
4914,1.0,PodScheduled,indexed-job-27-pttql,32,indexed-job,16
4915,1.0,Initialized,indexed-job-27-pttql,32,indexed-job,16
4916,11.0,Ready,indexed-job-27-pttql,32,indexed-job,16
4917,11.0,ContainersReady,indexed-job-27-pttql,32,indexed-job,16
4918,1.0,PodScheduled,indexed-job-21-8cprs,32,indexed-job,16
4919,1.0,Initialized,indexed-job-21-8cprs,32,indexed-job,16
4920,9.0,Ready,indexed-job-21-8cprs,32,indexed-job,16
4921,9.0,ContainersReady,indexed-job-21-8cprs,32,indexed-job,16
4922,1.0,PodScheduled,indexed-job-15-z2xmj,32,indexed-job,16
4923,1.0,Initialized,indexed-job-15-z2xmj,32,indexed-job,16
4924,12.0,Ready,indexed-job-15-z2xmj,32,indexed-job,16
4925,12.0,ContainersReady,indexed-job-15-z2xmj,32,indexed-job,16
4926,0.0,PodScheduled,indexed-job-19-lkz5p,32,indexed-job,16
4927,0.0,Initialized,indexed-job-19-lkz5p,32,indexed-job,16
4928,10.0,Ready,indexed-job-19-lkz5p,32,indexed-job,16
4929,10.0,ContainersReady,indexed-job-19-lkz5p,32,indexed-job,16
4930,0.0,PodScheduled,indexed-job-20-2h2c4,32,indexed-job,16
4931,0.0,Initialized,indexed-job-20-2h2c4,32,indexed-job,16
4932,9.0,Ready,indexed-job-20-2h2c4,32,indexed-job,16
4933,9.0,ContainersReady,indexed-job-20-2h2c4,32,indexed-job,16
4934,1.0,PodScheduled,indexed-job-25-flp2j,32,indexed-job,16
4935,1.0,Initialized,indexed-job-25-flp2j,32,indexed-job,16
4936,13.0,Ready,indexed-job-25-flp2j,32,indexed-job,16
4937,13.0,ContainersReady,indexed-job-25-flp2j,32,indexed-job,16
4938,0.0,PodScheduled,indexed-job-16-mph65,32,indexed-job,16
4939,0.0,Initialized,indexed-job-16-mph65,32,indexed-job,16
4940,8.0,Ready,indexed-job-16-mph65,32,indexed-job,16
4941,8.0,ContainersReady,indexed-job-16-mph65,32,indexed-job,16
4942,1.0,PodScheduled,indexed-job-18-jkdmv,32,indexed-job,16
4943,1.0,Initialized,indexed-job-18-jkdmv,32,indexed-job,16
4944,8.0,Ready,indexed-job-18-jkdmv,32,indexed-job,16
4945,8.0,ContainersReady,indexed-job-18-jkdmv,32,indexed-job,16
4946,0.0,PodScheduled,indexed-job-17-nk84w,32,indexed-job,16
4947,0.0,Initialized,indexed-job-17-nk84w,32,indexed-job,16
4948,11.0,Ready,indexed-job-17-nk84w,32,indexed-job,16
4949,11.0,ContainersReady,indexed-job-17-nk84w,32,indexed-job,16
4950,0.0,PodScheduled,indexed-job-30-9td5v,32,indexed-job,16
4951,0.0,Initialized,indexed-job-30-9td5v,32,indexed-job,16
4952,9.0,Ready,indexed-job-30-9td5v,32,indexed-job,16
4953,9.0,ContainersReady,indexed-job-30-9td5v,32,indexed-job,16
4954,0.0,PodScheduled,indexed-job-22-rdj7b,32,indexed-job,16
4955,0.0,Initialized,indexed-job-22-rdj7b,32,indexed-job,16
4956,6.0,Ready,indexed-job-22-rdj7b,32,indexed-job,16
4957,6.0,ContainersReady,indexed-job-22-rdj7b,32,indexed-job,16
4958,0.0,PodScheduled,indexed-job-23-z9kwh,32,indexed-job,16
4959,0.0,Initialized,indexed-job-23-z9kwh,32,indexed-job,16
4960,7.0,Ready,indexed-job-23-z9kwh,32,indexed-job,16
4961,7.0,ContainersReady,indexed-job-23-z9kwh,32,indexed-job,16
4962,0.0,PodScheduled,indexed-job-24-lrggq,32,indexed-job,16
4963,0.0,Initialized,indexed-job-24-lrggq,32,indexed-job,16
4964,12.0,Ready,indexed-job-24-lrggq,32,indexed-job,16
4965,12.0,ContainersReady,indexed-job-24-lrggq,32,indexed-job,16
4966,0.0,PodScheduled,indexed-job-26-vzb29,32,indexed-job,16
4967,0.0,Initialized,indexed-job-26-vzb29,32,indexed-job,16
4968,14.0,Ready,indexed-job-26-vzb29,32,indexed-job,16
4969,14.0,ContainersReady,indexed-job-26-vzb29,32,indexed-job,16
4970,0.0,PodScheduled,indexed-job-28-4tm46,32,indexed-job,16
4971,0.0,Initialized,indexed-job-28-4tm46,32,indexed-job,16
4972,16.0,Ready,indexed-job-28-4tm46,32,indexed-job,16
4973,16.0,ContainersReady,indexed-job-28-4tm46,32,indexed-job,16
4974,0.0,PodScheduled,indexed-job-29-8q5mf,32,indexed-job,16
4975,0.0,Initialized,indexed-job-29-8q5mf,32,indexed-job,16
4976,14.0,Ready,indexed-job-29-8q5mf,32,indexed-job,16
4977,14.0,ContainersReady,indexed-job-29-8q5mf,32,indexed-job,16
4978,0.0,PodScheduled,indexed-job-31-8sbdp,32,indexed-job,16
4979,0.0,Initialized,indexed-job-31-8sbdp,32,indexed-job,16
4980,16.0,Ready,indexed-job-31-8sbdp,32,indexed-job,16
4981,16.0,ContainersReady,indexed-job-31-8sbdp,32,indexed-job,16
4982,20.792,watch_create,all,32,indexed-job,5
4983,34.27,watch_delete,all,32,indexed-job,5
4984,0.0,PodScheduled,indexed-job-0-s6x69,32,indexed-job,5
4985,0.0,Initialized,indexed-job-0-s6x69,32,indexed-job,5
4986,2.0,Ready,indexed-job-0-s6x69,32,indexed-job,5
4987,2.0,ContainersReady,indexed-job-0-s6x69,32,indexed-job,5
4988,0.0,PodScheduled,indexed-job-1-gccbs,32,indexed-job,5
4989,0.0,Initialized,indexed-job-1-gccbs,32,indexed-job,5
4990,3.0,Ready,indexed-job-1-gccbs,32,indexed-job,5
4991,3.0,ContainersReady,indexed-job-1-gccbs,32,indexed-job,5
4992,0.0,PodScheduled,indexed-job-2-txm54,32,indexed-job,5
4993,0.0,Initialized,indexed-job-2-txm54,32,indexed-job,5
4994,3.0,Ready,indexed-job-2-txm54,32,indexed-job,5
4995,3.0,ContainersReady,indexed-job-2-txm54,32,indexed-job,5
4996,0.0,PodScheduled,indexed-job-3-qm9x4,32,indexed-job,5
4997,0.0,Initialized,indexed-job-3-qm9x4,32,indexed-job,5
4998,4.0,Ready,indexed-job-3-qm9x4,32,indexed-job,5
4999,4.0,ContainersReady,indexed-job-3-qm9x4,32,indexed-job,5
5000,0.0,PodScheduled,indexed-job-6-44zqg,32,indexed-job,5
5001,0.0,Initialized,indexed-job-6-44zqg,32,indexed-job,5
5002,7.0,Ready,indexed-job-6-44zqg,32,indexed-job,5
5003,7.0,ContainersReady,indexed-job-6-44zqg,32,indexed-job,5
5004,0.0,PodScheduled,indexed-job-5-jvn2w,32,indexed-job,5
5005,0.0,Initialized,indexed-job-5-jvn2w,32,indexed-job,5
5006,18.0,Ready,indexed-job-5-jvn2w,32,indexed-job,5
5007,18.0,ContainersReady,indexed-job-5-jvn2w,32,indexed-job,5
5008,0.0,PodScheduled,indexed-job-4-whb4g,32,indexed-job,5
5009,0.0,Initialized,indexed-job-4-whb4g,32,indexed-job,5
5010,4.0,Ready,indexed-job-4-whb4g,32,indexed-job,5
5011,4.0,ContainersReady,indexed-job-4-whb4g,32,indexed-job,5
5012,0.0,PodScheduled,indexed-job-8-nvkxw,32,indexed-job,5
5013,0.0,Initialized,indexed-job-8-nvkxw,32,indexed-job,5
5014,6.0,Ready,indexed-job-8-nvkxw,32,indexed-job,5
5015,6.0,ContainersReady,indexed-job-8-nvkxw,32,indexed-job,5
5016,0.0,PodScheduled,indexed-job-12-g95tv,32,indexed-job,5
5017,0.0,Initialized,indexed-job-12-g95tv,32,indexed-job,5
5018,7.0,Ready,indexed-job-12-g95tv,32,indexed-job,5
5019,7.0,ContainersReady,indexed-job-12-g95tv,32,indexed-job,5
5020,0.0,PodScheduled,indexed-job-10-jprjn,32,indexed-job,5
5021,0.0,Initialized,indexed-job-10-jprjn,32,indexed-job,5
5022,9.0,Ready,indexed-job-10-jprjn,32,indexed-job,5
5023,9.0,ContainersReady,indexed-job-10-jprjn,32,indexed-job,5
5024,0.0,PodScheduled,indexed-job-14-ch6sc,32,indexed-job,5
5025,0.0,Initialized,indexed-job-14-ch6sc,32,indexed-job,5
5026,8.0,Ready,indexed-job-14-ch6sc,32,indexed-job,5
5027,8.0,ContainersReady,indexed-job-14-ch6sc,32,indexed-job,5
5028,0.0,PodScheduled,indexed-job-11-f6s57,32,indexed-job,5
5029,0.0,Initialized,indexed-job-11-f6s57,32,indexed-job,5
5030,19.0,Ready,indexed-job-11-f6s57,32,indexed-job,5
5031,19.0,ContainersReady,indexed-job-11-f6s57,32,indexed-job,5
5032,0.0,PodScheduled,indexed-job-9-z5x8f,32,indexed-job,5
5033,0.0,Initialized,indexed-job-9-z5x8f,32,indexed-job,5
5034,14.0,Ready,indexed-job-9-z5x8f,32,indexed-job,5
5035,14.0,ContainersReady,indexed-job-9-z5x8f,32,indexed-job,5
5036,0.0,PodScheduled,indexed-job-7-mqmtk,32,indexed-job,5
5037,0.0,Initialized,indexed-job-7-mqmtk,32,indexed-job,5
5038,14.0,Ready,indexed-job-7-mqmtk,32,indexed-job,5
5039,14.0,ContainersReady,indexed-job-7-mqmtk,32,indexed-job,5
5040,0.0,PodScheduled,indexed-job-13-jczxb,32,indexed-job,5
5041,0.0,Initialized,indexed-job-13-jczxb,32,indexed-job,5
5042,11.0,Ready,indexed-job-13-jczxb,32,indexed-job,5
5043,11.0,ContainersReady,indexed-job-13-jczxb,32,indexed-job,5
5044,0.0,PodScheduled,indexed-job-23-972hp,32,indexed-job,5
5045,0.0,Initialized,indexed-job-23-972hp,32,indexed-job,5
5046,13.0,Ready,indexed-job-23-972hp,32,indexed-job,5
5047,13.0,ContainersReady,indexed-job-23-972hp,32,indexed-job,5
5048,0.0,PodScheduled,indexed-job-28-5qk48,32,indexed-job,5
5049,0.0,Initialized,indexed-job-28-5qk48,32,indexed-job,5
5050,6.0,Ready,indexed-job-28-5qk48,32,indexed-job,5
5051,6.0,ContainersReady,indexed-job-28-5qk48,32,indexed-job,5
5052,0.0,PodScheduled,indexed-job-29-5vzk5,32,indexed-job,5
5053,0.0,Initialized,indexed-job-29-5vzk5,32,indexed-job,5
5054,17.0,Ready,indexed-job-29-5vzk5,32,indexed-job,5
5055,17.0,ContainersReady,indexed-job-29-5vzk5,32,indexed-job,5
5056,0.0,PodScheduled,indexed-job-24-8bgj2,32,indexed-job,5
5057,0.0,Initialized,indexed-job-24-8bgj2,32,indexed-job,5
5058,16.0,Ready,indexed-job-24-8bgj2,32,indexed-job,5
5059,16.0,ContainersReady,indexed-job-24-8bgj2,32,indexed-job,5
5060,0.0,PodScheduled,indexed-job-30-6znwj,32,indexed-job,5
5061,0.0,Initialized,indexed-job-30-6znwj,32,indexed-job,5
5062,9.0,Ready,indexed-job-30-6znwj,32,indexed-job,5
5063,9.0,ContainersReady,indexed-job-30-6znwj,32,indexed-job,5
5064,0.0,PodScheduled,indexed-job-26-7h4bc,32,indexed-job,5
5065,0.0,Initialized,indexed-job-26-7h4bc,32,indexed-job,5
5066,12.0,Ready,indexed-job-26-7h4bc,32,indexed-job,5
5067,12.0,ContainersReady,indexed-job-26-7h4bc,32,indexed-job,5
5068,0.0,PodScheduled,indexed-job-25-v2rjf,32,indexed-job,5
5069,0.0,Initialized,indexed-job-25-v2rjf,32,indexed-job,5
5070,5.0,Ready,indexed-job-25-v2rjf,32,indexed-job,5
5071,5.0,ContainersReady,indexed-job-25-v2rjf,32,indexed-job,5
5072,0.0,PodScheduled,indexed-job-18-f72ts,32,indexed-job,5
5073,0.0,Initialized,indexed-job-18-f72ts,32,indexed-job,5
5074,11.0,Ready,indexed-job-18-f72ts,32,indexed-job,5
5075,11.0,ContainersReady,indexed-job-18-f72ts,32,indexed-job,5
5076,0.0,PodScheduled,indexed-job-17-ck2qs,32,indexed-job,5
5077,0.0,Initialized,indexed-job-17-ck2qs,32,indexed-job,5
5078,15.0,Ready,indexed-job-17-ck2qs,32,indexed-job,5
5079,15.0,ContainersReady,indexed-job-17-ck2qs,32,indexed-job,5
5080,0.0,PodScheduled,indexed-job-16-xhsmj,32,indexed-job,5
5081,0.0,Initialized,indexed-job-16-xhsmj,32,indexed-job,5
5082,17.0,Ready,indexed-job-16-xhsmj,32,indexed-job,5
5083,17.0,ContainersReady,indexed-job-16-xhsmj,32,indexed-job,5
5084,0.0,PodScheduled,indexed-job-27-r8xn6,32,indexed-job,5
5085,0.0,Initialized,indexed-job-27-r8xn6,32,indexed-job,5
5086,12.0,Ready,indexed-job-27-r8xn6,32,indexed-job,5
5087,12.0,ContainersReady,indexed-job-27-r8xn6,32,indexed-job,5
5088,0.0,PodScheduled,indexed-job-15-hv4hr,32,indexed-job,5
5089,0.0,Initialized,indexed-job-15-hv4hr,32,indexed-job,5
5090,15.0,Ready,indexed-job-15-hv4hr,32,indexed-job,5
5091,15.0,ContainersReady,indexed-job-15-hv4hr,32,indexed-job,5
5092,0.0,PodScheduled,indexed-job-20-xbbtx,32,indexed-job,5
5093,0.0,Initialized,indexed-job-20-xbbtx,32,indexed-job,5
5094,5.0,Ready,indexed-job-20-xbbtx,32,indexed-job,5
5095,5.0,ContainersReady,indexed-job-20-xbbtx,32,indexed-job,5
5096,0.0,PodScheduled,indexed-job-19-bzbtc,32,indexed-job,5
5097,0.0,Initialized,indexed-job-19-bzbtc,32,indexed-job,5
5098,19.0,Ready,indexed-job-19-bzbtc,32,indexed-job,5
5099,19.0,ContainersReady,indexed-job-19-bzbtc,32,indexed-job,5
5100,0.0,PodScheduled,indexed-job-21-ht8x2,32,indexed-job,5
5101,0.0,Initialized,indexed-job-21-ht8x2,32,indexed-job,5
5102,20.0,Ready,indexed-job-21-ht8x2,32,indexed-job,5
5103,20.0,ContainersReady,indexed-job-21-ht8x2,32,indexed-job,5
5104,0.0,PodScheduled,indexed-job-22-fkj4p,32,indexed-job,5
5105,0.0,Initialized,indexed-job-22-fkj4p,32,indexed-job,5
5106,18.0,Ready,indexed-job-22-fkj4p,32,indexed-job,5
5107,18.0,ContainersReady,indexed-job-22-fkj4p,32,indexed-job,5
5108,0.0,PodScheduled,indexed-job-31-7jh96,32,indexed-job,5
5109,0.0,Initialized,indexed-job-31-7jh96,32,indexed-job,5
5110,21.0,Ready,indexed-job-31-7jh96,32,indexed-job,5
5111,21.0,ContainersReady,indexed-job-31-7jh96,32,indexed-job,5
5112,17.963,watch_create,all,32,pods,17
5113,33.229,watch_delete,all,32,pods,17
5114,0.0,PodScheduled,pod-0,32,pods,17
5115,0.0,Initialized,pod-0,32,pods,17
5116,2.0,Ready,pod-0,32,pods,17
5117,2.0,ContainersReady,pod-0,32,pods,17
5118,0.0,PodScheduled,pod-1,32,pods,17
5119,0.0,Initialized,pod-1,32,pods,17
5120,2.0,Ready,pod-1,32,pods,17
5121,2.0,ContainersReady,pod-1,32,pods,17
5122,0.0,PodScheduled,pod-2,32,pods,17
5123,0.0,Initialized,pod-2,32,pods,17
5124,3.0,Ready,pod-2,32,pods,17
5125,3.0,ContainersReady,pod-2,32,pods,17
5126,0.0,PodScheduled,pod-3,32,pods,17
5127,0.0,Initialized,pod-3,32,pods,17
5128,3.0,Ready,pod-3,32,pods,17
5129,3.0,ContainersReady,pod-3,32,pods,17
5130,0.0,PodScheduled,pod-4,32,pods,17
5131,0.0,Initialized,pod-4,32,pods,17
5132,4.0,Ready,pod-4,32,pods,17
5133,4.0,ContainersReady,pod-4,32,pods,17
5134,0.0,PodScheduled,pod-5,32,pods,17
5135,0.0,Initialized,pod-5,32,pods,17
5136,4.0,Ready,pod-5,32,pods,17
5137,4.0,ContainersReady,pod-5,32,pods,17
5138,0.0,PodScheduled,pod-6,32,pods,17
5139,0.0,Initialized,pod-6,32,pods,17
5140,6.0,Ready,pod-6,32,pods,17
5141,6.0,ContainersReady,pod-6,32,pods,17
5142,0.0,PodScheduled,pod-7,32,pods,17
5143,0.0,Initialized,pod-7,32,pods,17
5144,5.0,Ready,pod-7,32,pods,17
5145,5.0,ContainersReady,pod-7,32,pods,17
5146,0.0,PodScheduled,pod-8,32,pods,17
5147,0.0,Initialized,pod-8,32,pods,17
5148,6.0,Ready,pod-8,32,pods,17
5149,6.0,ContainersReady,pod-8,32,pods,17
5150,0.0,PodScheduled,pod-9,32,pods,17
5151,0.0,Initialized,pod-9,32,pods,17
5152,7.0,Ready,pod-9,32,pods,17
5153,7.0,ContainersReady,pod-9,32,pods,17
5154,0.0,PodScheduled,pod-10,32,pods,17
5155,0.0,Initialized,pod-10,32,pods,17
5156,7.0,Ready,pod-10,32,pods,17
5157,7.0,ContainersReady,pod-10,32,pods,17
5158,0.0,PodScheduled,pod-11,32,pods,17
5159,0.0,Initialized,pod-11,32,pods,17
5160,7.0,Ready,pod-11,32,pods,17
5161,7.0,ContainersReady,pod-11,32,pods,17
5162,0.0,PodScheduled,pod-12,32,pods,17
5163,0.0,Initialized,pod-12,32,pods,17
5164,8.0,Ready,pod-12,32,pods,17
5165,8.0,ContainersReady,pod-12,32,pods,17
5166,0.0,PodScheduled,pod-13,32,pods,17
5167,0.0,Initialized,pod-13,32,pods,17
5168,8.0,Ready,pod-13,32,pods,17
5169,8.0,ContainersReady,pod-13,32,pods,17
5170,0.0,PodScheduled,pod-14,32,pods,17
5171,0.0,Initialized,pod-14,32,pods,17
5172,9.0,Ready,pod-14,32,pods,17
5173,9.0,ContainersReady,pod-14,32,pods,17
5174,0.0,PodScheduled,pod-15,32,pods,17
5175,0.0,Initialized,pod-15,32,pods,17
5176,10.0,Ready,pod-15,32,pods,17
5177,10.0,ContainersReady,pod-15,32,pods,17
5178,0.0,PodScheduled,pod-16,32,pods,17
5179,0.0,Initialized,pod-16,32,pods,17
5180,10.0,Ready,pod-16,32,pods,17
5181,10.0,ContainersReady,pod-16,32,pods,17
5182,0.0,PodScheduled,pod-17,32,pods,17
5183,0.0,Initialized,pod-17,32,pods,17
5184,15.0,Ready,pod-17,32,pods,17
5185,15.0,ContainersReady,pod-17,32,pods,17
5186,0.0,PodScheduled,pod-18,32,pods,17
5187,0.0,Initialized,pod-18,32,pods,17
5188,11.0,Ready,pod-18,32,pods,17
5189,11.0,ContainersReady,pod-18,32,pods,17
5190,0.0,PodScheduled,pod-19,32,pods,17
5191,0.0,Initialized,pod-19,32,pods,17
5192,11.0,Ready,pod-19,32,pods,17
5193,11.0,ContainersReady,pod-19,32,pods,17
5194,0.0,PodScheduled,pod-20,32,pods,17
5195,0.0,Initialized,pod-20,32,pods,17
5196,9.0,Ready,pod-20,32,pods,17
5197,9.0,ContainersReady,pod-20,32,pods,17
5198,0.0,PodScheduled,pod-21,32,pods,17
5199,0.0,Initialized,pod-21,32,pods,17
5200,14.0,Ready,pod-21,32,pods,17
5201,14.0,ContainersReady,pod-21,32,pods,17
5202,0.0,PodScheduled,pod-22,32,pods,17
5203,0.0,Initialized,pod-22,32,pods,17
5204,14.0,Ready,pod-22,32,pods,17
5205,14.0,ContainersReady,pod-22,32,pods,17
5206,0.0,PodScheduled,pod-23,32,pods,17
5207,0.0,Initialized,pod-23,32,pods,17
5208,12.0,Ready,pod-23,32,pods,17
5209,12.0,ContainersReady,pod-23,32,pods,17
5210,0.0,PodScheduled,pod-24,32,pods,17
5211,0.0,Initialized,pod-24,32,pods,17
5212,16.0,Ready,pod-24,32,pods,17
5213,16.0,ContainersReady,pod-24,32,pods,17
5214,0.0,PodScheduled,pod-25,32,pods,17
5215,0.0,Initialized,pod-25,32,pods,17
5216,13.0,Ready,pod-25,32,pods,17
5217,13.0,ContainersReady,pod-25,32,pods,17
5218,0.0,PodScheduled,pod-26,32,pods,17
5219,0.0,Initialized,pod-26,32,pods,17
5220,13.0,Ready,pod-26,32,pods,17
5221,13.0,ContainersReady,pod-26,32,pods,17
5222,0.0,PodScheduled,pod-27,32,pods,17
5223,0.0,Initialized,pod-27,32,pods,17
5224,17.0,Ready,pod-27,32,pods,17
5225,17.0,ContainersReady,pod-27,32,pods,17
5226,0.0,PodScheduled,pod-28,32,pods,17
5227,0.0,Initialized,pod-28,32,pods,17
5228,16.0,Ready,pod-28,32,pods,17
5229,16.0,ContainersReady,pod-28,32,pods,17
5230,0.0,PodScheduled,pod-29,32,pods,17
5231,0.0,Initialized,pod-29,32,pods,17
5232,15.0,Ready,pod-29,32,pods,17
5233,15.0,ContainersReady,pod-29,32,pods,17
5234,0.0,PodScheduled,pod-30,32,pods,17
5235,0.0,Initialized,pod-30,32,pods,17
5236,12.0,Ready,pod-30,32,pods,17
5237,12.0,ContainersReady,pod-30,32,pods,17
5238,0.0,PodScheduled,pod-31,32,pods,17
5239,0.0,Initialized,pod-31,32,pods,17
5240,17.0,Ready,pod-31,32,pods,17
5241,17.0,ContainersReady,pod-31,32,pods,17
5242,16.809,watch_create,all,32,indexed-job,2
5243,34.27,watch_delete,all,32,indexed-job,2
5244,0.0,PodScheduled,indexed-job-0-wnxx6,32,indexed-job,2
5245,0.0,Initialized,indexed-job-0-wnxx6,32,indexed-job,2
5246,3.0,Ready,indexed-job-0-wnxx6,32,indexed-job,2
5247,3.0,ContainersReady,indexed-job-0-wnxx6,32,indexed-job,2
5248,0.0,PodScheduled,indexed-job-2-4n9vd,32,indexed-job,2
5249,0.0,Initialized,indexed-job-2-4n9vd,32,indexed-job,2
5250,2.0,Ready,indexed-job-2-4n9vd,32,indexed-job,2
5251,2.0,ContainersReady,indexed-job-2-4n9vd,32,indexed-job,2
5252,0.0,PodScheduled,indexed-job-1-xjt5v,32,indexed-job,2
5253,0.0,Initialized,indexed-job-1-xjt5v,32,indexed-job,2
5254,4.0,Ready,indexed-job-1-xjt5v,32,indexed-job,2
5255,4.0,ContainersReady,indexed-job-1-xjt5v,32,indexed-job,2
5256,0.0,PodScheduled,indexed-job-3-b669d,32,indexed-job,2
5257,0.0,Initialized,indexed-job-3-b669d,32,indexed-job,2
5258,10.0,Ready,indexed-job-3-b669d,32,indexed-job,2
5259,10.0,ContainersReady,indexed-job-3-b669d,32,indexed-job,2
5260,0.0,PodScheduled,indexed-job-6-fwsxv,32,indexed-job,2
5261,0.0,Initialized,indexed-job-6-fwsxv,32,indexed-job,2
5262,4.0,Ready,indexed-job-6-fwsxv,32,indexed-job,2
5263,4.0,ContainersReady,indexed-job-6-fwsxv,32,indexed-job,2
5264,0.0,PodScheduled,indexed-job-5-rl7tr,32,indexed-job,2
5265,0.0,Initialized,indexed-job-5-rl7tr,32,indexed-job,2
5266,15.0,Ready,indexed-job-5-rl7tr,32,indexed-job,2
5267,15.0,ContainersReady,indexed-job-5-rl7tr,32,indexed-job,2
5268,0.0,PodScheduled,indexed-job-4-kdhrk,32,indexed-job,2
5269,0.0,Initialized,indexed-job-4-kdhrk,32,indexed-job,2
5270,3.0,Ready,indexed-job-4-kdhrk,32,indexed-job,2
5271,3.0,ContainersReady,indexed-job-4-kdhrk,32,indexed-job,2
5272,0.0,PodScheduled,indexed-job-11-r5m5b,32,indexed-job,2
5273,0.0,Initialized,indexed-job-11-r5m5b,32,indexed-job,2
5274,7.0,Ready,indexed-job-11-r5m5b,32,indexed-job,2
5275,7.0,ContainersReady,indexed-job-11-r5m5b,32,indexed-job,2
5276,0.0,PodScheduled,indexed-job-14-gmphb,32,indexed-job,2
5277,0.0,Initialized,indexed-job-14-gmphb,32,indexed-job,2
5278,5.0,Ready,indexed-job-14-gmphb,32,indexed-job,2
5279,5.0,ContainersReady,indexed-job-14-gmphb,32,indexed-job,2
5280,0.0,PodScheduled,indexed-job-10-57ltm,32,indexed-job,2
5281,0.0,Initialized,indexed-job-10-57ltm,32,indexed-job,2
5282,6.0,Ready,indexed-job-10-57ltm,32,indexed-job,2
5283,6.0,ContainersReady,indexed-job-10-57ltm,32,indexed-job,2
5284,0.0,PodScheduled,indexed-job-8-wjq7q,32,indexed-job,2
5285,0.0,Initialized,indexed-job-8-wjq7q,32,indexed-job,2
5286,5.0,Ready,indexed-job-8-wjq7q,32,indexed-job,2
5287,5.0,ContainersReady,indexed-job-8-wjq7q,32,indexed-job,2
5288,0.0,PodScheduled,indexed-job-13-zfk4p,32,indexed-job,2
5289,0.0,Initialized,indexed-job-13-zfk4p,32,indexed-job,2
5290,14.0,Ready,indexed-job-13-zfk4p,32,indexed-job,2
5291,14.0,ContainersReady,indexed-job-13-zfk4p,32,indexed-job,2
5292,0.0,PodScheduled,indexed-job-7-qw2gn,32,indexed-job,2
5293,0.0,Initialized,indexed-job-7-qw2gn,32,indexed-job,2
5294,9.0,Ready,indexed-job-7-qw2gn,32,indexed-job,2
5295,9.0,ContainersReady,indexed-job-7-qw2gn,32,indexed-job,2
5296,0.0,PodScheduled,indexed-job-12-6pxzs,32,indexed-job,2
5297,0.0,Initialized,indexed-job-12-6pxzs,32,indexed-job,2
5298,10.0,Ready,indexed-job-12-6pxzs,32,indexed-job,2
5299,10.0,ContainersReady,indexed-job-12-6pxzs,32,indexed-job,2
5300,0.0,PodScheduled,indexed-job-9-cv5g4,32,indexed-job,2
5301,0.0,Initialized,indexed-job-9-cv5g4,32,indexed-job,2
5302,15.0,Ready,indexed-job-9-cv5g4,32,indexed-job,2
5303,15.0,ContainersReady,indexed-job-9-cv5g4,32,indexed-job,2
5304,0.0,PodScheduled,indexed-job-30-xhwch,32,indexed-job,2
5305,0.0,Initialized,indexed-job-30-xhwch,32,indexed-job,2
5306,13.0,Ready,indexed-job-30-xhwch,32,indexed-job,2
5307,13.0,ContainersReady,indexed-job-30-xhwch,32,indexed-job,2
5308,0.0,PodScheduled,indexed-job-23-ghc6d,32,indexed-job,2
5309,0.0,Initialized,indexed-job-23-ghc6d,32,indexed-job,2
5310,6.0,Ready,indexed-job-23-ghc6d,32,indexed-job,2
5311,6.0,ContainersReady,indexed-job-23-ghc6d,32,indexed-job,2
5312,0.0,PodScheduled,indexed-job-15-qqpq7,32,indexed-job,2
5313,0.0,Initialized,indexed-job-15-qqpq7,32,indexed-job,2
5314,11.0,Ready,indexed-job-15-qqpq7,32,indexed-job,2
5315,11.0,ContainersReady,indexed-job-15-qqpq7,32,indexed-job,2
5316,0.0,PodScheduled,indexed-job-17-jlcl6,32,indexed-job,2
5317,0.0,Initialized,indexed-job-17-jlcl6,32,indexed-job,2
5318,14.0,Ready,indexed-job-17-jlcl6,32,indexed-job,2
5319,14.0,ContainersReady,indexed-job-17-jlcl6,32,indexed-job,2
5320,0.0,PodScheduled,indexed-job-22-z7zrc,32,indexed-job,2
5321,0.0,Initialized,indexed-job-22-z7zrc,32,indexed-job,2
5322,13.0,Ready,indexed-job-22-z7zrc,32,indexed-job,2
5323,13.0,ContainersReady,indexed-job-22-z7zrc,32,indexed-job,2
5324,0.0,PodScheduled,indexed-job-16-jxxj5,32,indexed-job,2
5325,0.0,Initialized,indexed-job-16-jxxj5,32,indexed-job,2
5326,12.0,Ready,indexed-job-16-jxxj5,32,indexed-job,2
5327,12.0,ContainersReady,indexed-job-16-jxxj5,32,indexed-job,2
5328,0.0,PodScheduled,indexed-job-24-sjz86,32,indexed-job,2
5329,0.0,Initialized,indexed-job-24-sjz86,32,indexed-job,2
5330,16.0,Ready,indexed-job-24-sjz86,32,indexed-job,2
5331,16.0,ContainersReady,indexed-job-24-sjz86,32,indexed-job,2
5332,0.0,PodScheduled,indexed-job-27-zl8b9,32,indexed-job,2
5333,0.0,Initialized,indexed-job-27-zl8b9,32,indexed-job,2
5334,8.0,Ready,indexed-job-27-zl8b9,32,indexed-job,2
5335,8.0,ContainersReady,indexed-job-27-zl8b9,32,indexed-job,2
5336,0.0,PodScheduled,indexed-job-18-q2qbg,32,indexed-job,2
5337,0.0,Initialized,indexed-job-18-q2qbg,32,indexed-job,2
5338,11.0,Ready,indexed-job-18-q2qbg,32,indexed-job,2
5339,11.0,ContainersReady,indexed-job-18-q2qbg,32,indexed-job,2
5340,0.0,PodScheduled,indexed-job-19-hzdbj,32,indexed-job,2
5341,0.0,Initialized,indexed-job-19-hzdbj,32,indexed-job,2
5342,8.0,Ready,indexed-job-19-hzdbj,32,indexed-job,2
5343,8.0,ContainersReady,indexed-job-19-hzdbj,32,indexed-job,2
5344,0.0,PodScheduled,indexed-job-20-pz8md,32,indexed-job,2
5345,0.0,Initialized,indexed-job-20-pz8md,32,indexed-job,2
5346,9.0,Ready,indexed-job-20-pz8md,32,indexed-job,2
5347,9.0,ContainersReady,indexed-job-20-pz8md,32,indexed-job,2
5348,0.0,PodScheduled,indexed-job-25-bv985,32,indexed-job,2
5349,0.0,Initialized,indexed-job-25-bv985,32,indexed-job,2
5350,7.0,Ready,indexed-job-25-bv985,32,indexed-job,2
5351,7.0,ContainersReady,indexed-job-25-bv985,32,indexed-job,2
5352,0.0,PodScheduled,indexed-job-28-ksmvt,32,indexed-job,2
5353,0.0,Initialized,indexed-job-28-ksmvt,32,indexed-job,2
5354,12.0,Ready,indexed-job-28-ksmvt,32,indexed-job,2
5355,12.0,ContainersReady,indexed-job-28-ksmvt,32,indexed-job,2
5356,0.0,PodScheduled,indexed-job-26-9f4c2,32,indexed-job,2
5357,0.0,Initialized,indexed-job-26-9f4c2,32,indexed-job,2
5358,16.0,Ready,indexed-job-26-9f4c2,32,indexed-job,2
5359,16.0,ContainersReady,indexed-job-26-9f4c2,32,indexed-job,2
5360,0.0,PodScheduled,indexed-job-29-jkpt6,32,indexed-job,2
5361,0.0,Initialized,indexed-job-29-jkpt6,32,indexed-job,2
5362,17.0,Ready,indexed-job-29-jkpt6,32,indexed-job,2
5363,17.0,ContainersReady,indexed-job-29-jkpt6,32,indexed-job,2
5364,0.0,PodScheduled,indexed-job-21-4nbfc,32,indexed-job,2
5365,0.0,Initialized,indexed-job-21-4nbfc,32,indexed-job,2
5366,17.0,Ready,indexed-job-21-4nbfc,32,indexed-job,2
5367,17.0,ContainersReady,indexed-job-21-4nbfc,32,indexed-job,2
5368,0.0,PodScheduled,indexed-job-31-ds2vj,32,indexed-job,2
5369,0.0,Initialized,indexed-job-31-ds2vj,32,indexed-job,2
5370,17.0,Ready,indexed-job-31-ds2vj,32,indexed-job,2
5371,17.0,ContainersReady,indexed-job-31-ds2vj,32,indexed-job,2
5372,18.72,watch_create,all,32,pods,0
5373,33.29,watch_delete,all,32,pods,0
5374,0.0,PodScheduled,pod-0,32,pods,0
5375,0.0,Initialized,pod-0,32,pods,0
5376,2.0,Ready,pod-0,32,pods,0
5377,2.0,ContainersReady,pod-0,32,pods,0
5378,0.0,PodScheduled,pod-1,32,pods,0
5379,0.0,Initialized,pod-1,32,pods,0
5380,3.0,Ready,pod-1,32,pods,0
5381,3.0,ContainersReady,pod-1,32,pods,0
5382,1.0,PodScheduled,pod-2,32,pods,0
5383,1.0,Initialized,pod-2,32,pods,0
5384,3.0,Ready,pod-2,32,pods,0
5385,3.0,ContainersReady,pod-2,32,pods,0
5386,0.0,PodScheduled,pod-3,32,pods,0
5387,0.0,Initialized,pod-3,32,pods,0
5388,3.0,Ready,pod-3,32,pods,0
5389,3.0,ContainersReady,pod-3,32,pods,0
5390,0.0,PodScheduled,pod-4,32,pods,0
5391,0.0,Initialized,pod-4,32,pods,0
5392,4.0,Ready,pod-4,32,pods,0
5393,4.0,ContainersReady,pod-4,32,pods,0
5394,0.0,PodScheduled,pod-5,32,pods,0
5395,0.0,Initialized,pod-5,32,pods,0
5396,3.0,Ready,pod-5,32,pods,0
5397,3.0,ContainersReady,pod-5,32,pods,0
5398,0.0,PodScheduled,pod-6,32,pods,0
5399,0.0,Initialized,pod-6,32,pods,0
5400,5.0,Ready,pod-6,32,pods,0
5401,5.0,ContainersReady,pod-6,32,pods,0
5402,0.0,PodScheduled,pod-7,32,pods,0
5403,0.0,Initialized,pod-7,32,pods,0
5404,6.0,Ready,pod-7,32,pods,0
5405,6.0,ContainersReady,pod-7,32,pods,0
5406,0.0,PodScheduled,pod-8,32,pods,0
5407,0.0,Initialized,pod-8,32,pods,0
5408,7.0,Ready,pod-8,32,pods,0
5409,7.0,ContainersReady,pod-8,32,pods,0
5410,0.0,PodScheduled,pod-9,32,pods,0
5411,0.0,Initialized,pod-9,32,pods,0
5412,5.0,Ready,pod-9,32,pods,0
5413,5.0,ContainersReady,pod-9,32,pods,0
5414,0.0,PodScheduled,pod-10,32,pods,0
5415,0.0,Initialized,pod-10,32,pods,0
5416,6.0,Ready,pod-10,32,pods,0
5417,6.0,ContainersReady,pod-10,32,pods,0
5418,0.0,PodScheduled,pod-11,32,pods,0
5419,0.0,Initialized,pod-11,32,pods,0
5420,9.0,Ready,pod-11,32,pods,0
5421,9.0,ContainersReady,pod-11,32,pods,0
5422,0.0,PodScheduled,pod-12,32,pods,0
5423,0.0,Initialized,pod-12,32,pods,0
5424,10.0,Ready,pod-12,32,pods,0
5425,10.0,ContainersReady,pod-12,32,pods,0
5426,0.0,PodScheduled,pod-13,32,pods,0
5427,0.0,Initialized,pod-13,32,pods,0
5428,4.0,Ready,pod-13,32,pods,0
5429,4.0,ContainersReady,pod-13,32,pods,0
5430,0.0,PodScheduled,pod-14,32,pods,0
5431,0.0,Initialized,pod-14,32,pods,0
5432,8.0,Ready,pod-14,32,pods,0
5433,8.0,ContainersReady,pod-14,32,pods,0
5434,0.0,PodScheduled,pod-15,32,pods,0
5435,0.0,Initialized,pod-15,32,pods,0
5436,7.0,Ready,pod-15,32,pods,0
5437,7.0,ContainersReady,pod-15,32,pods,0
5438,0.0,PodScheduled,pod-16,32,pods,0
5439,0.0,Initialized,pod-16,32,pods,0
5440,9.0,Ready,pod-16,32,pods,0
5441,9.0,ContainersReady,pod-16,32,pods,0
5442,0.0,PodScheduled,pod-17,32,pods,0
5443,0.0,Initialized,pod-17,32,pods,0
5444,10.0,Ready,pod-17,32,pods,0
5445,10.0,ContainersReady,pod-17,32,pods,0
5446,0.0,PodScheduled,pod-18,32,pods,0
5447,0.0,Initialized,pod-18,32,pods,0
5448,11.0,Ready,pod-18,32,pods,0
5449,11.0,ContainersReady,pod-18,32,pods,0
5450,0.0,PodScheduled,pod-19,32,pods,0
5451,0.0,Initialized,pod-19,32,pods,0
5452,11.0,Ready,pod-19,32,pods,0
5453,11.0,ContainersReady,pod-19,32,pods,0
5454,0.0,PodScheduled,pod-20,32,pods,0
5455,0.0,Initialized,pod-20,32,pods,0
5456,12.0,Ready,pod-20,32,pods,0
5457,12.0,ContainersReady,pod-20,32,pods,0
5458,0.0,PodScheduled,pod-21,32,pods,0
5459,0.0,Initialized,pod-21,32,pods,0
5460,8.0,Ready,pod-21,32,pods,0
5461,8.0,ContainersReady,pod-21,32,pods,0
5462,0.0,PodScheduled,pod-22,32,pods,0
5463,0.0,Initialized,pod-22,32,pods,0
5464,15.0,Ready,pod-22,32,pods,0
5465,15.0,ContainersReady,pod-22,32,pods,0
5466,0.0,PodScheduled,pod-23,32,pods,0
5467,0.0,Initialized,pod-23,32,pods,0
5468,17.0,Ready,pod-23,32,pods,0
5469,17.0,ContainersReady,pod-23,32,pods,0
5470,0.0,PodScheduled,pod-24,32,pods,0
5471,0.0,Initialized,pod-24,32,pods,0
5472,12.0,Ready,pod-24,32,pods,0
5473,12.0,ContainersReady,pod-24,32,pods,0
5474,0.0,PodScheduled,pod-25,32,pods,0
5475,0.0,Initialized,pod-25,32,pods,0
5476,17.0,Ready,pod-25,32,pods,0
5477,17.0,ContainersReady,pod-25,32,pods,0
5478,0.0,PodScheduled,pod-26,32,pods,0
5479,0.0,Initialized,pod-26,32,pods,0
5480,13.0,Ready,pod-26,32,pods,0
5481,13.0,ContainersReady,pod-26,32,pods,0
5482,0.0,PodScheduled,pod-27,32,pods,0
5483,0.0,Initialized,pod-27,32,pods,0
5484,13.0,Ready,pod-27,32,pods,0
5485,13.0,ContainersReady,pod-27,32,pods,0
5486,0.0,PodScheduled,pod-28,32,pods,0
5487,0.0,Initialized,pod-28,32,pods,0
5488,14.0,Ready,pod-28,32,pods,0
5489,14.0,ContainersReady,pod-28,32,pods,0
5490,0.0,PodScheduled,pod-29,32,pods,0
5491,0.0,Initialized,pod-29,32,pods,0
5492,16.0,Ready,pod-29,32,pods,0
5493,16.0,ContainersReady,pod-29,32,pods,0
5494,0.0,PodScheduled,pod-30,32,pods,0
5495,0.0,Initialized,pod-30,32,pods,0
5496,16.0,Ready,pod-30,32,pods,0
5497,16.0,ContainersReady,pod-30,32,pods,0
5498,0.0,PodScheduled,pod-31,32,pods,0
5499,0.0,Initialized,pod-31,32,pods,0
5500,14.0,Ready,pod-31,32,pods,0
5501,14.0,ContainersReady,pod-31,32,pods,0
5502,16.751,watch_create,all,32,indexed-job,15
5503,33.235,watch_delete,all,32,indexed-job,15
5504,0.0,PodScheduled,indexed-job-0-9vr7q,32,indexed-job,15
5505,0.0,Initialized,indexed-job-0-9vr7q,32,indexed-job,15
5506,1.0,Ready,indexed-job-0-9vr7q,32,indexed-job,15
5507,1.0,ContainersReady,indexed-job-0-9vr7q,32,indexed-job,15
5508,0.0,PodScheduled,indexed-job-1-phhph,32,indexed-job,15
5509,0.0,Initialized,indexed-job-1-phhph,32,indexed-job,15
5510,4.0,Ready,indexed-job-1-phhph,32,indexed-job,15
5511,4.0,ContainersReady,indexed-job-1-phhph,32,indexed-job,15
5512,0.0,PodScheduled,indexed-job-2-btwns,32,indexed-job,15
5513,0.0,Initialized,indexed-job-2-btwns,32,indexed-job,15
5514,2.0,Ready,indexed-job-2-btwns,32,indexed-job,15
5515,2.0,ContainersReady,indexed-job-2-btwns,32,indexed-job,15
5516,0.0,PodScheduled,indexed-job-4-rzlsl,32,indexed-job,15
5517,0.0,Initialized,indexed-job-4-rzlsl,32,indexed-job,15
5518,16.0,Ready,indexed-job-4-rzlsl,32,indexed-job,15
5519,16.0,ContainersReady,indexed-job-4-rzlsl,32,indexed-job,15
5520,0.0,PodScheduled,indexed-job-3-9krmm,32,indexed-job,15
5521,0.0,Initialized,indexed-job-3-9krmm,32,indexed-job,15
5522,3.0,Ready,indexed-job-3-9krmm,32,indexed-job,15
5523,3.0,ContainersReady,indexed-job-3-9krmm,32,indexed-job,15
5524,0.0,PodScheduled,indexed-job-6-9jcnw,32,indexed-job,15
5525,0.0,Initialized,indexed-job-6-9jcnw,32,indexed-job,15
5526,2.0,Ready,indexed-job-6-9jcnw,32,indexed-job,15
5527,2.0,ContainersReady,indexed-job-6-9jcnw,32,indexed-job,15
5528,0.0,PodScheduled,indexed-job-5-l5df5,32,indexed-job,15
5529,0.0,Initialized,indexed-job-5-l5df5,32,indexed-job,15
5530,5.0,Ready,indexed-job-5-l5df5,32,indexed-job,15
5531,5.0,ContainersReady,indexed-job-5-l5df5,32,indexed-job,15
5532,0.0,PodScheduled,indexed-job-7-h5t9h,32,indexed-job,15
5533,0.0,Initialized,indexed-job-7-h5t9h,32,indexed-job,15
5534,3.0,Ready,indexed-job-7-h5t9h,32,indexed-job,15
5535,3.0,ContainersReady,indexed-job-7-h5t9h,32,indexed-job,15
5536,0.0,PodScheduled,indexed-job-13-tqghc,32,indexed-job,15
5537,0.0,Initialized,indexed-job-13-tqghc,32,indexed-job,15
5538,11.0,Ready,indexed-job-13-tqghc,32,indexed-job,15
5539,11.0,ContainersReady,indexed-job-13-tqghc,32,indexed-job,15
5540,0.0,PodScheduled,indexed-job-14-g79g9,32,indexed-job,15
5541,0.0,Initialized,indexed-job-14-g79g9,32,indexed-job,15
5542,15.0,Ready,indexed-job-14-g79g9,32,indexed-job,15
5543,15.0,ContainersReady,indexed-job-14-g79g9,32,indexed-job,15
5544,0.0,PodScheduled,indexed-job-11-8t8vb,32,indexed-job,15
5545,0.0,Initialized,indexed-job-11-8t8vb,32,indexed-job,15
5546,7.0,Ready,indexed-job-11-8t8vb,32,indexed-job,15
5547,7.0,ContainersReady,indexed-job-11-8t8vb,32,indexed-job,15
5548,0.0,PodScheduled,indexed-job-8-n8z5v,32,indexed-job,15
5549,0.0,Initialized,indexed-job-8-n8z5v,32,indexed-job,15
5550,14.0,Ready,indexed-job-8-n8z5v,32,indexed-job,15
5551,14.0,ContainersReady,indexed-job-8-n8z5v,32,indexed-job,15
5552,0.0,PodScheduled,indexed-job-12-46phn,32,indexed-job,15
5553,0.0,Initialized,indexed-job-12-46phn,32,indexed-job,15
5554,5.0,Ready,indexed-job-12-46phn,32,indexed-job,15
5555,5.0,ContainersReady,indexed-job-12-46phn,32,indexed-job,15
5556,0.0,PodScheduled,indexed-job-9-94xwm,32,indexed-job,15
5557,0.0,Initialized,indexed-job-9-94xwm,32,indexed-job,15
5558,9.0,Ready,indexed-job-9-94xwm,32,indexed-job,15
5559,9.0,ContainersReady,indexed-job-9-94xwm,32,indexed-job,15
5560,0.0,PodScheduled,indexed-job-10-67rtp,32,indexed-job,15
5561,0.0,Initialized,indexed-job-10-67rtp,32,indexed-job,15
5562,6.0,Ready,indexed-job-10-67rtp,32,indexed-job,15
5563,6.0,ContainersReady,indexed-job-10-67rtp,32,indexed-job,15
5564,0.0,PodScheduled,indexed-job-18-9xxp7,32,indexed-job,15
5565,0.0,Initialized,indexed-job-18-9xxp7,32,indexed-job,15
5566,7.0,Ready,indexed-job-18-9xxp7,32,indexed-job,15
5567,7.0,ContainersReady,indexed-job-18-9xxp7,32,indexed-job,15
5568,0.0,PodScheduled,indexed-job-26-w6dxq,32,indexed-job,15
5569,0.0,Initialized,indexed-job-26-w6dxq,32,indexed-job,15
5570,12.0,Ready,indexed-job-26-w6dxq,32,indexed-job,15
5571,12.0,ContainersReady,indexed-job-26-w6dxq,32,indexed-job,15
5572,0.0,PodScheduled,indexed-job-15-5jclt,32,indexed-job,15
5573,0.0,Initialized,indexed-job-15-5jclt,32,indexed-job,15
5574,9.0,Ready,indexed-job-15-5jclt,32,indexed-job,15
5575,9.0,ContainersReady,indexed-job-15-5jclt,32,indexed-job,15
5576,0.0,PodScheduled,indexed-job-21-klcsf,32,indexed-job,15
5577,0.0,Initialized,indexed-job-21-klcsf,32,indexed-job,15
5578,13.0,Ready,indexed-job-21-klcsf,32,indexed-job,15
5579,13.0,ContainersReady,indexed-job-21-klcsf,32,indexed-job,15
5580,0.0,PodScheduled,indexed-job-23-6hnnb,32,indexed-job,15
5581,0.0,Initialized,indexed-job-23-6hnnb,32,indexed-job,15
5582,10.0,Ready,indexed-job-23-6hnnb,32,indexed-job,15
5583,10.0,ContainersReady,indexed-job-23-6hnnb,32,indexed-job,15
5584,0.0,PodScheduled,indexed-job-25-fwfsn,32,indexed-job,15
5585,0.0,Initialized,indexed-job-25-fwfsn,32,indexed-job,15
5586,8.0,Ready,indexed-job-25-fwfsn,32,indexed-job,15
5587,8.0,ContainersReady,indexed-job-25-fwfsn,32,indexed-job,15
5588,0.0,PodScheduled,indexed-job-24-hdttv,32,indexed-job,15
5589,0.0,Initialized,indexed-job-24-hdttv,32,indexed-job,15
5590,16.0,Ready,indexed-job-24-hdttv,32,indexed-job,15
5591,16.0,ContainersReady,indexed-job-24-hdttv,32,indexed-job,15
5592,0.0,PodScheduled,indexed-job-17-cvgpg,32,indexed-job,15
5593,0.0,Initialized,indexed-job-17-cvgpg,32,indexed-job,15
5594,6.0,Ready,indexed-job-17-cvgpg,32,indexed-job,15
5595,6.0,ContainersReady,indexed-job-17-cvgpg,32,indexed-job,15
5596,0.0,PodScheduled,indexed-job-22-jw8sd,32,indexed-job,15
5597,0.0,Initialized,indexed-job-22-jw8sd,32,indexed-job,15
5598,12.0,Ready,indexed-job-22-jw8sd,32,indexed-job,15
5599,12.0,ContainersReady,indexed-job-22-jw8sd,32,indexed-job,15
5600,0.0,PodScheduled,indexed-job-16-4jw9h,32,indexed-job,15
5601,0.0,Initialized,indexed-job-16-4jw9h,32,indexed-job,15
5602,10.0,Ready,indexed-job-16-4jw9h,32,indexed-job,15
5603,10.0,ContainersReady,indexed-job-16-4jw9h,32,indexed-job,15
5604,0.0,PodScheduled,indexed-job-30-bswdg,32,indexed-job,15
5605,0.0,Initialized,indexed-job-30-bswdg,32,indexed-job,15
5606,11.0,Ready,indexed-job-30-bswdg,32,indexed-job,15
5607,11.0,ContainersReady,indexed-job-30-bswdg,32,indexed-job,15
5608,0.0,PodScheduled,indexed-job-19-bbb95,32,indexed-job,15
5609,0.0,Initialized,indexed-job-19-bbb95,32,indexed-job,15
5610,4.0,Ready,indexed-job-19-bbb95,32,indexed-job,15
5611,4.0,ContainersReady,indexed-job-19-bbb95,32,indexed-job,15
5612,0.0,PodScheduled,indexed-job-20-tbd8p,32,indexed-job,15
5613,0.0,Initialized,indexed-job-20-tbd8p,32,indexed-job,15
5614,14.0,Ready,indexed-job-20-tbd8p,32,indexed-job,15
5615,14.0,ContainersReady,indexed-job-20-tbd8p,32,indexed-job,15
5616,0.0,PodScheduled,indexed-job-27-lkb8w,32,indexed-job,15
5617,0.0,Initialized,indexed-job-27-lkb8w,32,indexed-job,15
5618,13.0,Ready,indexed-job-27-lkb8w,32,indexed-job,15
5619,13.0,ContainersReady,indexed-job-27-lkb8w,32,indexed-job,15
5620,0.0,PodScheduled,indexed-job-28-qhx6b,32,indexed-job,15
5621,0.0,Initialized,indexed-job-28-qhx6b,32,indexed-job,15
5622,11.0,Ready,indexed-job-28-qhx6b,32,indexed-job,15
5623,11.0,ContainersReady,indexed-job-28-qhx6b,32,indexed-job,15
5624,0.0,PodScheduled,indexed-job-29-n4qq5,32,indexed-job,15
5625,0.0,Initialized,indexed-job-29-n4qq5,32,indexed-job,15
5626,15.0,Ready,indexed-job-29-n4qq5,32,indexed-job,15
5627,15.0,ContainersReady,indexed-job-29-n4qq5,32,indexed-job,15
5628,0.0,PodScheduled,indexed-job-31-b6sr8,32,indexed-job,15
5629,0.0,Initialized,indexed-job-31-b6sr8,32,indexed-job,15
5630,8.0,Ready,indexed-job-31-b6sr8,32,indexed-job,15
5631,8.0,ContainersReady,indexed-job-31-b6sr8,32,indexed-job,15
5632,17.515,watch_create,all,32,indexed-job,9
5633,33.292,watch_delete,all,32,indexed-job,9
5634,0.0,PodScheduled,indexed-job-0-sd8g5,32,indexed-job,9
5635,0.0,Initialized,indexed-job-0-sd8g5,32,indexed-job,9
5636,2.0,Ready,indexed-job-0-sd8g5,32,indexed-job,9
5637,2.0,ContainersReady,indexed-job-0-sd8g5,32,indexed-job,9
5638,0.0,PodScheduled,indexed-job-2-n2djq,32,indexed-job,9
5639,0.0,Initialized,indexed-job-2-n2djq,32,indexed-job,9
5640,3.0,Ready,indexed-job-2-n2djq,32,indexed-job,9
5641,3.0,ContainersReady,indexed-job-2-n2djq,32,indexed-job,9
5642,0.0,PodScheduled,indexed-job-1-xj7kb,32,indexed-job,9
5643,0.0,Initialized,indexed-job-1-xj7kb,32,indexed-job,9
5644,2.0,Ready,indexed-job-1-xj7kb,32,indexed-job,9
5645,2.0,ContainersReady,indexed-job-1-xj7kb,32,indexed-job,9
5646,0.0,PodScheduled,indexed-job-4-fwdpx,32,indexed-job,9
5647,0.0,Initialized,indexed-job-4-fwdpx,32,indexed-job,9
5648,4.0,Ready,indexed-job-4-fwdpx,32,indexed-job,9
5649,4.0,ContainersReady,indexed-job-4-fwdpx,32,indexed-job,9
5650,0.0,PodScheduled,indexed-job-5-dr588,32,indexed-job,9
5651,0.0,Initialized,indexed-job-5-dr588,32,indexed-job,9
5652,8.0,Ready,indexed-job-5-dr588,32,indexed-job,9
5653,8.0,ContainersReady,indexed-job-5-dr588,32,indexed-job,9
5654,0.0,PodScheduled,indexed-job-6-jkgjk,32,indexed-job,9
5655,0.0,Initialized,indexed-job-6-jkgjk,32,indexed-job,9
5656,9.0,Ready,indexed-job-6-jkgjk,32,indexed-job,9
5657,9.0,ContainersReady,indexed-job-6-jkgjk,32,indexed-job,9
5658,0.0,PodScheduled,indexed-job-3-499lr,32,indexed-job,9
5659,0.0,Initialized,indexed-job-3-499lr,32,indexed-job,9
5660,3.0,Ready,indexed-job-3-499lr,32,indexed-job,9
5661,3.0,ContainersReady,indexed-job-3-499lr,32,indexed-job,9
5662,0.0,PodScheduled,indexed-job-7-wj8b9,32,indexed-job,9
5663,0.0,Initialized,indexed-job-7-wj8b9,32,indexed-job,9
5664,7.0,Ready,indexed-job-7-wj8b9,32,indexed-job,9
5665,7.0,ContainersReady,indexed-job-7-wj8b9,32,indexed-job,9
5666,0.0,PodScheduled,indexed-job-12-z982d,32,indexed-job,9
5667,0.0,Initialized,indexed-job-12-z982d,32,indexed-job,9
5668,6.0,Ready,indexed-job-12-z982d,32,indexed-job,9
5669,6.0,ContainersReady,indexed-job-12-z982d,32,indexed-job,9
5670,0.0,PodScheduled,indexed-job-13-6fvh6,32,indexed-job,9
5671,0.0,Initialized,indexed-job-13-6fvh6,32,indexed-job,9
5672,4.0,Ready,indexed-job-13-6fvh6,32,indexed-job,9
5673,4.0,ContainersReady,indexed-job-13-6fvh6,32,indexed-job,9
5674,0.0,PodScheduled,indexed-job-9-zr7jr,32,indexed-job,9
5675,0.0,Initialized,indexed-job-9-zr7jr,32,indexed-job,9
5676,5.0,Ready,indexed-job-9-zr7jr,32,indexed-job,9
5677,5.0,ContainersReady,indexed-job-9-zr7jr,32,indexed-job,9
5678,0.0,PodScheduled,indexed-job-11-bk7lx,32,indexed-job,9
5679,0.0,Initialized,indexed-job-11-bk7lx,32,indexed-job,9
5680,6.0,Ready,indexed-job-11-bk7lx,32,indexed-job,9
5681,6.0,ContainersReady,indexed-job-11-bk7lx,32,indexed-job,9
5682,0.0,PodScheduled,indexed-job-14-cmthm,32,indexed-job,9
5683,0.0,Initialized,indexed-job-14-cmthm,32,indexed-job,9
5684,8.0,Ready,indexed-job-14-cmthm,32,indexed-job,9
5685,8.0,ContainersReady,indexed-job-14-cmthm,32,indexed-job,9
5686,0.0,PodScheduled,indexed-job-10-z5g9x,32,indexed-job,9
5687,0.0,Initialized,indexed-job-10-z5g9x,32,indexed-job,9
5688,7.0,Ready,indexed-job-10-z5g9x,32,indexed-job,9
5689,7.0,ContainersReady,indexed-job-10-z5g9x,32,indexed-job,9
5690,0.0,PodScheduled,indexed-job-8-6h29q,32,indexed-job,9
5691,0.0,Initialized,indexed-job-8-6h29q,32,indexed-job,9
5692,14.0,Ready,indexed-job-8-6h29q,32,indexed-job,9
5693,14.0,ContainersReady,indexed-job-8-6h29q,32,indexed-job,9
5694,0.0,PodScheduled,indexed-job-30-md5g4,32,indexed-job,9
5695,0.0,Initialized,indexed-job-30-md5g4,32,indexed-job,9
5696,9.0,Ready,indexed-job-30-md5g4,32,indexed-job,9
5697,9.0,ContainersReady,indexed-job-30-md5g4,32,indexed-job,9
5698,0.0,PodScheduled,indexed-job-24-g2rtb,32,indexed-job,9
5699,0.0,Initialized,indexed-job-24-g2rtb,32,indexed-job,9
5700,11.0,Ready,indexed-job-24-g2rtb,32,indexed-job,9
5701,11.0,ContainersReady,indexed-job-24-g2rtb,32,indexed-job,9
5702,0.0,PodScheduled,indexed-job-17-zr7qp,32,indexed-job,9
5703,0.0,Initialized,indexed-job-17-zr7qp,32,indexed-job,9
5704,16.0,Ready,indexed-job-17-zr7qp,32,indexed-job,9
5705,16.0,ContainersReady,indexed-job-17-zr7qp,32,indexed-job,9
5706,0.0,PodScheduled,indexed-job-18-7p974,32,indexed-job,9
5707,0.0,Initialized,indexed-job-18-7p974,32,indexed-job,9
5708,13.0,Ready,indexed-job-18-7p974,32,indexed-job,9
5709,13.0,ContainersReady,indexed-job-18-7p974,32,indexed-job,9
5710,0.0,PodScheduled,indexed-job-23-gcvs8,32,indexed-job,9
5711,0.0,Initialized,indexed-job-23-gcvs8,32,indexed-job,9
5712,5.0,Ready,indexed-job-23-gcvs8,32,indexed-job,9
5713,5.0,ContainersReady,indexed-job-23-gcvs8,32,indexed-job,9
5714,0.0,PodScheduled,indexed-job-21-qxtv7,32,indexed-job,9
5715,0.0,Initialized,indexed-job-21-qxtv7,32,indexed-job,9
5716,13.0,Ready,indexed-job-21-qxtv7,32,indexed-job,9
5717,13.0,ContainersReady,indexed-job-21-qxtv7,32,indexed-job,9
5718,0.0,PodScheduled,indexed-job-20-955c4,32,indexed-job,9
5719,0.0,Initialized,indexed-job-20-955c4,32,indexed-job,9
5720,15.0,Ready,indexed-job-20-955c4,32,indexed-job,9
5721,15.0,ContainersReady,indexed-job-20-955c4,32,indexed-job,9
5722,0.0,PodScheduled,indexed-job-22-ql4ls,32,indexed-job,9
5723,0.0,Initialized,indexed-job-22-ql4ls,32,indexed-job,9
5724,14.0,Ready,indexed-job-22-ql4ls,32,indexed-job,9
5725,14.0,ContainersReady,indexed-job-22-ql4ls,32,indexed-job,9
5726,0.0,PodScheduled,indexed-job-26-t5n7c,32,indexed-job,9
5727,0.0,Initialized,indexed-job-26-t5n7c,32,indexed-job,9
5728,10.0,Ready,indexed-job-26-t5n7c,32,indexed-job,9
5729,10.0,ContainersReady,indexed-job-26-t5n7c,32,indexed-job,9
5730,0.0,PodScheduled,indexed-job-27-7k7n9,32,indexed-job,9
5731,0.0,Initialized,indexed-job-27-7k7n9,32,indexed-job,9
5732,11.0,Ready,indexed-job-27-7k7n9,32,indexed-job,9
5733,11.0,ContainersReady,indexed-job-27-7k7n9,32,indexed-job,9
5734,0.0,PodScheduled,indexed-job-16-z4w84,32,indexed-job,9
5735,0.0,Initialized,indexed-job-16-z4w84,32,indexed-job,9
5736,10.0,Ready,indexed-job-16-z4w84,32,indexed-job,9
5737,10.0,ContainersReady,indexed-job-16-z4w84,32,indexed-job,9
5738,0.0,PodScheduled,indexed-job-19-d8qqj,32,indexed-job,9
5739,0.0,Initialized,indexed-job-19-d8qqj,32,indexed-job,9
5740,12.0,Ready,indexed-job-19-d8qqj,32,indexed-job,9
5741,12.0,ContainersReady,indexed-job-19-d8qqj,32,indexed-job,9
5742,0.0,PodScheduled,indexed-job-25-q5tgl,32,indexed-job,9
5743,0.0,Initialized,indexed-job-25-q5tgl,32,indexed-job,9
5744,10.0,Ready,indexed-job-25-q5tgl,32,indexed-job,9
5745,10.0,ContainersReady,indexed-job-25-q5tgl,32,indexed-job,9
5746,0.0,PodScheduled,indexed-job-28-d7gwc,32,indexed-job,9
5747,0.0,Initialized,indexed-job-28-d7gwc,32,indexed-job,9
5748,12.0,Ready,indexed-job-28-d7gwc,32,indexed-job,9
5749,12.0,ContainersReady,indexed-job-28-d7gwc,32,indexed-job,9
5750,0.0,PodScheduled,indexed-job-15-8jc99,32,indexed-job,9
5751,0.0,Initialized,indexed-job-15-8jc99,32,indexed-job,9
5752,15.0,Ready,indexed-job-15-8jc99,32,indexed-job,9
5753,15.0,ContainersReady,indexed-job-15-8jc99,32,indexed-job,9
5754,0.0,PodScheduled,indexed-job-29-2jsmk,32,indexed-job,9
5755,0.0,Initialized,indexed-job-29-2jsmk,32,indexed-job,9
5756,17.0,Ready,indexed-job-29-2jsmk,32,indexed-job,9
5757,17.0,ContainersReady,indexed-job-29-2jsmk,32,indexed-job,9
5758,0.0,PodScheduled,indexed-job-31-p7v74,32,indexed-job,9
5759,0.0,Initialized,indexed-job-31-p7v74,32,indexed-job,9
5760,16.0,Ready,indexed-job-31-p7v74,32,indexed-job,9
5761,16.0,ContainersReady,indexed-job-31-p7v74,32,indexed-job,9
5762,18.959,watch_create,all,32,pods,13
5763,34.239,watch_delete,all,32,pods,13
5764,0.0,PodScheduled,pod-0,32,pods,13
5765,0.0,Initialized,pod-0,32,pods,13
5766,2.0,Ready,pod-0,32,pods,13
5767,2.0,ContainersReady,pod-0,32,pods,13
5768,0.0,PodScheduled,pod-1,32,pods,13
5769,0.0,Initialized,pod-1,32,pods,13
5770,3.0,Ready,pod-1,32,pods,13
5771,3.0,ContainersReady,pod-1,32,pods,13
5772,0.0,PodScheduled,pod-2,32,pods,13
5773,0.0,Initialized,pod-2,32,pods,13
5774,3.0,Ready,pod-2,32,pods,13
5775,3.0,ContainersReady,pod-2,32,pods,13
5776,0.0,PodScheduled,pod-3,32,pods,13
5777,0.0,Initialized,pod-3,32,pods,13
5778,4.0,Ready,pod-3,32,pods,13
5779,4.0,ContainersReady,pod-3,32,pods,13
5780,0.0,PodScheduled,pod-4,32,pods,13
5781,0.0,Initialized,pod-4,32,pods,13
5782,4.0,Ready,pod-4,32,pods,13
5783,4.0,ContainersReady,pod-4,32,pods,13
5784,0.0,PodScheduled,pod-5,32,pods,13
5785,0.0,Initialized,pod-5,32,pods,13
5786,5.0,Ready,pod-5,32,pods,13
5787,5.0,ContainersReady,pod-5,32,pods,13
5788,0.0,PodScheduled,pod-6,32,pods,13
5789,0.0,Initialized,pod-6,32,pods,13
5790,5.0,Ready,pod-6,32,pods,13
5791,5.0,ContainersReady,pod-6,32,pods,13
5792,0.0,PodScheduled,pod-7,32,pods,13
5793,0.0,Initialized,pod-7,32,pods,13
5794,6.0,Ready,pod-7,32,pods,13
5795,6.0,ContainersReady,pod-7,32,pods,13
5796,0.0,PodScheduled,pod-8,32,pods,13
5797,0.0,Initialized,pod-8,32,pods,13
5798,7.0,Ready,pod-8,32,pods,13
5799,7.0,ContainersReady,pod-8,32,pods,13
5800,0.0,PodScheduled,pod-9,32,pods,13
5801,0.0,Initialized,pod-9,32,pods,13
5802,6.0,Ready,pod-9,32,pods,13
5803,6.0,ContainersReady,pod-9,32,pods,13
5804,0.0,PodScheduled,pod-10,32,pods,13
5805,0.0,Initialized,pod-10,32,pods,13
5806,8.0,Ready,pod-10,32,pods,13
5807,8.0,ContainersReady,pod-10,32,pods,13
5808,0.0,PodScheduled,pod-11,32,pods,13
5809,0.0,Initialized,pod-11,32,pods,13
5810,9.0,Ready,pod-11,32,pods,13
5811,9.0,ContainersReady,pod-11,32,pods,13
5812,0.0,PodScheduled,pod-12,32,pods,13
5813,0.0,Initialized,pod-12,32,pods,13
5814,8.0,Ready,pod-12,32,pods,13
5815,8.0,ContainersReady,pod-12,32,pods,13
5816,0.0,PodScheduled,pod-13,32,pods,13
5817,0.0,Initialized,pod-13,32,pods,13
5818,12.0,Ready,pod-13,32,pods,13
5819,12.0,ContainersReady,pod-13,32,pods,13
5820,0.0,PodScheduled,pod-14,32,pods,13
5821,0.0,Initialized,pod-14,32,pods,13
5822,9.0,Ready,pod-14,32,pods,13
5823,9.0,ContainersReady,pod-14,32,pods,13
5824,0.0,PodScheduled,pod-15,32,pods,13
5825,1.0,Initialized,pod-15,32,pods,13
5826,10.0,Ready,pod-15,32,pods,13
5827,10.0,ContainersReady,pod-15,32,pods,13
5828,1.0,PodScheduled,pod-16,32,pods,13
5829,1.0,Initialized,pod-16,32,pods,13
5830,14.0,Ready,pod-16,32,pods,13
5831,14.0,ContainersReady,pod-16,32,pods,13
5832,0.0,PodScheduled,pod-17,32,pods,13
5833,0.0,Initialized,pod-17,32,pods,13
5834,9.0,Ready,pod-17,32,pods,13
5835,9.0,ContainersReady,pod-17,32,pods,13
5836,0.0,PodScheduled,pod-18,32,pods,13
5837,0.0,Initialized,pod-18,32,pods,13
5838,11.0,Ready,pod-18,32,pods,13
5839,11.0,ContainersReady,pod-18,32,pods,13
5840,0.0,PodScheduled,pod-19,32,pods,13
5841,0.0,Initialized,pod-19,32,pods,13
5842,12.0,Ready,pod-19,32,pods,13
5843,12.0,ContainersReady,pod-19,32,pods,13
5844,0.0,PodScheduled,pod-20,32,pods,13
5845,0.0,Initialized,pod-20,32,pods,13
5846,13.0,Ready,pod-20,32,pods,13
5847,13.0,ContainersReady,pod-20,32,pods,13
5848,0.0,PodScheduled,pod-21,32,pods,13
5849,0.0,Initialized,pod-21,32,pods,13
5850,10.0,Ready,pod-21,32,pods,13
5851,10.0,ContainersReady,pod-21,32,pods,13
5852,0.0,PodScheduled,pod-22,32,pods,13
5853,0.0,Initialized,pod-22,32,pods,13
5854,10.0,Ready,pod-22,32,pods,13
5855,10.0,ContainersReady,pod-22,32,pods,13
5856,0.0,PodScheduled,pod-23,32,pods,13
5857,0.0,Initialized,pod-23,32,pods,13
5858,6.0,Ready,pod-23,32,pods,13
5859,6.0,ContainersReady,pod-23,32,pods,13
5860,0.0,PodScheduled,pod-24,32,pods,13
5861,0.0,Initialized,pod-24,32,pods,13
5862,15.0,Ready,pod-24,32,pods,13
5863,15.0,ContainersReady,pod-24,32,pods,13
5864,0.0,PodScheduled,pod-25,32,pods,13
5865,0.0,Initialized,pod-25,32,pods,13
5866,17.0,Ready,pod-25,32,pods,13
5867,17.0,ContainersReady,pod-25,32,pods,13
5868,0.0,PodScheduled,pod-26,32,pods,13
5869,0.0,Initialized,pod-26,32,pods,13
5870,14.0,Ready,pod-26,32,pods,13
5871,14.0,ContainersReady,pod-26,32,pods,13
5872,0.0,PodScheduled,pod-27,32,pods,13
5873,0.0,Initialized,pod-27,32,pods,13
5874,16.0,Ready,pod-27,32,pods,13
5875,16.0,ContainersReady,pod-27,32,pods,13
5876,0.0,PodScheduled,pod-28,32,pods,13
5877,0.0,Initialized,pod-28,32,pods,13
5878,15.0,Ready,pod-28,32,pods,13
5879,15.0,ContainersReady,pod-28,32,pods,13
5880,0.0,PodScheduled,pod-29,32,pods,13
5881,0.0,Initialized,pod-29,32,pods,13
5882,17.0,Ready,pod-29,32,pods,13
5883,17.0,ContainersReady,pod-29,32,pods,13
5884,0.0,PodScheduled,pod-30,32,pods,13
5885,0.0,Initialized,pod-30,32,pods,13
5886,14.0,Ready,pod-30,32,pods,13
5887,14.0,ContainersReady,pod-30,32,pods,13
5888,0.0,PodScheduled,pod-31,32,pods,13
5889,0.0,Initialized,pod-31,32,pods,13
5890,16.0,Ready,pod-31,32,pods,13
5891,16.0,ContainersReady,pod-31,32,pods,13
5892,17.975,watch_create,all,32,pods,6
5893,34.185,watch_delete,all,32,pods,6
5894,0.0,PodScheduled,pod-0,32,pods,6
5895,0.0,Initialized,pod-0,32,pods,6
5896,2.0,Ready,pod-0,32,pods,6
5897,2.0,ContainersReady,pod-0,32,pods,6
5898,0.0,PodScheduled,pod-1,32,pods,6
5899,0.0,Initialized,pod-1,32,pods,6
5900,3.0,Ready,pod-1,32,pods,6
5901,3.0,ContainersReady,pod-1,32,pods,6
5902,0.0,PodScheduled,pod-2,32,pods,6
5903,0.0,Initialized,pod-2,32,pods,6
5904,2.0,Ready,pod-2,32,pods,6
5905,2.0,ContainersReady,pod-2,32,pods,6
5906,0.0,PodScheduled,pod-3,32,pods,6
5907,0.0,Initialized,pod-3,32,pods,6
5908,3.0,Ready,pod-3,32,pods,6
5909,3.0,ContainersReady,pod-3,32,pods,6
5910,0.0,PodScheduled,pod-4,32,pods,6
5911,0.0,Initialized,pod-4,32,pods,6
5912,4.0,Ready,pod-4,32,pods,6
5913,4.0,ContainersReady,pod-4,32,pods,6
5914,0.0,PodScheduled,pod-5,32,pods,6
5915,0.0,Initialized,pod-5,32,pods,6
5916,4.0,Ready,pod-5,32,pods,6
5917,4.0,ContainersReady,pod-5,32,pods,6
5918,0.0,PodScheduled,pod-6,32,pods,6
5919,0.0,Initialized,pod-6,32,pods,6
5920,5.0,Ready,pod-6,32,pods,6
5921,5.0,ContainersReady,pod-6,32,pods,6
5922,0.0,PodScheduled,pod-7,32,pods,6
5923,0.0,Initialized,pod-7,32,pods,6
5924,5.0,Ready,pod-7,32,pods,6
5925,5.0,ContainersReady,pod-7,32,pods,6
5926,0.0,PodScheduled,pod-8,32,pods,6
5927,0.0,Initialized,pod-8,32,pods,6
5928,6.0,Ready,pod-8,32,pods,6
5929,6.0,ContainersReady,pod-8,32,pods,6
5930,0.0,PodScheduled,pod-9,32,pods,6
5931,0.0,Initialized,pod-9,32,pods,6
5932,6.0,Ready,pod-9,32,pods,6
5933,6.0,ContainersReady,pod-9,32,pods,6
5934,0.0,PodScheduled,pod-10,32,pods,6
5935,0.0,Initialized,pod-10,32,pods,6
5936,7.0,Ready,pod-10,32,pods,6
5937,7.0,ContainersReady,pod-10,32,pods,6
5938,0.0,PodScheduled,pod-11,32,pods,6
5939,0.0,Initialized,pod-11,32,pods,6
5940,7.0,Ready,pod-11,32,pods,6
5941,7.0,ContainersReady,pod-11,32,pods,6
5942,0.0,PodScheduled,pod-12,32,pods,6
5943,0.0,Initialized,pod-12,32,pods,6
5944,8.0,Ready,pod-12,32,pods,6
5945,8.0,ContainersReady,pod-12,32,pods,6
5946,0.0,PodScheduled,pod-13,32,pods,6
5947,0.0,Initialized,pod-13,32,pods,6
5948,8.0,Ready,pod-13,32,pods,6
5949,8.0,ContainersReady,pod-13,32,pods,6
5950,0.0,PodScheduled,pod-14,32,pods,6
5951,0.0,Initialized,pod-14,32,pods,6
5952,8.0,Ready,pod-14,32,pods,6
5953,8.0,ContainersReady,pod-14,32,pods,6
5954,0.0,PodScheduled,pod-15,32,pods,6
5955,0.0,Initialized,pod-15,32,pods,6
5956,9.0,Ready,pod-15,32,pods,6
5957,9.0,ContainersReady,pod-15,32,pods,6
5958,0.0,PodScheduled,pod-16,32,pods,6
5959,0.0,Initialized,pod-16,32,pods,6
5960,9.0,Ready,pod-16,32,pods,6
5961,9.0,ContainersReady,pod-16,32,pods,6
5962,0.0,PodScheduled,pod-17,32,pods,6
5963,0.0,Initialized,pod-17,32,pods,6
5964,11.0,Ready,pod-17,32,pods,6
5965,11.0,ContainersReady,pod-17,32,pods,6
5966,0.0,PodScheduled,pod-18,32,pods,6
5967,0.0,Initialized,pod-18,32,pods,6
5968,12.0,Ready,pod-18,32,pods,6
5969,12.0,ContainersReady,pod-18,32,pods,6
5970,0.0,PodScheduled,pod-19,32,pods,6
5971,0.0,Initialized,pod-19,32,pods,6
5972,10.0,Ready,pod-19,32,pods,6
5973,10.0,ContainersReady,pod-19,32,pods,6
5974,0.0,PodScheduled,pod-20,32,pods,6
5975,0.0,Initialized,pod-20,32,pods,6
5976,12.0,Ready,pod-20,32,pods,6
5977,12.0,ContainersReady,pod-20,32,pods,6
5978,0.0,PodScheduled,pod-21,32,pods,6
5979,0.0,Initialized,pod-21,32,pods,6
5980,10.0,Ready,pod-21,32,pods,6
5981,10.0,ContainersReady,pod-21,32,pods,6
5982,0.0,PodScheduled,pod-22,32,pods,6
5983,0.0,Initialized,pod-22,32,pods,6
5984,13.0,Ready,pod-22,32,pods,6
5985,13.0,ContainersReady,pod-22,32,pods,6
5986,0.0,PodScheduled,pod-23,32,pods,6
5987,0.0,Initialized,pod-23,32,pods,6
5988,13.0,Ready,pod-23,32,pods,6
5989,13.0,ContainersReady,pod-23,32,pods,6
5990,0.0,PodScheduled,pod-24,32,pods,6
5991,0.0,Initialized,pod-24,32,pods,6
5992,14.0,Ready,pod-24,32,pods,6
5993,14.0,ContainersReady,pod-24,32,pods,6
5994,0.0,PodScheduled,pod-25,32,pods,6
5995,0.0,Initialized,pod-25,32,pods,6
5996,16.0,Ready,pod-25,32,pods,6
5997,16.0,ContainersReady,pod-25,32,pods,6
5998,0.0,PodScheduled,pod-26,32,pods,6
5999,0.0,Initialized,pod-26,32,pods,6
6000,15.0,Ready,pod-26,32,pods,6
6001,15.0,ContainersReady,pod-26,32,pods,6
6002,0.0,PodScheduled,pod-27,32,pods,6
6003,0.0,Initialized,pod-27,32,pods,6
6004,14.0,Ready,pod-27,32,pods,6
6005,14.0,ContainersReady,pod-27,32,pods,6
6006,0.0,PodScheduled,pod-28,32,pods,6
6007,0.0,Initialized,pod-28,32,pods,6
6008,16.0,Ready,pod-28,32,pods,6
6009,16.0,ContainersReady,pod-28,32,pods,6
6010,0.0,PodScheduled,pod-29,32,pods,6
6011,0.0,Initialized,pod-29,32,pods,6
6012,13.0,Ready,pod-29,32,pods,6
6013,13.0,ContainersReady,pod-29,32,pods,6
6014,0.0,PodScheduled,pod-30,32,pods,6
6015,0.0,Initialized,pod-30,32,pods,6
6016,15.0,Ready,pod-30,32,pods,6
6017,15.0,ContainersReady,pod-30,32,pods,6
6018,0.0,PodScheduled,pod-31,32,pods,6
6019,0.0,Initialized,pod-31,32,pods,6
6020,17.0,Ready,pod-31,32,pods,6
6021,17.0,ContainersReady,pod-31,32,pods,6
6022,17.799,watch_create,all,32,indexed-job,17
6023,33.324,watch_delete,all,32,indexed-job,17
6024,0.0,PodScheduled,indexed-job-0-fl59g,32,indexed-job,17
6025,0.0,Initialized,indexed-job-0-fl59g,32,indexed-job,17
6026,2.0,Ready,indexed-job-0-fl59g,32,indexed-job,17
6027,2.0,ContainersReady,indexed-job-0-fl59g,32,indexed-job,17
6028,0.0,PodScheduled,indexed-job-1-c77pn,32,indexed-job,17
6029,0.0,Initialized,indexed-job-1-c77pn,32,indexed-job,17
6030,3.0,Ready,indexed-job-1-c77pn,32,indexed-job,17
6031,3.0,ContainersReady,indexed-job-1-c77pn,32,indexed-job,17
6032,0.0,PodScheduled,indexed-job-2-89l6b,32,indexed-job,17
6033,0.0,Initialized,indexed-job-2-89l6b,32,indexed-job,17
6034,5.0,Ready,indexed-job-2-89l6b,32,indexed-job,17
6035,5.0,ContainersReady,indexed-job-2-89l6b,32,indexed-job,17
6036,0.0,PodScheduled,indexed-job-3-5n9sp,32,indexed-job,17
6037,0.0,Initialized,indexed-job-3-5n9sp,32,indexed-job,17
6038,3.0,Ready,indexed-job-3-5n9sp,32,indexed-job,17
6039,3.0,ContainersReady,indexed-job-3-5n9sp,32,indexed-job,17
6040,0.0,PodScheduled,indexed-job-5-cvxgq,32,indexed-job,17
6041,0.0,Initialized,indexed-job-5-cvxgq,32,indexed-job,17
6042,4.0,Ready,indexed-job-5-cvxgq,32,indexed-job,17
6043,4.0,ContainersReady,indexed-job-5-cvxgq,32,indexed-job,17
6044,0.0,PodScheduled,indexed-job-6-w72rg,32,indexed-job,17
6045,0.0,Initialized,indexed-job-6-w72rg,32,indexed-job,17
6046,5.0,Ready,indexed-job-6-w72rg,32,indexed-job,17
6047,5.0,ContainersReady,indexed-job-6-w72rg,32,indexed-job,17
6048,0.0,PodScheduled,indexed-job-4-lnmbv,32,indexed-job,17
6049,0.0,Initialized,indexed-job-4-lnmbv,32,indexed-job,17
6050,7.0,Ready,indexed-job-4-lnmbv,32,indexed-job,17
6051,7.0,ContainersReady,indexed-job-4-lnmbv,32,indexed-job,17
6052,0.0,PodScheduled,indexed-job-9-8lrj8,32,indexed-job,17
6053,0.0,Initialized,indexed-job-9-8lrj8,32,indexed-job,17
6054,10.0,Ready,indexed-job-9-8lrj8,32,indexed-job,17
6055,10.0,ContainersReady,indexed-job-9-8lrj8,32,indexed-job,17
6056,0.0,PodScheduled,indexed-job-12-hmzz9,32,indexed-job,17
6057,0.0,Initialized,indexed-job-12-hmzz9,32,indexed-job,17
6058,6.0,Ready,indexed-job-12-hmzz9,32,indexed-job,17
6059,6.0,ContainersReady,indexed-job-12-hmzz9,32,indexed-job,17
6060,0.0,PodScheduled,indexed-job-13-wzkwl,32,indexed-job,17
6061,0.0,Initialized,indexed-job-13-wzkwl,32,indexed-job,17
6062,8.0,Ready,indexed-job-13-wzkwl,32,indexed-job,17
6063,8.0,ContainersReady,indexed-job-13-wzkwl,32,indexed-job,17
6064,0.0,PodScheduled,indexed-job-14-gcdkr,32,indexed-job,17
6065,0.0,Initialized,indexed-job-14-gcdkr,32,indexed-job,17
6066,4.0,Ready,indexed-job-14-gcdkr,32,indexed-job,17
6067,4.0,ContainersReady,indexed-job-14-gcdkr,32,indexed-job,17
6068,0.0,PodScheduled,indexed-job-7-sbxkn,32,indexed-job,17
6069,0.0,Initialized,indexed-job-7-sbxkn,32,indexed-job,17
6070,13.0,Ready,indexed-job-7-sbxkn,32,indexed-job,17
6071,13.0,ContainersReady,indexed-job-7-sbxkn,32,indexed-job,17
6072,0.0,PodScheduled,indexed-job-10-2wpb8,32,indexed-job,17
6073,0.0,Initialized,indexed-job-10-2wpb8,32,indexed-job,17
6074,6.0,Ready,indexed-job-10-2wpb8,32,indexed-job,17
6075,6.0,ContainersReady,indexed-job-10-2wpb8,32,indexed-job,17
6076,0.0,PodScheduled,indexed-job-8-lmv2w,32,indexed-job,17
6077,0.0,Initialized,indexed-job-8-lmv2w,32,indexed-job,17
6078,9.0,Ready,indexed-job-8-lmv2w,32,indexed-job,17
6079,9.0,ContainersReady,indexed-job-8-lmv2w,32,indexed-job,17
6080,0.0,PodScheduled,indexed-job-11-hvpvw,32,indexed-job,17
6081,0.0,Initialized,indexed-job-11-hvpvw,32,indexed-job,17
6082,7.0,Ready,indexed-job-11-hvpvw,32,indexed-job,17
6083,7.0,ContainersReady,indexed-job-11-hvpvw,32,indexed-job,17
6084,0.0,PodScheduled,indexed-job-15-wm4kh,32,indexed-job,17
6085,0.0,Initialized,indexed-job-15-wm4kh,32,indexed-job,17
6086,10.0,Ready,indexed-job-15-wm4kh,32,indexed-job,17
6087,10.0,ContainersReady,indexed-job-15-wm4kh,32,indexed-job,17
6088,0.0,PodScheduled,indexed-job-17-wpprm,32,indexed-job,17
6089,0.0,Initialized,indexed-job-17-wpprm,32,indexed-job,17
6090,8.0,Ready,indexed-job-17-wpprm,32,indexed-job,17
6091,8.0,ContainersReady,indexed-job-17-wpprm,32,indexed-job,17
6092,0.0,PodScheduled,indexed-job-23-tbj4c,32,indexed-job,17
6093,0.0,Initialized,indexed-job-23-tbj4c,32,indexed-job,17
6094,12.0,Ready,indexed-job-23-tbj4c,32,indexed-job,17
6095,12.0,ContainersReady,indexed-job-23-tbj4c,32,indexed-job,17
6096,0.0,PodScheduled,indexed-job-30-g7nvk,32,indexed-job,17
6097,0.0,Initialized,indexed-job-30-g7nvk,32,indexed-job,17
6098,11.0,Ready,indexed-job-30-g7nvk,32,indexed-job,17
6099,11.0,ContainersReady,indexed-job-30-g7nvk,32,indexed-job,17
6100,0.0,PodScheduled,indexed-job-16-sbxrh,32,indexed-job,17
6101,0.0,Initialized,indexed-job-16-sbxrh,32,indexed-job,17
6102,15.0,Ready,indexed-job-16-sbxrh,32,indexed-job,17
6103,15.0,ContainersReady,indexed-job-16-sbxrh,32,indexed-job,17
6104,0.0,PodScheduled,indexed-job-20-vmjb4,32,indexed-job,17
6105,0.0,Initialized,indexed-job-20-vmjb4,32,indexed-job,17
6106,12.0,Ready,indexed-job-20-vmjb4,32,indexed-job,17
6107,12.0,ContainersReady,indexed-job-20-vmjb4,32,indexed-job,17
6108,0.0,PodScheduled,indexed-job-19-mvxrr,32,indexed-job,17
6109,0.0,Initialized,indexed-job-19-mvxrr,32,indexed-job,17
6110,16.0,Ready,indexed-job-19-mvxrr,32,indexed-job,17
6111,16.0,ContainersReady,indexed-job-19-mvxrr,32,indexed-job,17
6112,0.0,PodScheduled,indexed-job-21-z2sc5,32,indexed-job,17
6113,0.0,Initialized,indexed-job-21-z2sc5,32,indexed-job,17
6114,9.0,Ready,indexed-job-21-z2sc5,32,indexed-job,17
6115,9.0,ContainersReady,indexed-job-21-z2sc5,32,indexed-job,17
6116,0.0,PodScheduled,indexed-job-25-s7pv5,32,indexed-job,17
6117,0.0,Initialized,indexed-job-25-s7pv5,32,indexed-job,17
6118,17.0,Ready,indexed-job-25-s7pv5,32,indexed-job,17
6119,17.0,ContainersReady,indexed-job-25-s7pv5,32,indexed-job,17
6120,0.0,PodScheduled,indexed-job-18-8fcsn,32,indexed-job,17
6121,0.0,Initialized,indexed-job-18-8fcsn,32,indexed-job,17
6122,18.0,Ready,indexed-job-18-8fcsn,32,indexed-job,17
6123,18.0,ContainersReady,indexed-job-18-8fcsn,32,indexed-job,17
6124,0.0,PodScheduled,indexed-job-24-q4px5,32,indexed-job,17
6125,0.0,Initialized,indexed-job-24-q4px5,32,indexed-job,17
6126,14.0,Ready,indexed-job-24-q4px5,32,indexed-job,17
6127,14.0,ContainersReady,indexed-job-24-q4px5,32,indexed-job,17
6128,0.0,PodScheduled,indexed-job-22-xtfxm,32,indexed-job,17
6129,0.0,Initialized,indexed-job-22-xtfxm,32,indexed-job,17
6130,10.0,Ready,indexed-job-22-xtfxm,32,indexed-job,17
6131,10.0,ContainersReady,indexed-job-22-xtfxm,32,indexed-job,17
6132,0.0,PodScheduled,indexed-job-27-8r9lc,32,indexed-job,17
6133,0.0,Initialized,indexed-job-27-8r9lc,32,indexed-job,17
6134,15.0,Ready,indexed-job-27-8r9lc,32,indexed-job,17
6135,15.0,ContainersReady,indexed-job-27-8r9lc,32,indexed-job,17
6136,0.0,PodScheduled,indexed-job-28-hgv5n,32,indexed-job,17
6137,0.0,Initialized,indexed-job-28-hgv5n,32,indexed-job,17
6138,14.0,Ready,indexed-job-28-hgv5n,32,indexed-job,17
6139,14.0,ContainersReady,indexed-job-28-hgv5n,32,indexed-job,17
6140,0.0,PodScheduled,indexed-job-26-bv9wc,32,indexed-job,17
6141,0.0,Initialized,indexed-job-26-bv9wc,32,indexed-job,17
6142,13.0,Ready,indexed-job-26-bv9wc,32,indexed-job,17
6143,13.0,ContainersReady,indexed-job-26-bv9wc,32,indexed-job,17
6144,0.0,PodScheduled,indexed-job-29-vr7t6,32,indexed-job,17
6145,0.0,Initialized,indexed-job-29-vr7t6,32,indexed-job,17
6146,16.0,Ready,indexed-job-29-vr7t6,32,indexed-job,17
6147,16.0,ContainersReady,indexed-job-29-vr7t6,32,indexed-job,17
6148,0.0,PodScheduled,indexed-job-31-b9hw2,32,indexed-job,17
6149,0.0,Initialized,indexed-job-31-b9hw2,32,indexed-job,17
6150,15.0,Ready,indexed-job-31-b9hw2,32,indexed-job,17
6151,15.0,ContainersReady,indexed-job-31-b9hw2,32,indexed-job,17
6152,17.824,watch_create,all,32,indexed-job,6
6153,34.269,watch_delete,all,32,indexed-job,6
6154,0.0,PodScheduled,indexed-job-0-42f4v,32,indexed-job,6
6155,0.0,Initialized,indexed-job-0-42f4v,32,indexed-job,6
6156,2.0,Ready,indexed-job-0-42f4v,32,indexed-job,6
6157,2.0,ContainersReady,indexed-job-0-42f4v,32,indexed-job,6
6158,0.0,PodScheduled,indexed-job-2-qkg99,32,indexed-job,6
6159,0.0,Initialized,indexed-job-2-qkg99,32,indexed-job,6
6160,2.0,Ready,indexed-job-2-qkg99,32,indexed-job,6
6161,2.0,ContainersReady,indexed-job-2-qkg99,32,indexed-job,6
6162,0.0,PodScheduled,indexed-job-1-pwpm8,32,indexed-job,6
6163,0.0,Initialized,indexed-job-1-pwpm8,32,indexed-job,6
6164,3.0,Ready,indexed-job-1-pwpm8,32,indexed-job,6
6165,3.0,ContainersReady,indexed-job-1-pwpm8,32,indexed-job,6
6166,0.0,PodScheduled,indexed-job-3-kvw9m,32,indexed-job,6
6167,0.0,Initialized,indexed-job-3-kvw9m,32,indexed-job,6
6168,4.0,Ready,indexed-job-3-kvw9m,32,indexed-job,6
6169,4.0,ContainersReady,indexed-job-3-kvw9m,32,indexed-job,6
6170,0.0,PodScheduled,indexed-job-6-tr8pw,32,indexed-job,6
6171,0.0,Initialized,indexed-job-6-tr8pw,32,indexed-job,6
6172,13.0,Ready,indexed-job-6-tr8pw,32,indexed-job,6
6173,13.0,ContainersReady,indexed-job-6-tr8pw,32,indexed-job,6
6174,0.0,PodScheduled,indexed-job-4-85hxz,32,indexed-job,6
6175,0.0,Initialized,indexed-job-4-85hxz,32,indexed-job,6
6176,16.0,Ready,indexed-job-4-85hxz,32,indexed-job,6
6177,16.0,ContainersReady,indexed-job-4-85hxz,32,indexed-job,6
6178,0.0,PodScheduled,indexed-job-5-wktvs,32,indexed-job,6
6179,0.0,Initialized,indexed-job-5-wktvs,32,indexed-job,6
6180,3.0,Ready,indexed-job-5-wktvs,32,indexed-job,6
6181,3.0,ContainersReady,indexed-job-5-wktvs,32,indexed-job,6
6182,0.0,PodScheduled,indexed-job-10-ldm5x,32,indexed-job,6
6183,0.0,Initialized,indexed-job-10-ldm5x,32,indexed-job,6
6184,7.0,Ready,indexed-job-10-ldm5x,32,indexed-job,6
6185,7.0,ContainersReady,indexed-job-10-ldm5x,32,indexed-job,6
6186,0.0,PodScheduled,indexed-job-13-x8xxd,32,indexed-job,6
6187,0.0,Initialized,indexed-job-13-x8xxd,32,indexed-job,6
6188,12.0,Ready,indexed-job-13-x8xxd,32,indexed-job,6
6189,12.0,ContainersReady,indexed-job-13-x8xxd,32,indexed-job,6
6190,0.0,PodScheduled,indexed-job-12-cx7n6,32,indexed-job,6
6191,0.0,Initialized,indexed-job-12-cx7n6,32,indexed-job,6
6192,8.0,Ready,indexed-job-12-cx7n6,32,indexed-job,6
6193,8.0,ContainersReady,indexed-job-12-cx7n6,32,indexed-job,6
6194,0.0,PodScheduled,indexed-job-9-4h4zv,32,indexed-job,6
6195,0.0,Initialized,indexed-job-9-4h4zv,32,indexed-job,6
6196,4.0,Ready,indexed-job-9-4h4zv,32,indexed-job,6
6197,4.0,ContainersReady,indexed-job-9-4h4zv,32,indexed-job,6
6198,0.0,PodScheduled,indexed-job-14-rlzhr,32,indexed-job,6
6199,0.0,Initialized,indexed-job-14-rlzhr,32,indexed-job,6
6200,6.0,Ready,indexed-job-14-rlzhr,32,indexed-job,6
6201,6.0,ContainersReady,indexed-job-14-rlzhr,32,indexed-job,6
6202,0.0,PodScheduled,indexed-job-11-68vf8,32,indexed-job,6
6203,0.0,Initialized,indexed-job-11-68vf8,32,indexed-job,6
6204,6.0,Ready,indexed-job-11-68vf8,32,indexed-job,6
6205,6.0,ContainersReady,indexed-job-11-68vf8,32,indexed-job,6
6206,0.0,PodScheduled,indexed-job-7-tdjtd,32,indexed-job,6
6207,0.0,Initialized,indexed-job-7-tdjtd,32,indexed-job,6
6208,5.0,Ready,indexed-job-7-tdjtd,32,indexed-job,6
6209,5.0,ContainersReady,indexed-job-7-tdjtd,32,indexed-job,6
6210,0.0,PodScheduled,indexed-job-8-6z8f9,32,indexed-job,6
6211,0.0,Initialized,indexed-job-8-6z8f9,32,indexed-job,6
6212,5.0,Ready,indexed-job-8-6z8f9,32,indexed-job,6
6213,5.0,ContainersReady,indexed-job-8-6z8f9,32,indexed-job,6
6214,0.0,PodScheduled,indexed-job-22-8qdfr,32,indexed-job,6
6215,0.0,Initialized,indexed-job-22-8qdfr,32,indexed-job,6
6216,15.0,Ready,indexed-job-22-8qdfr,32,indexed-job,6
6217,15.0,ContainersReady,indexed-job-22-8qdfr,32,indexed-job,6
6218,0.0,PodScheduled,indexed-job-16-cn5w2,32,indexed-job,6
6219,0.0,Initialized,indexed-job-16-cn5w2,32,indexed-job,6
6220,14.0,Ready,indexed-job-16-cn5w2,32,indexed-job,6
6221,14.0,ContainersReady,indexed-job-16-cn5w2,32,indexed-job,6
6222,0.0,PodScheduled,indexed-job-23-t26wk,32,indexed-job,6
6223,0.0,Initialized,indexed-job-23-t26wk,32,indexed-job,6
6224,13.0,Ready,indexed-job-23-t26wk,32,indexed-job,6
6225,13.0,ContainersReady,indexed-job-23-t26wk,32,indexed-job,6
6226,0.0,PodScheduled,indexed-job-26-46wgm,32,indexed-job,6
6227,0.0,Initialized,indexed-job-26-46wgm,32,indexed-job,6
6228,10.0,Ready,indexed-job-26-46wgm,32,indexed-job,6
6229,10.0,ContainersReady,indexed-job-26-46wgm,32,indexed-job,6
6230,0.0,PodScheduled,indexed-job-15-mxlfq,32,indexed-job,6
6231,0.0,Initialized,indexed-job-15-mxlfq,32,indexed-job,6
6232,14.0,Ready,indexed-job-15-mxlfq,32,indexed-job,6
6233,14.0,ContainersReady,indexed-job-15-mxlfq,32,indexed-job,6
6234,0.0,PodScheduled,indexed-job-21-q8jht,32,indexed-job,6
6235,0.0,Initialized,indexed-job-21-q8jht,32,indexed-job,6
6236,8.0,Ready,indexed-job-21-q8jht,32,indexed-job,6
6237,8.0,ContainersReady,indexed-job-21-q8jht,32,indexed-job,6
6238,0.0,PodScheduled,indexed-job-17-nctl2,32,indexed-job,6
6239,0.0,Initialized,indexed-job-17-nctl2,32,indexed-job,6
6240,11.0,Ready,indexed-job-17-nctl2,32,indexed-job,6
6241,11.0,ContainersReady,indexed-job-17-nctl2,32,indexed-job,6
6242,0.0,PodScheduled,indexed-job-24-8svfz,32,indexed-job,6
6243,0.0,Initialized,indexed-job-24-8svfz,32,indexed-job,6
6244,9.0,Ready,indexed-job-24-8svfz,32,indexed-job,6
6245,9.0,ContainersReady,indexed-job-24-8svfz,32,indexed-job,6
6246,0.0,PodScheduled,indexed-job-25-bm2fk,32,indexed-job,6
6247,0.0,Initialized,indexed-job-25-bm2fk,32,indexed-job,6
6248,9.0,Ready,indexed-job-25-bm2fk,32,indexed-job,6
6249,9.0,ContainersReady,indexed-job-25-bm2fk,32,indexed-job,6
6250,0.0,PodScheduled,indexed-job-27-xsz8f,32,indexed-job,6
6251,0.0,Initialized,indexed-job-27-xsz8f,32,indexed-job,6
6252,10.0,Ready,indexed-job-27-xsz8f,32,indexed-job,6
6253,10.0,ContainersReady,indexed-job-27-xsz8f,32,indexed-job,6
6254,0.0,PodScheduled,indexed-job-19-j7hvt,32,indexed-job,6
6255,0.0,Initialized,indexed-job-19-j7hvt,32,indexed-job,6
6256,16.0,Ready,indexed-job-19-j7hvt,32,indexed-job,6
6257,16.0,ContainersReady,indexed-job-19-j7hvt,32,indexed-job,6
6258,0.0,PodScheduled,indexed-job-18-n65hx,32,indexed-job,6
6259,0.0,Initialized,indexed-job-18-n65hx,32,indexed-job,6
6260,11.0,Ready,indexed-job-18-n65hx,32,indexed-job,6
6261,11.0,ContainersReady,indexed-job-18-n65hx,32,indexed-job,6
6262,0.0,PodScheduled,indexed-job-28-w6kh9,32,indexed-job,6
6263,0.0,Initialized,indexed-job-28-w6kh9,32,indexed-job,6
6264,7.0,Ready,indexed-job-28-w6kh9,32,indexed-job,6
6265,7.0,ContainersReady,indexed-job-28-w6kh9,32,indexed-job,6
6266,0.0,PodScheduled,indexed-job-30-ntlhq,32,indexed-job,6
6267,0.0,Initialized,indexed-job-30-ntlhq,32,indexed-job,6
6268,15.0,Ready,indexed-job-30-ntlhq,32,indexed-job,6
6269,15.0,ContainersReady,indexed-job-30-ntlhq,32,indexed-job,6
6270,0.0,PodScheduled,indexed-job-20-pl6wv,32,indexed-job,6
6271,0.0,Initialized,indexed-job-20-pl6wv,32,indexed-job,6
6272,12.0,Ready,indexed-job-20-pl6wv,32,indexed-job,6
6273,12.0,ContainersReady,indexed-job-20-pl6wv,32,indexed-job,6
6274,0.0,PodScheduled,indexed-job-29-c8wpm,32,indexed-job,6
6275,0.0,Initialized,indexed-job-29-c8wpm,32,indexed-job,6
6276,17.0,Ready,indexed-job-29-c8wpm,32,indexed-job,6
6277,17.0,ContainersReady,indexed-job-29-c8wpm,32,indexed-job,6
6278,0.0,PodScheduled,indexed-job-31-c5xpp,32,indexed-job,6
6279,0.0,Initialized,indexed-job-31-c5xpp,32,indexed-job,6
6280,17.0,Ready,indexed-job-31-c5xpp,32,indexed-job,6
6281,17.0,ContainersReady,indexed-job-31-c5xpp,32,indexed-job,6
6282,19.847,watch_create,all,32,indexed-job,19
6283,34.233,watch_delete,all,32,indexed-job,19
6284,1.0,PodScheduled,indexed-job-0-4gvz5,32,indexed-job,19
6285,1.0,Initialized,indexed-job-0-4gvz5,32,indexed-job,19
6286,3.0,Ready,indexed-job-0-4gvz5,32,indexed-job,19
6287,3.0,ContainersReady,indexed-job-0-4gvz5,32,indexed-job,19
6288,0.0,PodScheduled,indexed-job-2-dx29t,32,indexed-job,19
6289,0.0,Initialized,indexed-job-2-dx29t,32,indexed-job,19
6290,2.0,Ready,indexed-job-2-dx29t,32,indexed-job,19
6291,2.0,ContainersReady,indexed-job-2-dx29t,32,indexed-job,19
6292,0.0,PodScheduled,indexed-job-1-92srj,32,indexed-job,19
6293,0.0,Initialized,indexed-job-1-92srj,32,indexed-job,19
6294,3.0,Ready,indexed-job-1-92srj,32,indexed-job,19
6295,3.0,ContainersReady,indexed-job-1-92srj,32,indexed-job,19
6296,0.0,PodScheduled,indexed-job-5-j92r7,32,indexed-job,19
6297,0.0,Initialized,indexed-job-5-j92r7,32,indexed-job,19
6298,5.0,Ready,indexed-job-5-j92r7,32,indexed-job,19
6299,5.0,ContainersReady,indexed-job-5-j92r7,32,indexed-job,19
6300,0.0,PodScheduled,indexed-job-4-dvbv8,32,indexed-job,19
6301,0.0,Initialized,indexed-job-4-dvbv8,32,indexed-job,19
6302,4.0,Ready,indexed-job-4-dvbv8,32,indexed-job,19
6303,4.0,ContainersReady,indexed-job-4-dvbv8,32,indexed-job,19
6304,0.0,PodScheduled,indexed-job-3-bn9x5,32,indexed-job,19
6305,0.0,Initialized,indexed-job-3-bn9x5,32,indexed-job,19
6306,5.0,Ready,indexed-job-3-bn9x5,32,indexed-job,19
6307,5.0,ContainersReady,indexed-job-3-bn9x5,32,indexed-job,19
6308,0.0,PodScheduled,indexed-job-6-qg7tj,32,indexed-job,19
6309,0.0,Initialized,indexed-job-6-qg7tj,32,indexed-job,19
6310,4.0,Ready,indexed-job-6-qg7tj,32,indexed-job,19
6311,4.0,ContainersReady,indexed-job-6-qg7tj,32,indexed-job,19
6312,0.0,PodScheduled,indexed-job-7-97nqn,32,indexed-job,19
6313,0.0,Initialized,indexed-job-7-97nqn,32,indexed-job,19
6314,6.0,Ready,indexed-job-7-97nqn,32,indexed-job,19
6315,6.0,ContainersReady,indexed-job-7-97nqn,32,indexed-job,19
6316,0.0,PodScheduled,indexed-job-14-sqgpd,32,indexed-job,19
6317,0.0,Initialized,indexed-job-14-sqgpd,32,indexed-job,19
6318,9.0,Ready,indexed-job-14-sqgpd,32,indexed-job,19
6319,9.0,ContainersReady,indexed-job-14-sqgpd,32,indexed-job,19
6320,0.0,PodScheduled,indexed-job-11-s7rpq,32,indexed-job,19
6321,0.0,Initialized,indexed-job-11-s7rpq,32,indexed-job,19
6322,8.0,Ready,indexed-job-11-s7rpq,32,indexed-job,19
6323,8.0,ContainersReady,indexed-job-11-s7rpq,32,indexed-job,19
6324,0.0,PodScheduled,indexed-job-12-zp8kg,32,indexed-job,19
6325,0.0,Initialized,indexed-job-12-zp8kg,32,indexed-job,19
6326,11.0,Ready,indexed-job-12-zp8kg,32,indexed-job,19
6327,11.0,ContainersReady,indexed-job-12-zp8kg,32,indexed-job,19
6328,0.0,PodScheduled,indexed-job-10-ld78w,32,indexed-job,19
6329,0.0,Initialized,indexed-job-10-ld78w,32,indexed-job,19
6330,1.0,Ready,indexed-job-10-ld78w,32,indexed-job,19
6331,1.0,ContainersReady,indexed-job-10-ld78w,32,indexed-job,19
6332,0.0,PodScheduled,indexed-job-13-zkgwl,32,indexed-job,19
6333,0.0,Initialized,indexed-job-13-zkgwl,32,indexed-job,19
6334,6.0,Ready,indexed-job-13-zkgwl,32,indexed-job,19
6335,6.0,ContainersReady,indexed-job-13-zkgwl,32,indexed-job,19
6336,0.0,PodScheduled,indexed-job-8-c4zcd,32,indexed-job,19
6337,0.0,Initialized,indexed-job-8-c4zcd,32,indexed-job,19
6338,9.0,Ready,indexed-job-8-c4zcd,32,indexed-job,19
6339,9.0,ContainersReady,indexed-job-8-c4zcd,32,indexed-job,19
6340,0.0,PodScheduled,indexed-job-9-m9p8z,32,indexed-job,19
6341,0.0,Initialized,indexed-job-9-m9p8z,32,indexed-job,19
6342,7.0,Ready,indexed-job-9-m9p8z,32,indexed-job,19
6343,7.0,ContainersReady,indexed-job-9-m9p8z,32,indexed-job,19
6344,0.0,PodScheduled,indexed-job-17-96vvq,32,indexed-job,19
6345,0.0,Initialized,indexed-job-17-96vvq,32,indexed-job,19
6346,10.0,Ready,indexed-job-17-96vvq,32,indexed-job,19
6347,10.0,ContainersReady,indexed-job-17-96vvq,32,indexed-job,19
6348,0.0,PodScheduled,indexed-job-30-qh4pw,32,indexed-job,19
6349,0.0,Initialized,indexed-job-30-qh4pw,32,indexed-job,19
6350,7.0,Ready,indexed-job-30-qh4pw,32,indexed-job,19
6351,7.0,ContainersReady,indexed-job-30-qh4pw,32,indexed-job,19
6352,0.0,PodScheduled,indexed-job-20-bq77p,32,indexed-job,19
6353,0.0,Initialized,indexed-job-20-bq77p,32,indexed-job,19
6354,13.0,Ready,indexed-job-20-bq77p,32,indexed-job,19
6355,13.0,ContainersReady,indexed-job-20-bq77p,32,indexed-job,19
6356,0.0,PodScheduled,indexed-job-16-cmrpd,32,indexed-job,19
6357,0.0,Initialized,indexed-job-16-cmrpd,32,indexed-job,19
6358,14.0,Ready,indexed-job-16-cmrpd,32,indexed-job,19
6359,14.0,ContainersReady,indexed-job-16-cmrpd,32,indexed-job,19
6360,0.0,PodScheduled,indexed-job-28-jgq24,32,indexed-job,19
6361,0.0,Initialized,indexed-job-28-jgq24,32,indexed-job,19
6362,16.0,Ready,indexed-job-28-jgq24,32,indexed-job,19
6363,16.0,ContainersReady,indexed-job-28-jgq24,32,indexed-job,19
6364,0.0,PodScheduled,indexed-job-22-x6mpg,32,indexed-job,19
6365,0.0,Initialized,indexed-job-22-x6mpg,32,indexed-job,19
6366,8.0,Ready,indexed-job-22-x6mpg,32,indexed-job,19
6367,8.0,ContainersReady,indexed-job-22-x6mpg,32,indexed-job,19
6368,0.0,PodScheduled,indexed-job-27-bsvmc,32,indexed-job,19
6369,0.0,Initialized,indexed-job-27-bsvmc,32,indexed-job,19
6370,3.0,Ready,indexed-job-27-bsvmc,32,indexed-job,19
6371,3.0,ContainersReady,indexed-job-27-bsvmc,32,indexed-job,19
6372,0.0,PodScheduled,indexed-job-19-np8rw,32,indexed-job,19
6373,0.0,Initialized,indexed-job-19-np8rw,32,indexed-job,19
6374,15.0,Ready,indexed-job-19-np8rw,32,indexed-job,19
6375,15.0,ContainersReady,indexed-job-19-np8rw,32,indexed-job,19
6376,0.0,PodScheduled,indexed-job-15-7ct5q,32,indexed-job,19
6377,0.0,Initialized,indexed-job-15-7ct5q,32,indexed-job,19
6378,18.0,Ready,indexed-job-15-7ct5q,32,indexed-job,19
6379,18.0,ContainersReady,indexed-job-15-7ct5q,32,indexed-job,19
6380,0.0,PodScheduled,indexed-job-21-5q5ch,32,indexed-job,19
6381,0.0,Initialized,indexed-job-21-5q5ch,32,indexed-job,19
6382,14.0,Ready,indexed-job-21-5q5ch,32,indexed-job,19
6383,14.0,ContainersReady,indexed-job-21-5q5ch,32,indexed-job,19
6384,0.0,PodScheduled,indexed-job-23-qtl4b,32,indexed-job,19
6385,0.0,Initialized,indexed-job-23-qtl4b,32,indexed-job,19
6386,15.0,Ready,indexed-job-23-qtl4b,32,indexed-job,19
6387,15.0,ContainersReady,indexed-job-23-qtl4b,32,indexed-job,19
6388,0.0,PodScheduled,indexed-job-18-pjl5c,32,indexed-job,19
6389,0.0,Initialized,indexed-job-18-pjl5c,32,indexed-job,19
6390,13.0,Ready,indexed-job-18-pjl5c,32,indexed-job,19
6391,13.0,ContainersReady,indexed-job-18-pjl5c,32,indexed-job,19
6392,0.0,PodScheduled,indexed-job-29-scnjl,32,indexed-job,19
6393,0.0,Initialized,indexed-job-29-scnjl,32,indexed-job,19
6394,16.0,Ready,indexed-job-29-scnjl,32,indexed-job,19
6395,16.0,ContainersReady,indexed-job-29-scnjl,32,indexed-job,19
6396,0.0,PodScheduled,indexed-job-24-c4wpd,32,indexed-job,19
6397,0.0,Initialized,indexed-job-24-c4wpd,32,indexed-job,19
6398,16.0,Ready,indexed-job-24-c4wpd,32,indexed-job,19
6399,16.0,ContainersReady,indexed-job-24-c4wpd,32,indexed-job,19
6400,0.0,PodScheduled,indexed-job-25-ms9rb,32,indexed-job,19
6401,0.0,Initialized,indexed-job-25-ms9rb,32,indexed-job,19
6402,18.0,Ready,indexed-job-25-ms9rb,32,indexed-job,19
6403,18.0,ContainersReady,indexed-job-25-ms9rb,32,indexed-job,19
6404,0.0,PodScheduled,indexed-job-26-xpcmb,32,indexed-job,19
6405,0.0,Initialized,indexed-job-26-xpcmb,32,indexed-job,19
6406,17.0,Ready,indexed-job-26-xpcmb,32,indexed-job,19
6407,17.0,ContainersReady,indexed-job-26-xpcmb,32,indexed-job,19
6408,0.0,PodScheduled,indexed-job-31-rf9w6,32,indexed-job,19
6409,0.0,Initialized,indexed-job-31-rf9w6,32,indexed-job,19
6410,19.0,Ready,indexed-job-31-rf9w6,32,indexed-job,19
6411,19.0,ContainersReady,indexed-job-31-rf9w6,32,indexed-job,19
6412,17.999,watch_create,all,32,pods,8
6413,34.458,watch_delete,all,32,pods,8
6414,0.0,PodScheduled,pod-0,32,pods,8
6415,0.0,Initialized,pod-0,32,pods,8
6416,2.0,Ready,pod-0,32,pods,8
6417,2.0,ContainersReady,pod-0,32,pods,8
6418,0.0,PodScheduled,pod-1,32,pods,8
6419,0.0,Initialized,pod-1,32,pods,8
6420,2.0,Ready,pod-1,32,pods,8
6421,2.0,ContainersReady,pod-1,32,pods,8
6422,0.0,PodScheduled,pod-2,32,pods,8
6423,0.0,Initialized,pod-2,32,pods,8
6424,3.0,Ready,pod-2,32,pods,8
6425,3.0,ContainersReady,pod-2,32,pods,8
6426,0.0,PodScheduled,pod-3,32,pods,8
6427,0.0,Initialized,pod-3,32,pods,8
6428,13.0,Ready,pod-3,32,pods,8
6429,13.0,ContainersReady,pod-3,32,pods,8
6430,0.0,PodScheduled,pod-4,32,pods,8
6431,0.0,Initialized,pod-4,32,pods,8
6432,12.0,Ready,pod-4,32,pods,8
6433,12.0,ContainersReady,pod-4,32,pods,8
6434,0.0,PodScheduled,pod-5,32,pods,8
6435,0.0,Initialized,pod-5,32,pods,8
6436,3.0,Ready,pod-5,32,pods,8
6437,3.0,ContainersReady,pod-5,32,pods,8
6438,0.0,PodScheduled,pod-6,32,pods,8
6439,0.0,Initialized,pod-6,32,pods,8
6440,4.0,Ready,pod-6,32,pods,8
6441,4.0,ContainersReady,pod-6,32,pods,8
6442,0.0,PodScheduled,pod-7,32,pods,8
6443,0.0,Initialized,pod-7,32,pods,8
6444,4.0,Ready,pod-7,32,pods,8
6445,4.0,ContainersReady,pod-7,32,pods,8
6446,0.0,PodScheduled,pod-8,32,pods,8
6447,0.0,Initialized,pod-8,32,pods,8
6448,5.0,Ready,pod-8,32,pods,8
6449,5.0,ContainersReady,pod-8,32,pods,8
6450,0.0,PodScheduled,pod-9,32,pods,8
6451,0.0,Initialized,pod-9,32,pods,8
6452,5.0,Ready,pod-9,32,pods,8
6453,5.0,ContainersReady,pod-9,32,pods,8
6454,0.0,PodScheduled,pod-10,32,pods,8
6455,0.0,Initialized,pod-10,32,pods,8
6456,7.0,Ready,pod-10,32,pods,8
6457,7.0,ContainersReady,pod-10,32,pods,8
6458,0.0,PodScheduled,pod-11,32,pods,8
6459,0.0,Initialized,pod-11,32,pods,8
6460,6.0,Ready,pod-11,32,pods,8
6461,6.0,ContainersReady,pod-11,32,pods,8
6462,0.0,PodScheduled,pod-12,32,pods,8
6463,0.0,Initialized,pod-12,32,pods,8
6464,7.0,Ready,pod-12,32,pods,8
6465,7.0,ContainersReady,pod-12,32,pods,8
6466,0.0,PodScheduled,pod-13,32,pods,8
6467,0.0,Initialized,pod-13,32,pods,8
6468,8.0,Ready,pod-13,32,pods,8
6469,8.0,ContainersReady,pod-13,32,pods,8
6470,0.0,PodScheduled,pod-14,32,pods,8
6471,0.0,Initialized,pod-14,32,pods,8
6472,8.0,Ready,pod-14,32,pods,8
6473,8.0,ContainersReady,pod-14,32,pods,8
6474,0.0,PodScheduled,pod-15,32,pods,8
6475,0.0,Initialized,pod-15,32,pods,8
6476,8.0,Ready,pod-15,32,pods,8
6477,8.0,ContainersReady,pod-15,32,pods,8
6478,0.0,PodScheduled,pod-16,32,pods,8
6479,0.0,Initialized,pod-16,32,pods,8
6480,6.0,Ready,pod-16,32,pods,8
6481,6.0,ContainersReady,pod-16,32,pods,8
6482,0.0,PodScheduled,pod-17,32,pods,8
6483,0.0,Initialized,pod-17,32,pods,8
6484,10.0,Ready,pod-17,32,pods,8
6485,10.0,ContainersReady,pod-17,32,pods,8
6486,0.0,PodScheduled,pod-18,32,pods,8
6487,0.0,Initialized,pod-18,32,pods,8
6488,9.0,Ready,pod-18,32,pods,8
6489,9.0,ContainersReady,pod-18,32,pods,8
6490,0.0,PodScheduled,pod-19,32,pods,8
6491,0.0,Initialized,pod-19,32,pods,8
6492,11.0,Ready,pod-19,32,pods,8
6493,11.0,ContainersReady,pod-19,32,pods,8
6494,0.0,PodScheduled,pod-20,32,pods,8
6495,0.0,Initialized,pod-20,32,pods,8
6496,16.0,Ready,pod-20,32,pods,8
6497,16.0,ContainersReady,pod-20,32,pods,8
6498,0.0,PodScheduled,pod-21,32,pods,8
6499,0.0,Initialized,pod-21,32,pods,8
6500,11.0,Ready,pod-21,32,pods,8
6501,11.0,ContainersReady,pod-21,32,pods,8
6502,0.0,PodScheduled,pod-22,32,pods,8
6503,0.0,Initialized,pod-22,32,pods,8
6504,9.0,Ready,pod-22,32,pods,8
6505,9.0,ContainersReady,pod-22,32,pods,8
6506,0.0,PodScheduled,pod-23,32,pods,8
6507,0.0,Initialized,pod-23,32,pods,8
6508,13.0,Ready,pod-23,32,pods,8
6509,13.0,ContainersReady,pod-23,32,pods,8
6510,0.0,PodScheduled,pod-24,32,pods,8
6511,0.0,Initialized,pod-24,32,pods,8
6512,17.0,Ready,pod-24,32,pods,8
6513,17.0,ContainersReady,pod-24,32,pods,8
6514,0.0,PodScheduled,pod-25,32,pods,8
6515,0.0,Initialized,pod-25,32,pods,8
6516,12.0,Ready,pod-25,32,pods,8
6517,12.0,ContainersReady,pod-25,32,pods,8
6518,0.0,PodScheduled,pod-26,32,pods,8
6519,0.0,Initialized,pod-26,32,pods,8
6520,11.0,Ready,pod-26,32,pods,8
6521,11.0,ContainersReady,pod-26,32,pods,8
6522,0.0,PodScheduled,pod-27,32,pods,8
6523,0.0,Initialized,pod-27,32,pods,8
6524,15.0,Ready,pod-27,32,pods,8
6525,15.0,ContainersReady,pod-27,32,pods,8
6526,0.0,PodScheduled,pod-28,32,pods,8
6527,0.0,Initialized,pod-28,32,pods,8
6528,15.0,Ready,pod-28,32,pods,8
6529,15.0,ContainersReady,pod-28,32,pods,8
6530,0.0,PodScheduled,pod-29,32,pods,8
6531,0.0,Initialized,pod-29,32,pods,8
6532,16.0,Ready,pod-29,32,pods,8
6533,16.0,ContainersReady,pod-29,32,pods,8
6534,0.0,PodScheduled,pod-30,32,pods,8
6535,0.0,Initialized,pod-30,32,pods,8
6536,14.0,Ready,pod-30,32,pods,8
6537,14.0,ContainersReady,pod-30,32,pods,8
6538,0.0,PodScheduled,pod-31,32,pods,8
6539,0.0,Initialized,pod-31,32,pods,8
6540,14.0,Ready,pod-31,32,pods,8
6541,14.0,ContainersReady,pod-31,32,pods,8
6542,17.835,watch_create,all,32,indexed-job,14
6543,33.261,watch_delete,all,32,indexed-job,14
6544,0.0,PodScheduled,indexed-job-0-fcwdh,32,indexed-job,14
6545,0.0,Initialized,indexed-job-0-fcwdh,32,indexed-job,14
6546,2.0,Ready,indexed-job-0-fcwdh,32,indexed-job,14
6547,2.0,ContainersReady,indexed-job-0-fcwdh,32,indexed-job,14
6548,0.0,PodScheduled,indexed-job-1-g464v,32,indexed-job,14
6549,0.0,Initialized,indexed-job-1-g464v,32,indexed-job,14
6550,4.0,Ready,indexed-job-1-g464v,32,indexed-job,14
6551,4.0,ContainersReady,indexed-job-1-g464v,32,indexed-job,14
6552,0.0,PodScheduled,indexed-job-2-9ddh4,32,indexed-job,14
6553,0.0,Initialized,indexed-job-2-9ddh4,32,indexed-job,14
6554,3.0,Ready,indexed-job-2-9ddh4,32,indexed-job,14
6555,3.0,ContainersReady,indexed-job-2-9ddh4,32,indexed-job,14
6556,0.0,PodScheduled,indexed-job-3-m9ttl,32,indexed-job,14
6557,0.0,Initialized,indexed-job-3-m9ttl,32,indexed-job,14
6558,5.0,Ready,indexed-job-3-m9ttl,32,indexed-job,14
6559,5.0,ContainersReady,indexed-job-3-m9ttl,32,indexed-job,14
6560,0.0,PodScheduled,indexed-job-6-gds89,32,indexed-job,14
6561,0.0,Initialized,indexed-job-6-gds89,32,indexed-job,14
6562,6.0,Ready,indexed-job-6-gds89,32,indexed-job,14
6563,6.0,ContainersReady,indexed-job-6-gds89,32,indexed-job,14
6564,0.0,PodScheduled,indexed-job-5-sx78x,32,indexed-job,14
6565,0.0,Initialized,indexed-job-5-sx78x,32,indexed-job,14
6566,7.0,Ready,indexed-job-5-sx78x,32,indexed-job,14
6567,7.0,ContainersReady,indexed-job-5-sx78x,32,indexed-job,14
6568,0.0,PodScheduled,indexed-job-4-ck6db,32,indexed-job,14
6569,0.0,Initialized,indexed-job-4-ck6db,32,indexed-job,14
6570,4.0,Ready,indexed-job-4-ck6db,32,indexed-job,14
6571,4.0,ContainersReady,indexed-job-4-ck6db,32,indexed-job,14
6572,0.0,PodScheduled,indexed-job-14-tdntz,32,indexed-job,14
6573,0.0,Initialized,indexed-job-14-tdntz,32,indexed-job,14
6574,12.0,Ready,indexed-job-14-tdntz,32,indexed-job,14
6575,12.0,ContainersReady,indexed-job-14-tdntz,32,indexed-job,14
6576,0.0,PodScheduled,indexed-job-11-2hkz5,32,indexed-job,14
6577,0.0,Initialized,indexed-job-11-2hkz5,32,indexed-job,14
6578,11.0,Ready,indexed-job-11-2hkz5,32,indexed-job,14
6579,11.0,ContainersReady,indexed-job-11-2hkz5,32,indexed-job,14
6580,0.0,PodScheduled,indexed-job-8-fpw7j,32,indexed-job,14
6581,0.0,Initialized,indexed-job-8-fpw7j,32,indexed-job,14
6582,6.0,Ready,indexed-job-8-fpw7j,32,indexed-job,14
6583,6.0,ContainersReady,indexed-job-8-fpw7j,32,indexed-job,14
6584,0.0,PodScheduled,indexed-job-10-42d58,32,indexed-job,14
6585,0.0,Initialized,indexed-job-10-42d58,32,indexed-job,14
6586,11.0,Ready,indexed-job-10-42d58,32,indexed-job,14
6587,11.0,ContainersReady,indexed-job-10-42d58,32,indexed-job,14
6588,0.0,PodScheduled,indexed-job-12-rgtcx,32,indexed-job,14
6589,0.0,Initialized,indexed-job-12-rgtcx,32,indexed-job,14
6590,9.0,Ready,indexed-job-12-rgtcx,32,indexed-job,14
6591,9.0,ContainersReady,indexed-job-12-rgtcx,32,indexed-job,14
6592,0.0,PodScheduled,indexed-job-7-zq4rj,32,indexed-job,14
6593,0.0,Initialized,indexed-job-7-zq4rj,32,indexed-job,14
6594,8.0,Ready,indexed-job-7-zq4rj,32,indexed-job,14
6595,8.0,ContainersReady,indexed-job-7-zq4rj,32,indexed-job,14
6596,0.0,PodScheduled,indexed-job-13-6gxbj,32,indexed-job,14
6597,0.0,Initialized,indexed-job-13-6gxbj,32,indexed-job,14
6598,5.0,Ready,indexed-job-13-6gxbj,32,indexed-job,14
6599,5.0,ContainersReady,indexed-job-13-6gxbj,32,indexed-job,14
6600,0.0,PodScheduled,indexed-job-9-zzflv,32,indexed-job,14
6601,0.0,Initialized,indexed-job-9-zzflv,32,indexed-job,14
6602,13.0,Ready,indexed-job-9-zzflv,32,indexed-job,14
6603,13.0,ContainersReady,indexed-job-9-zzflv,32,indexed-job,14
6604,0.0,PodScheduled,indexed-job-18-fz8zh,32,indexed-job,14
6605,0.0,Initialized,indexed-job-18-fz8zh,32,indexed-job,14
6606,13.0,Ready,indexed-job-18-fz8zh,32,indexed-job,14
6607,13.0,ContainersReady,indexed-job-18-fz8zh,32,indexed-job,14
6608,0.0,PodScheduled,indexed-job-24-n5rvc,32,indexed-job,14
6609,0.0,Initialized,indexed-job-24-n5rvc,32,indexed-job,14
6610,7.0,Ready,indexed-job-24-n5rvc,32,indexed-job,14
6611,7.0,ContainersReady,indexed-job-24-n5rvc,32,indexed-job,14
6612,0.0,PodScheduled,indexed-job-20-kt259,32,indexed-job,14
6613,0.0,Initialized,indexed-job-20-kt259,32,indexed-job,14
6614,12.0,Ready,indexed-job-20-kt259,32,indexed-job,14
6615,12.0,ContainersReady,indexed-job-20-kt259,32,indexed-job,14
6616,0.0,PodScheduled,indexed-job-15-2d7f4,32,indexed-job,14
6617,0.0,Initialized,indexed-job-15-2d7f4,32,indexed-job,14
6618,6.0,Ready,indexed-job-15-2d7f4,32,indexed-job,14
6619,6.0,ContainersReady,indexed-job-15-2d7f4,32,indexed-job,14
6620,0.0,PodScheduled,indexed-job-17-xd8lr,32,indexed-job,14
6621,0.0,Initialized,indexed-job-17-xd8lr,32,indexed-job,14
6622,8.0,Ready,indexed-job-17-xd8lr,32,indexed-job,14
6623,8.0,ContainersReady,indexed-job-17-xd8lr,32,indexed-job,14
6624,0.0,PodScheduled,indexed-job-16-hm7tf,32,indexed-job,14
6625,0.0,Initialized,indexed-job-16-hm7tf,32,indexed-job,14
6626,14.0,Ready,indexed-job-16-hm7tf,32,indexed-job,14
6627,14.0,ContainersReady,indexed-job-16-hm7tf,32,indexed-job,14
6628,0.0,PodScheduled,indexed-job-30-fvdvx,32,indexed-job,14
6629,0.0,Initialized,indexed-job-30-fvdvx,32,indexed-job,14
6630,10.0,Ready,indexed-job-30-fvdvx,32,indexed-job,14
6631,10.0,ContainersReady,indexed-job-30-fvdvx,32,indexed-job,14
6632,0.0,PodScheduled,indexed-job-19-n5pbz,32,indexed-job,14
6633,0.0,Initialized,indexed-job-19-n5pbz,32,indexed-job,14
6634,9.0,Ready,indexed-job-19-n5pbz,32,indexed-job,14
6635,9.0,ContainersReady,indexed-job-19-n5pbz,32,indexed-job,14
6636,0.0,PodScheduled,indexed-job-22-c58kc,32,indexed-job,14
6637,0.0,Initialized,indexed-job-22-c58kc,32,indexed-job,14
6638,10.0,Ready,indexed-job-22-c58kc,32,indexed-job,14
6639,10.0,ContainersReady,indexed-job-22-c58kc,32,indexed-job,14
6640,0.0,PodScheduled,indexed-job-23-72p72,32,indexed-job,14
6641,0.0,Initialized,indexed-job-23-72p72,32,indexed-job,14
6642,14.0,Ready,indexed-job-23-72p72,32,indexed-job,14
6643,14.0,ContainersReady,indexed-job-23-72p72,32,indexed-job,14
6644,0.0,PodScheduled,indexed-job-27-4h8sn,32,indexed-job,14
6645,0.0,Initialized,indexed-job-27-4h8sn,32,indexed-job,14
6646,15.0,Ready,indexed-job-27-4h8sn,32,indexed-job,14
6647,15.0,ContainersReady,indexed-job-27-4h8sn,32,indexed-job,14
6648,0.0,PodScheduled,indexed-job-28-k7vj8,32,indexed-job,14
6649,0.0,Initialized,indexed-job-28-k7vj8,32,indexed-job,14
6650,17.0,Ready,indexed-job-28-k7vj8,32,indexed-job,14
6651,17.0,ContainersReady,indexed-job-28-k7vj8,32,indexed-job,14
6652,0.0,PodScheduled,indexed-job-25-ls2g7,32,indexed-job,14
6653,0.0,Initialized,indexed-job-25-ls2g7,32,indexed-job,14
6654,18.0,Ready,indexed-job-25-ls2g7,32,indexed-job,14
6655,18.0,ContainersReady,indexed-job-25-ls2g7,32,indexed-job,14
6656,0.0,PodScheduled,indexed-job-21-dj75b,32,indexed-job,14
6657,0.0,Initialized,indexed-job-21-dj75b,32,indexed-job,14
6658,18.0,Ready,indexed-job-21-dj75b,32,indexed-job,14
6659,18.0,ContainersReady,indexed-job-21-dj75b,32,indexed-job,14
6660,0.0,PodScheduled,indexed-job-29-k24q9,32,indexed-job,14
6661,0.0,Initialized,indexed-job-29-k24q9,32,indexed-job,14
6662,15.0,Ready,indexed-job-29-k24q9,32,indexed-job,14
6663,15.0,ContainersReady,indexed-job-29-k24q9,32,indexed-job,14
6664,0.0,PodScheduled,indexed-job-26-kxg7f,32,indexed-job,14
6665,0.0,Initialized,indexed-job-26-kxg7f,32,indexed-job,14
6666,17.0,Ready,indexed-job-26-kxg7f,32,indexed-job,14
6667,17.0,ContainersReady,indexed-job-26-kxg7f,32,indexed-job,14
6668,0.0,PodScheduled,indexed-job-31-5vj5n,32,indexed-job,14
6669,0.0,Initialized,indexed-job-31-5vj5n,32,indexed-job,14
6670,17.0,Ready,indexed-job-31-5vj5n,32,indexed-job,14
6671,17.0,ContainersReady,indexed-job-31-5vj5n,32,indexed-job,14
6672,17.945,watch_create,all,32,pods,1
6673,33.277,watch_delete,all,32,pods,1
6674,0.0,PodScheduled,pod-0,32,pods,1
6675,0.0,Initialized,pod-0,32,pods,1
6676,2.0,Ready,pod-0,32,pods,1
6677,2.0,ContainersReady,pod-0,32,pods,1
6678,0.0,PodScheduled,pod-1,32,pods,1
6679,0.0,Initialized,pod-1,32,pods,1
6680,3.0,Ready,pod-1,32,pods,1
6681,3.0,ContainersReady,pod-1,32,pods,1
6682,0.0,PodScheduled,pod-2,32,pods,1
6683,0.0,Initialized,pod-2,32,pods,1
6684,2.0,Ready,pod-2,32,pods,1
6685,2.0,ContainersReady,pod-2,32,pods,1
6686,0.0,PodScheduled,pod-3,32,pods,1
6687,0.0,Initialized,pod-3,32,pods,1
6688,3.0,Ready,pod-3,32,pods,1
6689,3.0,ContainersReady,pod-3,32,pods,1
6690,0.0,PodScheduled,pod-4,32,pods,1
6691,0.0,Initialized,pod-4,32,pods,1
6692,4.0,Ready,pod-4,32,pods,1
6693,4.0,ContainersReady,pod-4,32,pods,1
6694,0.0,PodScheduled,pod-5,32,pods,1
6695,0.0,Initialized,pod-5,32,pods,1
6696,16.0,Ready,pod-5,32,pods,1
6697,16.0,ContainersReady,pod-5,32,pods,1
6698,0.0,PodScheduled,pod-6,32,pods,1
6699,0.0,Initialized,pod-6,32,pods,1
6700,13.0,Ready,pod-6,32,pods,1
6701,13.0,ContainersReady,pod-6,32,pods,1
6702,0.0,PodScheduled,pod-7,32,pods,1
6703,0.0,Initialized,pod-7,32,pods,1
6704,6.0,Ready,pod-7,32,pods,1
6705,6.0,ContainersReady,pod-7,32,pods,1
6706,0.0,PodScheduled,pod-8,32,pods,1
6707,0.0,Initialized,pod-8,32,pods,1
6708,5.0,Ready,pod-8,32,pods,1
6709,5.0,ContainersReady,pod-8,32,pods,1
6710,0.0,PodScheduled,pod-9,32,pods,1
6711,0.0,Initialized,pod-9,32,pods,1
6712,4.0,Ready,pod-9,32,pods,1
6713,4.0,ContainersReady,pod-9,32,pods,1
6714,0.0,PodScheduled,pod-10,32,pods,1
6715,0.0,Initialized,pod-10,32,pods,1
6716,7.0,Ready,pod-10,32,pods,1
6717,7.0,ContainersReady,pod-10,32,pods,1
6718,0.0,PodScheduled,pod-11,32,pods,1
6719,0.0,Initialized,pod-11,32,pods,1
6720,5.0,Ready,pod-11,32,pods,1
6721,5.0,ContainersReady,pod-11,32,pods,1
6722,0.0,PodScheduled,pod-12,32,pods,1
6723,0.0,Initialized,pod-12,32,pods,1
6724,6.0,Ready,pod-12,32,pods,1
6725,6.0,ContainersReady,pod-12,32,pods,1
6726,0.0,PodScheduled,pod-13,32,pods,1
6727,0.0,Initialized,pod-13,32,pods,1
6728,7.0,Ready,pod-13,32,pods,1
6729,7.0,ContainersReady,pod-13,32,pods,1
6730,0.0,PodScheduled,pod-14,32,pods,1
6731,0.0,Initialized,pod-14,32,pods,1
6732,8.0,Ready,pod-14,32,pods,1
6733,8.0,ContainersReady,pod-14,32,pods,1
6734,0.0,PodScheduled,pod-15,32,pods,1
6735,0.0,Initialized,pod-15,32,pods,1
6736,7.0,Ready,pod-15,32,pods,1
6737,7.0,ContainersReady,pod-15,32,pods,1
6738,0.0,PodScheduled,pod-16,32,pods,1
6739,0.0,Initialized,pod-16,32,pods,1
6740,9.0,Ready,pod-16,32,pods,1
6741,9.0,ContainersReady,pod-16,32,pods,1
6742,0.0,PodScheduled,pod-17,32,pods,1
6743,0.0,Initialized,pod-17,32,pods,1
6744,9.0,Ready,pod-17,32,pods,1
6745,9.0,ContainersReady,pod-17,32,pods,1
6746,0.0,PodScheduled,pod-18,32,pods,1
6747,0.0,Initialized,pod-18,32,pods,1
6748,8.0,Ready,pod-18,32,pods,1
6749,8.0,ContainersReady,pod-18,32,pods,1
6750,0.0,PodScheduled,pod-19,32,pods,1
6751,0.0,Initialized,pod-19,32,pods,1
6752,10.0,Ready,pod-19,32,pods,1
6753,10.0,ContainersReady,pod-19,32,pods,1
6754,0.0,PodScheduled,pod-20,32,pods,1
6755,0.0,Initialized,pod-20,32,pods,1
6756,12.0,Ready,pod-20,32,pods,1
6757,12.0,ContainersReady,pod-20,32,pods,1
6758,0.0,PodScheduled,pod-21,32,pods,1
6759,0.0,Initialized,pod-21,32,pods,1
6760,12.0,Ready,pod-21,32,pods,1
6761,12.0,ContainersReady,pod-21,32,pods,1
6762,0.0,PodScheduled,pod-22,32,pods,1
6763,0.0,Initialized,pod-22,32,pods,1
6764,11.0,Ready,pod-22,32,pods,1
6765,11.0,ContainersReady,pod-22,32,pods,1
6766,0.0,PodScheduled,pod-23,32,pods,1
6767,0.0,Initialized,pod-23,32,pods,1
6768,13.0,Ready,pod-23,32,pods,1
6769,13.0,ContainersReady,pod-23,32,pods,1
6770,0.0,PodScheduled,pod-24,32,pods,1
6771,0.0,Initialized,pod-24,32,pods,1
6772,11.0,Ready,pod-24,32,pods,1
6773,11.0,ContainersReady,pod-24,32,pods,1
6774,0.0,PodScheduled,pod-25,32,pods,1
6775,0.0,Initialized,pod-25,32,pods,1
6776,15.0,Ready,pod-25,32,pods,1
6777,15.0,ContainersReady,pod-25,32,pods,1
6778,0.0,PodScheduled,pod-26,32,pods,1
6779,0.0,Initialized,pod-26,32,pods,1
6780,14.0,Ready,pod-26,32,pods,1
6781,14.0,ContainersReady,pod-26,32,pods,1
6782,0.0,PodScheduled,pod-27,32,pods,1
6783,0.0,Initialized,pod-27,32,pods,1
6784,10.0,Ready,pod-27,32,pods,1
6785,10.0,ContainersReady,pod-27,32,pods,1
6786,0.0,PodScheduled,pod-28,32,pods,1
6787,0.0,Initialized,pod-28,32,pods,1
6788,16.0,Ready,pod-28,32,pods,1
6789,16.0,ContainersReady,pod-28,32,pods,1
6790,0.0,PodScheduled,pod-29,32,pods,1
6791,0.0,Initialized,pod-29,32,pods,1
6792,17.0,Ready,pod-29,32,pods,1
6793,17.0,ContainersReady,pod-29,32,pods,1
6794,0.0,PodScheduled,pod-30,32,pods,1
6795,0.0,Initialized,pod-30,32,pods,1
6796,14.0,Ready,pod-30,32,pods,1
6797,14.0,ContainersReady,pod-30,32,pods,1
6798,0.0,PodScheduled,pod-31,32,pods,1
6799,0.0,Initialized,pod-31,32,pods,1
6800,15.0,Ready,pod-31,32,pods,1
6801,15.0,ContainersReady,pod-31,32,pods,1
6802,17.826,watch_create,all,32,indexed-job,8
6803,34.237,watch_delete,all,32,indexed-job,8
6804,0.0,PodScheduled,indexed-job-0-2kmtl,32,indexed-job,8
6805,0.0,Initialized,indexed-job-0-2kmtl,32,indexed-job,8
6806,3.0,Ready,indexed-job-0-2kmtl,32,indexed-job,8
6807,3.0,ContainersReady,indexed-job-0-2kmtl,32,indexed-job,8
6808,0.0,PodScheduled,indexed-job-1-f6zb9,32,indexed-job,8
6809,0.0,Initialized,indexed-job-1-f6zb9,32,indexed-job,8
6810,3.0,Ready,indexed-job-1-f6zb9,32,indexed-job,8
6811,3.0,ContainersReady,indexed-job-1-f6zb9,32,indexed-job,8
6812,0.0,PodScheduled,indexed-job-2-6nkq9,32,indexed-job,8
6813,0.0,Initialized,indexed-job-2-6nkq9,32,indexed-job,8
6814,3.0,Ready,indexed-job-2-6nkq9,32,indexed-job,8
6815,3.0,ContainersReady,indexed-job-2-6nkq9,32,indexed-job,8
6816,0.0,PodScheduled,indexed-job-6-wkjqt,32,indexed-job,8
6817,0.0,Initialized,indexed-job-6-wkjqt,32,indexed-job,8
6818,6.0,Ready,indexed-job-6-wkjqt,32,indexed-job,8
6819,6.0,ContainersReady,indexed-job-6-wkjqt,32,indexed-job,8
6820,0.0,PodScheduled,indexed-job-3-26zjs,32,indexed-job,8
6821,0.0,Initialized,indexed-job-3-26zjs,32,indexed-job,8
6822,4.0,Ready,indexed-job-3-26zjs,32,indexed-job,8
6823,4.0,ContainersReady,indexed-job-3-26zjs,32,indexed-job,8
6824,0.0,PodScheduled,indexed-job-5-9zqwj,32,indexed-job,8
6825,0.0,Initialized,indexed-job-5-9zqwj,32,indexed-job,8
6826,5.0,Ready,indexed-job-5-9zqwj,32,indexed-job,8
6827,5.0,ContainersReady,indexed-job-5-9zqwj,32,indexed-job,8
6828,0.0,PodScheduled,indexed-job-4-8bxnn,32,indexed-job,8
6829,0.0,Initialized,indexed-job-4-8bxnn,32,indexed-job,8
6830,5.0,Ready,indexed-job-4-8bxnn,32,indexed-job,8
6831,5.0,ContainersReady,indexed-job-4-8bxnn,32,indexed-job,8
6832,0.0,PodScheduled,indexed-job-7-8szhv,32,indexed-job,8
6833,0.0,Initialized,indexed-job-7-8szhv,32,indexed-job,8
6834,4.0,Ready,indexed-job-7-8szhv,32,indexed-job,8
6835,4.0,ContainersReady,indexed-job-7-8szhv,32,indexed-job,8
6836,0.0,PodScheduled,indexed-job-14-6rgc4,32,indexed-job,8
6837,0.0,Initialized,indexed-job-14-6rgc4,32,indexed-job,8
6838,10.0,Ready,indexed-job-14-6rgc4,32,indexed-job,8
6839,10.0,ContainersReady,indexed-job-14-6rgc4,32,indexed-job,8
6840,0.0,PodScheduled,indexed-job-10-zhkkh,32,indexed-job,8
6841,0.0,Initialized,indexed-job-10-zhkkh,32,indexed-job,8
6842,13.0,Ready,indexed-job-10-zhkkh,32,indexed-job,8
6843,13.0,ContainersReady,indexed-job-10-zhkkh,32,indexed-job,8
6844,0.0,PodScheduled,indexed-job-8-vgkc4,32,indexed-job,8
6845,0.0,Initialized,indexed-job-8-vgkc4,32,indexed-job,8
6846,14.0,Ready,indexed-job-8-vgkc4,32,indexed-job,8
6847,14.0,ContainersReady,indexed-job-8-vgkc4,32,indexed-job,8
6848,0.0,PodScheduled,indexed-job-9-trcjm,32,indexed-job,8
6849,0.0,Initialized,indexed-job-9-trcjm,32,indexed-job,8
6850,6.0,Ready,indexed-job-9-trcjm,32,indexed-job,8
6851,6.0,ContainersReady,indexed-job-9-trcjm,32,indexed-job,8
6852,0.0,PodScheduled,indexed-job-13-n247x,32,indexed-job,8
6853,0.0,Initialized,indexed-job-13-n247x,32,indexed-job,8
6854,7.0,Ready,indexed-job-13-n247x,32,indexed-job,8
6855,7.0,ContainersReady,indexed-job-13-n247x,32,indexed-job,8
6856,0.0,PodScheduled,indexed-job-11-7htvh,32,indexed-job,8
6857,0.0,Initialized,indexed-job-11-7htvh,32,indexed-job,8
6858,9.0,Ready,indexed-job-11-7htvh,32,indexed-job,8
6859,9.0,ContainersReady,indexed-job-11-7htvh,32,indexed-job,8
6860,0.0,PodScheduled,indexed-job-12-6wtr7,32,indexed-job,8
6861,0.0,Initialized,indexed-job-12-6wtr7,32,indexed-job,8
6862,8.0,Ready,indexed-job-12-6wtr7,32,indexed-job,8
6863,8.0,ContainersReady,indexed-job-12-6wtr7,32,indexed-job,8
6864,0.0,PodScheduled,indexed-job-30-js2hh,32,indexed-job,8
6865,0.0,Initialized,indexed-job-30-js2hh,32,indexed-job,8
6866,9.0,Ready,indexed-job-30-js2hh,32,indexed-job,8
6867,9.0,ContainersReady,indexed-job-30-js2hh,32,indexed-job,8
6868,0.0,PodScheduled,indexed-job-21-8jb52,32,indexed-job,8
6869,0.0,Initialized,indexed-job-21-8jb52,32,indexed-job,8
6870,11.0,Ready,indexed-job-21-8jb52,32,indexed-job,8
6871,11.0,ContainersReady,indexed-job-21-8jb52,32,indexed-job,8
6872,0.0,PodScheduled,indexed-job-16-nwvwg,32,indexed-job,8
6873,0.0,Initialized,indexed-job-16-nwvwg,32,indexed-job,8
6874,10.0,Ready,indexed-job-16-nwvwg,32,indexed-job,8
6875,10.0,ContainersReady,indexed-job-16-nwvwg,32,indexed-job,8
6876,0.0,PodScheduled,indexed-job-18-67n7s,32,indexed-job,8
6877,0.0,Initialized,indexed-job-18-67n7s,32,indexed-job,8
6878,8.0,Ready,indexed-job-18-67n7s,32,indexed-job,8
6879,8.0,ContainersReady,indexed-job-18-67n7s,32,indexed-job,8
6880,0.0,PodScheduled,indexed-job-15-wxtzs,32,indexed-job,8
6881,0.0,Initialized,indexed-job-15-wxtzs,32,indexed-job,8
6882,15.0,Ready,indexed-job-15-wxtzs,32,indexed-job,8
6883,15.0,ContainersReady,indexed-job-15-wxtzs,32,indexed-job,8
6884,0.0,PodScheduled,indexed-job-22-hmbrz,32,indexed-job,8
6885,0.0,Initialized,indexed-job-22-hmbrz,32,indexed-job,8
6886,14.0,Ready,indexed-job-22-hmbrz,32,indexed-job,8
6887,14.0,ContainersReady,indexed-job-22-hmbrz,32,indexed-job,8
6888,0.0,PodScheduled,indexed-job-19-thf9b,32,indexed-job,8
6889,0.0,Initialized,indexed-job-19-thf9b,32,indexed-job,8
6890,7.0,Ready,indexed-job-19-thf9b,32,indexed-job,8
6891,7.0,ContainersReady,indexed-job-19-thf9b,32,indexed-job,8
6892,0.0,PodScheduled,indexed-job-20-l7qdj,32,indexed-job,8
6893,0.0,Initialized,indexed-job-20-l7qdj,32,indexed-job,8
6894,16.0,Ready,indexed-job-20-l7qdj,32,indexed-job,8
6895,16.0,ContainersReady,indexed-job-20-l7qdj,32,indexed-job,8
6896,0.0,PodScheduled,indexed-job-17-bk26x,32,indexed-job,8
6897,0.0,Initialized,indexed-job-17-bk26x,32,indexed-job,8
6898,18.0,Ready,indexed-job-17-bk26x,32,indexed-job,8
6899,18.0,ContainersReady,indexed-job-17-bk26x,32,indexed-job,8
6900,0.0,PodScheduled,indexed-job-25-x9hjs,32,indexed-job,8
6901,0.0,Initialized,indexed-job-25-x9hjs,32,indexed-job,8
6902,17.0,Ready,indexed-job-25-x9hjs,32,indexed-job,8
6903,17.0,ContainersReady,indexed-job-25-x9hjs,32,indexed-job,8
6904,0.0,PodScheduled,indexed-job-24-4zfqq,32,indexed-job,8
6905,0.0,Initialized,indexed-job-24-4zfqq,32,indexed-job,8
6906,16.0,Ready,indexed-job-24-4zfqq,32,indexed-job,8
6907,16.0,ContainersReady,indexed-job-24-4zfqq,32,indexed-job,8
6908,0.0,PodScheduled,indexed-job-23-hhvfh,32,indexed-job,8
6909,0.0,Initialized,indexed-job-23-hhvfh,32,indexed-job,8
6910,13.0,Ready,indexed-job-23-hhvfh,32,indexed-job,8
6911,13.0,ContainersReady,indexed-job-23-hhvfh,32,indexed-job,8
6912,0.0,PodScheduled,indexed-job-26-468ml,32,indexed-job,8
6913,0.0,Initialized,indexed-job-26-468ml,32,indexed-job,8
6914,11.0,Ready,indexed-job-26-468ml,32,indexed-job,8
6915,11.0,ContainersReady,indexed-job-26-468ml,32,indexed-job,8
6916,0.0,PodScheduled,indexed-job-27-m96zz,32,indexed-job,8
6917,0.0,Initialized,indexed-job-27-m96zz,32,indexed-job,8
6918,15.0,Ready,indexed-job-27-m96zz,32,indexed-job,8
6919,15.0,ContainersReady,indexed-job-27-m96zz,32,indexed-job,8
6920,0.0,PodScheduled,indexed-job-28-xxdlr,32,indexed-job,8
6921,0.0,Initialized,indexed-job-28-xxdlr,32,indexed-job,8
6922,12.0,Ready,indexed-job-28-xxdlr,32,indexed-job,8
6923,12.0,ContainersReady,indexed-job-28-xxdlr,32,indexed-job,8
6924,0.0,PodScheduled,indexed-job-29-r26wj,32,indexed-job,8
6925,0.0,Initialized,indexed-job-29-r26wj,32,indexed-job,8
6926,17.0,Ready,indexed-job-29-r26wj,32,indexed-job,8
6927,17.0,ContainersReady,indexed-job-29-r26wj,32,indexed-job,8
6928,0.0,PodScheduled,indexed-job-31-p8jv2,32,indexed-job,8
6929,0.0,Initialized,indexed-job-31-p8jv2,32,indexed-job,8
6930,18.0,Ready,indexed-job-31-p8jv2,32,indexed-job,8
6931,18.0,ContainersReady,indexed-job-31-p8jv2,32,indexed-job,8
6932,16.83,watch_create,all,32,indexed-job,4
6933,34.477,watch_delete,all,32,indexed-job,4
6934,0.0,PodScheduled,indexed-job-0-h8r9g,32,indexed-job,4
6935,0.0,Initialized,indexed-job-0-h8r9g,32,indexed-job,4
6936,2.0,Ready,indexed-job-0-h8r9g,32,indexed-job,4
6937,2.0,ContainersReady,indexed-job-0-h8r9g,32,indexed-job,4
6938,0.0,PodScheduled,indexed-job-1-t4w2h,32,indexed-job,4
6939,0.0,Initialized,indexed-job-1-t4w2h,32,indexed-job,4
6940,3.0,Ready,indexed-job-1-t4w2h,32,indexed-job,4
6941,3.0,ContainersReady,indexed-job-1-t4w2h,32,indexed-job,4
6942,0.0,PodScheduled,indexed-job-2-mgtbv,32,indexed-job,4
6943,0.0,Initialized,indexed-job-2-mgtbv,32,indexed-job,4
6944,4.0,Ready,indexed-job-2-mgtbv,32,indexed-job,4
6945,4.0,ContainersReady,indexed-job-2-mgtbv,32,indexed-job,4
6946,0.0,PodScheduled,indexed-job-3-mmzqn,32,indexed-job,4
6947,0.0,Initialized,indexed-job-3-mmzqn,32,indexed-job,4
6948,6.0,Ready,indexed-job-3-mmzqn,32,indexed-job,4
6949,6.0,ContainersReady,indexed-job-3-mmzqn,32,indexed-job,4
6950,0.0,PodScheduled,indexed-job-4-kq4ds,32,indexed-job,4
6951,0.0,Initialized,indexed-job-4-kq4ds,32,indexed-job,4
6952,5.0,Ready,indexed-job-4-kq4ds,32,indexed-job,4
6953,5.0,ContainersReady,indexed-job-4-kq4ds,32,indexed-job,4
6954,0.0,PodScheduled,indexed-job-5-v96xl,32,indexed-job,4
6955,0.0,Initialized,indexed-job-5-v96xl,32,indexed-job,4
6956,3.0,Ready,indexed-job-5-v96xl,32,indexed-job,4
6957,3.0,ContainersReady,indexed-job-5-v96xl,32,indexed-job,4
6958,0.0,PodScheduled,indexed-job-6-brs5p,32,indexed-job,4
6959,0.0,Initialized,indexed-job-6-brs5p,32,indexed-job,4
6960,4.0,Ready,indexed-job-6-brs5p,32,indexed-job,4
6961,4.0,ContainersReady,indexed-job-6-brs5p,32,indexed-job,4
6962,0.0,PodScheduled,indexed-job-12-xvgbk,32,indexed-job,4
6963,0.0,Initialized,indexed-job-12-xvgbk,32,indexed-job,4
6964,14.0,Ready,indexed-job-12-xvgbk,32,indexed-job,4
6965,14.0,ContainersReady,indexed-job-12-xvgbk,32,indexed-job,4
6966,0.0,PodScheduled,indexed-job-7-gbgzs,32,indexed-job,4
6967,0.0,Initialized,indexed-job-7-gbgzs,32,indexed-job,4
6968,6.0,Ready,indexed-job-7-gbgzs,32,indexed-job,4
6969,6.0,ContainersReady,indexed-job-7-gbgzs,32,indexed-job,4
6970,0.0,PodScheduled,indexed-job-13-7q4df,32,indexed-job,4
6971,0.0,Initialized,indexed-job-13-7q4df,32,indexed-job,4
6972,5.0,Ready,indexed-job-13-7q4df,32,indexed-job,4
6973,5.0,ContainersReady,indexed-job-13-7q4df,32,indexed-job,4
6974,0.0,PodScheduled,indexed-job-11-hg5jv,32,indexed-job,4
6975,0.0,Initialized,indexed-job-11-hg5jv,32,indexed-job,4
6976,7.0,Ready,indexed-job-11-hg5jv,32,indexed-job,4
6977,7.0,ContainersReady,indexed-job-11-hg5jv,32,indexed-job,4
6978,0.0,PodScheduled,indexed-job-8-z92fv,32,indexed-job,4
6979,0.0,Initialized,indexed-job-8-z92fv,32,indexed-job,4
6980,8.0,Ready,indexed-job-8-z92fv,32,indexed-job,4
6981,8.0,ContainersReady,indexed-job-8-z92fv,32,indexed-job,4
6982,0.0,PodScheduled,indexed-job-9-6smsw,32,indexed-job,4
6983,0.0,Initialized,indexed-job-9-6smsw,32,indexed-job,4
6984,8.0,Ready,indexed-job-9-6smsw,32,indexed-job,4
6985,8.0,ContainersReady,indexed-job-9-6smsw,32,indexed-job,4
6986,0.0,PodScheduled,indexed-job-10-knvpg,32,indexed-job,4
6987,0.0,Initialized,indexed-job-10-knvpg,32,indexed-job,4
6988,8.0,Ready,indexed-job-10-knvpg,32,indexed-job,4
6989,8.0,ContainersReady,indexed-job-10-knvpg,32,indexed-job,4
6990,0.0,PodScheduled,indexed-job-14-st8rx,32,indexed-job,4
6991,0.0,Initialized,indexed-job-14-st8rx,32,indexed-job,4
6992,9.0,Ready,indexed-job-14-st8rx,32,indexed-job,4
6993,9.0,ContainersReady,indexed-job-14-st8rx,32,indexed-job,4
6994,0.0,PodScheduled,indexed-job-30-7nqhf,32,indexed-job,4
6995,0.0,Initialized,indexed-job-30-7nqhf,32,indexed-job,4
6996,7.0,Ready,indexed-job-30-7nqhf,32,indexed-job,4
6997,7.0,ContainersReady,indexed-job-30-7nqhf,32,indexed-job,4
6998,0.0,PodScheduled,indexed-job-21-2ftdj,32,indexed-job,4
6999,0.0,Initialized,indexed-job-21-2ftdj,32,indexed-job,4
7000,14.0,Ready,indexed-job-21-2ftdj,32,indexed-job,4
7001,14.0,ContainersReady,indexed-job-21-2ftdj,32,indexed-job,4
7002,0.0,PodScheduled,indexed-job-17-jrd5q,32,indexed-job,4
7003,0.0,Initialized,indexed-job-17-jrd5q,32,indexed-job,4
7004,11.0,Ready,indexed-job-17-jrd5q,32,indexed-job,4
7005,11.0,ContainersReady,indexed-job-17-jrd5q,32,indexed-job,4
7006,0.0,PodScheduled,indexed-job-25-gkp5x,32,indexed-job,4
7007,0.0,Initialized,indexed-job-25-gkp5x,32,indexed-job,4
7008,11.0,Ready,indexed-job-25-gkp5x,32,indexed-job,4
7009,11.0,ContainersReady,indexed-job-25-gkp5x,32,indexed-job,4
7010,0.0,PodScheduled,indexed-job-16-xpwsq,32,indexed-job,4
7011,0.0,Initialized,indexed-job-16-xpwsq,32,indexed-job,4
7012,15.0,Ready,indexed-job-16-xpwsq,32,indexed-job,4
7013,15.0,ContainersReady,indexed-job-16-xpwsq,32,indexed-job,4
7014,0.0,PodScheduled,indexed-job-15-llsv6,32,indexed-job,4
7015,0.0,Initialized,indexed-job-15-llsv6,32,indexed-job,4
7016,10.0,Ready,indexed-job-15-llsv6,32,indexed-job,4
7017,10.0,ContainersReady,indexed-job-15-llsv6,32,indexed-job,4
7018,0.0,PodScheduled,indexed-job-24-mxztl,32,indexed-job,4
7019,0.0,Initialized,indexed-job-24-mxztl,32,indexed-job,4
7020,13.0,Ready,indexed-job-24-mxztl,32,indexed-job,4
7021,13.0,ContainersReady,indexed-job-24-mxztl,32,indexed-job,4
7022,0.0,PodScheduled,indexed-job-26-m7gq2,32,indexed-job,4
7023,0.0,Initialized,indexed-job-26-m7gq2,32,indexed-job,4
7024,13.0,Ready,indexed-job-26-m7gq2,32,indexed-job,4
7025,13.0,ContainersReady,indexed-job-26-m7gq2,32,indexed-job,4
7026,0.0,PodScheduled,indexed-job-22-pqmgq,32,indexed-job,4
7027,0.0,Initialized,indexed-job-22-pqmgq,32,indexed-job,4
7028,15.0,Ready,indexed-job-22-pqmgq,32,indexed-job,4
7029,15.0,ContainersReady,indexed-job-22-pqmgq,32,indexed-job,4
7030,0.0,PodScheduled,indexed-job-23-r4dzp,32,indexed-job,4
7031,0.0,Initialized,indexed-job-23-r4dzp,32,indexed-job,4
7032,10.0,Ready,indexed-job-23-r4dzp,32,indexed-job,4
7033,10.0,ContainersReady,indexed-job-23-r4dzp,32,indexed-job,4
7034,0.0,PodScheduled,indexed-job-18-pt88z,32,indexed-job,4
7035,0.0,Initialized,indexed-job-18-pt88z,32,indexed-job,4
7036,12.0,Ready,indexed-job-18-pt88z,32,indexed-job,4
7037,12.0,ContainersReady,indexed-job-18-pt88z,32,indexed-job,4
7038,0.0,PodScheduled,indexed-job-27-t48z8,32,indexed-job,4
7039,0.0,Initialized,indexed-job-27-t48z8,32,indexed-job,4
7040,9.0,Ready,indexed-job-27-t48z8,32,indexed-job,4
7041,9.0,ContainersReady,indexed-job-27-t48z8,32,indexed-job,4
7042,0.0,PodScheduled,indexed-job-28-gmzn8,32,indexed-job,4
7043,0.0,Initialized,indexed-job-28-gmzn8,32,indexed-job,4
7044,11.0,Ready,indexed-job-28-gmzn8,32,indexed-job,4
7045,11.0,ContainersReady,indexed-job-28-gmzn8,32,indexed-job,4
7046,0.0,PodScheduled,indexed-job-29-264sp,32,indexed-job,4
7047,0.0,Initialized,indexed-job-29-264sp,32,indexed-job,4
7048,15.0,Ready,indexed-job-29-264sp,32,indexed-job,4
7049,15.0,ContainersReady,indexed-job-29-264sp,32,indexed-job,4
7050,0.0,PodScheduled,indexed-job-19-ljk7n,32,indexed-job,4
7051,0.0,Initialized,indexed-job-19-ljk7n,32,indexed-job,4
7052,16.0,Ready,indexed-job-19-ljk7n,32,indexed-job,4
7053,16.0,ContainersReady,indexed-job-19-ljk7n,32,indexed-job,4
7054,0.0,PodScheduled,indexed-job-20-wdksf,32,indexed-job,4
7055,0.0,Initialized,indexed-job-20-wdksf,32,indexed-job,4
7056,16.0,Ready,indexed-job-20-wdksf,32,indexed-job,4
7057,16.0,ContainersReady,indexed-job-20-wdksf,32,indexed-job,4
7058,0.0,PodScheduled,indexed-job-31-526sb,32,indexed-job,4
7059,0.0,Initialized,indexed-job-31-526sb,32,indexed-job,4
7060,15.0,Ready,indexed-job-31-526sb,32,indexed-job,4
7061,15.0,ContainersReady,indexed-job-31-526sb,32,indexed-job,4
7062,19.006,watch_create,all,32,pods,20
7063,33.303,watch_delete,all,32,pods,20
7064,0.0,PodScheduled,pod-0,32,pods,20
7065,0.0,Initialized,pod-0,32,pods,20
7066,2.0,Ready,pod-0,32,pods,20
7067,2.0,ContainersReady,pod-0,32,pods,20
7068,0.0,PodScheduled,pod-1,32,pods,20
7069,0.0,Initialized,pod-1,32,pods,20
7070,3.0,Ready,pod-1,32,pods,20
7071,3.0,ContainersReady,pod-1,32,pods,20
7072,0.0,PodScheduled,pod-2,32,pods,20
7073,0.0,Initialized,pod-2,32,pods,20
7074,3.0,Ready,pod-2,32,pods,20
7075,3.0,ContainersReady,pod-2,32,pods,20
7076,0.0,PodScheduled,pod-3,32,pods,20
7077,0.0,Initialized,pod-3,32,pods,20
7078,4.0,Ready,pod-3,32,pods,20
7079,4.0,ContainersReady,pod-3,32,pods,20
7080,0.0,PodScheduled,pod-4,32,pods,20
7081,0.0,Initialized,pod-4,32,pods,20
7082,4.0,Ready,pod-4,32,pods,20
7083,4.0,ContainersReady,pod-4,32,pods,20
7084,0.0,PodScheduled,pod-5,32,pods,20
7085,0.0,Initialized,pod-5,32,pods,20
7086,5.0,Ready,pod-5,32,pods,20
7087,5.0,ContainersReady,pod-5,32,pods,20
7088,0.0,PodScheduled,pod-6,32,pods,20
7089,0.0,Initialized,pod-6,32,pods,20
7090,5.0,Ready,pod-6,32,pods,20
7091,5.0,ContainersReady,pod-6,32,pods,20
7092,0.0,PodScheduled,pod-7,32,pods,20
7093,0.0,Initialized,pod-7,32,pods,20
7094,8.0,Ready,pod-7,32,pods,20
7095,8.0,ContainersReady,pod-7,32,pods,20
7096,0.0,PodScheduled,pod-8,32,pods,20
7097,0.0,Initialized,pod-8,32,pods,20
7098,7.0,Ready,pod-8,32,pods,20
7099,7.0,ContainersReady,pod-8,32,pods,20
7100,0.0,PodScheduled,pod-9,32,pods,20
7101,0.0,Initialized,pod-9,32,pods,20
7102,7.0,Ready,pod-9,32,pods,20
7103,7.0,ContainersReady,pod-9,32,pods,20
7104,0.0,PodScheduled,pod-10,32,pods,20
7105,0.0,Initialized,pod-10,32,pods,20
7106,8.0,Ready,pod-10,32,pods,20
7107,8.0,ContainersReady,pod-10,32,pods,20
7108,0.0,PodScheduled,pod-11,32,pods,20
7109,0.0,Initialized,pod-11,32,pods,20
7110,6.0,Ready,pod-11,32,pods,20
7111,6.0,ContainersReady,pod-11,32,pods,20
7112,0.0,PodScheduled,pod-12,32,pods,20
7113,0.0,Initialized,pod-12,32,pods,20
7114,9.0,Ready,pod-12,32,pods,20
7115,9.0,ContainersReady,pod-12,32,pods,20
7116,0.0,PodScheduled,pod-13,32,pods,20
7117,0.0,Initialized,pod-13,32,pods,20
7118,10.0,Ready,pod-13,32,pods,20
7119,10.0,ContainersReady,pod-13,32,pods,20
7120,0.0,PodScheduled,pod-14,32,pods,20
7121,0.0,Initialized,pod-14,32,pods,20
7122,9.0,Ready,pod-14,32,pods,20
7123,9.0,ContainersReady,pod-14,32,pods,20
7124,0.0,PodScheduled,pod-15,32,pods,20
7125,0.0,Initialized,pod-15,32,pods,20
7126,10.0,Ready,pod-15,32,pods,20
7127,10.0,ContainersReady,pod-15,32,pods,20
7128,0.0,PodScheduled,pod-16,32,pods,20
7129,0.0,Initialized,pod-16,32,pods,20
7130,6.0,Ready,pod-16,32,pods,20
7131,6.0,ContainersReady,pod-16,32,pods,20
7132,0.0,PodScheduled,pod-17,32,pods,20
7133,0.0,Initialized,pod-17,32,pods,20
7134,11.0,Ready,pod-17,32,pods,20
7135,11.0,ContainersReady,pod-17,32,pods,20
7136,0.0,PodScheduled,pod-18,32,pods,20
7137,0.0,Initialized,pod-18,32,pods,20
7138,12.0,Ready,pod-18,32,pods,20
7139,12.0,ContainersReady,pod-18,32,pods,20
7140,0.0,PodScheduled,pod-19,32,pods,20
7141,0.0,Initialized,pod-19,32,pods,20
7142,13.0,Ready,pod-19,32,pods,20
7143,13.0,ContainersReady,pod-19,32,pods,20
7144,0.0,PodScheduled,pod-20,32,pods,20
7145,0.0,Initialized,pod-20,32,pods,20
7146,11.0,Ready,pod-20,32,pods,20
7147,11.0,ContainersReady,pod-20,32,pods,20
7148,0.0,PodScheduled,pod-21,32,pods,20
7149,0.0,Initialized,pod-21,32,pods,20
7150,13.0,Ready,pod-21,32,pods,20
7151,13.0,ContainersReady,pod-21,32,pods,20
7152,0.0,PodScheduled,pod-22,32,pods,20
7153,0.0,Initialized,pod-22,32,pods,20
7154,14.0,Ready,pod-22,32,pods,20
7155,14.0,ContainersReady,pod-22,32,pods,20
7156,0.0,PodScheduled,pod-23,32,pods,20
7157,0.0,Initialized,pod-23,32,pods,20
7158,15.0,Ready,pod-23,32,pods,20
7159,15.0,ContainersReady,pod-23,32,pods,20
7160,0.0,PodScheduled,pod-24,32,pods,20
7161,0.0,Initialized,pod-24,32,pods,20
7162,16.0,Ready,pod-24,32,pods,20
7163,16.0,ContainersReady,pod-24,32,pods,20
7164,0.0,PodScheduled,pod-25,32,pods,20
7165,0.0,Initialized,pod-25,32,pods,20
7166,17.0,Ready,pod-25,32,pods,20
7167,17.0,ContainersReady,pod-25,32,pods,20
7168,0.0,PodScheduled,pod-26,32,pods,20
7169,0.0,Initialized,pod-26,32,pods,20
7170,16.0,Ready,pod-26,32,pods,20
7171,16.0,ContainersReady,pod-26,32,pods,20
7172,0.0,PodScheduled,pod-27,32,pods,20
7173,0.0,Initialized,pod-27,32,pods,20
7174,14.0,Ready,pod-27,32,pods,20
7175,14.0,ContainersReady,pod-27,32,pods,20
7176,0.0,PodScheduled,pod-28,32,pods,20
7177,0.0,Initialized,pod-28,32,pods,20
7178,12.0,Ready,pod-28,32,pods,20
7179,12.0,ContainersReady,pod-28,32,pods,20
7180,0.0,PodScheduled,pod-29,32,pods,20
7181,1.0,Initialized,pod-29,32,pods,20
7182,18.0,Ready,pod-29,32,pods,20
7183,18.0,ContainersReady,pod-29,32,pods,20
7184,1.0,PodScheduled,pod-30,32,pods,20
7185,1.0,Initialized,pod-30,32,pods,20
7186,17.0,Ready,pod-30,32,pods,20
7187,17.0,ContainersReady,pod-30,32,pods,20
7188,0.0,PodScheduled,pod-31,32,pods,20
7189,0.0,Initialized,pod-31,32,pods,20
7190,17.0,Ready,pod-31,32,pods,20
7191,17.0,ContainersReady,pod-31,32,pods,20
7192,19.025,watch_create,all,32,pods,16
7193,33.324,watch_delete,all,32,pods,16
7194,0.0,PodScheduled,pod-0,32,pods,16
7195,0.0,Initialized,pod-0,32,pods,16
7196,2.0,Ready,pod-0,32,pods,16
7197,2.0,ContainersReady,pod-0,32,pods,16
7198,0.0,PodScheduled,pod-1,32,pods,16
7199,0.0,Initialized,pod-1,32,pods,16
7200,3.0,Ready,pod-1,32,pods,16
7201,3.0,ContainersReady,pod-1,32,pods,16
7202,0.0,PodScheduled,pod-2,32,pods,16
7203,0.0,Initialized,pod-2,32,pods,16
7204,4.0,Ready,pod-2,32,pods,16
7205,4.0,ContainersReady,pod-2,32,pods,16
7206,0.0,PodScheduled,pod-3,32,pods,16
7207,0.0,Initialized,pod-3,32,pods,16
7208,3.0,Ready,pod-3,32,pods,16
7209,3.0,ContainersReady,pod-3,32,pods,16
7210,0.0,PodScheduled,pod-4,32,pods,16
7211,0.0,Initialized,pod-4,32,pods,16
7212,5.0,Ready,pod-4,32,pods,16
7213,5.0,ContainersReady,pod-4,32,pods,16
7214,0.0,PodScheduled,pod-5,32,pods,16
7215,0.0,Initialized,pod-5,32,pods,16
7216,4.0,Ready,pod-5,32,pods,16
7217,4.0,ContainersReady,pod-5,32,pods,16
7218,0.0,PodScheduled,pod-6,32,pods,16
7219,0.0,Initialized,pod-6,32,pods,16
7220,5.0,Ready,pod-6,32,pods,16
7221,5.0,ContainersReady,pod-6,32,pods,16
7222,0.0,PodScheduled,pod-7,32,pods,16
7223,0.0,Initialized,pod-7,32,pods,16
7224,6.0,Ready,pod-7,32,pods,16
7225,6.0,ContainersReady,pod-7,32,pods,16
7226,0.0,PodScheduled,pod-8,32,pods,16
7227,0.0,Initialized,pod-8,32,pods,16
7228,6.0,Ready,pod-8,32,pods,16
7229,6.0,ContainersReady,pod-8,32,pods,16
7230,0.0,PodScheduled,pod-9,32,pods,16
7231,0.0,Initialized,pod-9,32,pods,16
7232,7.0,Ready,pod-9,32,pods,16
7233,7.0,ContainersReady,pod-9,32,pods,16
7234,0.0,PodScheduled,pod-10,32,pods,16
7235,0.0,Initialized,pod-10,32,pods,16
7236,8.0,Ready,pod-10,32,pods,16
7237,8.0,ContainersReady,pod-10,32,pods,16
7238,0.0,PodScheduled,pod-11,32,pods,16
7239,0.0,Initialized,pod-11,32,pods,16
7240,7.0,Ready,pod-11,32,pods,16
7241,7.0,ContainersReady,pod-11,32,pods,16
7242,0.0,PodScheduled,pod-12,32,pods,16
7243,0.0,Initialized,pod-12,32,pods,16
7244,8.0,Ready,pod-12,32,pods,16
7245,8.0,ContainersReady,pod-12,32,pods,16
7246,0.0,PodScheduled,pod-13,32,pods,16
7247,0.0,Initialized,pod-13,32,pods,16
7248,9.0,Ready,pod-13,32,pods,16
7249,9.0,ContainersReady,pod-13,32,pods,16
7250,0.0,PodScheduled,pod-14,32,pods,16
7251,0.0,Initialized,pod-14,32,pods,16
7252,9.0,Ready,pod-14,32,pods,16
7253,9.0,ContainersReady,pod-14,32,pods,16
7254,0.0,PodScheduled,pod-15,32,pods,16
7255,0.0,Initialized,pod-15,32,pods,16
7256,10.0,Ready,pod-15,32,pods,16
7257,10.0,ContainersReady,pod-15,32,pods,16
7258,0.0,PodScheduled,pod-16,32,pods,16
7259,0.0,Initialized,pod-16,32,pods,16
7260,12.0,Ready,pod-16,32,pods,16
7261,12.0,ContainersReady,pod-16,32,pods,16
7262,0.0,PodScheduled,pod-17,32,pods,16
7263,0.0,Initialized,pod-17,32,pods,16
7264,10.0,Ready,pod-17,32,pods,16
7265,10.0,ContainersReady,pod-17,32,pods,16
7266,0.0,PodScheduled,pod-18,32,pods,16
7267,0.0,Initialized,pod-18,32,pods,16
7268,15.0,Ready,pod-18,32,pods,16
7269,15.0,ContainersReady,pod-18,32,pods,16
7270,0.0,PodScheduled,pod-19,32,pods,16
7271,0.0,Initialized,pod-19,32,pods,16
7272,11.0,Ready,pod-19,32,pods,16
7273,11.0,ContainersReady,pod-19,32,pods,16
7274,0.0,PodScheduled,pod-20,32,pods,16
7275,0.0,Initialized,pod-20,32,pods,16
7276,10.0,Ready,pod-20,32,pods,16
7277,10.0,ContainersReady,pod-20,32,pods,16
7278,0.0,PodScheduled,pod-21,32,pods,16
7279,0.0,Initialized,pod-21,32,pods,16
7280,14.0,Ready,pod-21,32,pods,16
7281,14.0,ContainersReady,pod-21,32,pods,16
7282,0.0,PodScheduled,pod-22,32,pods,16
7283,0.0,Initialized,pod-22,32,pods,16
7284,13.0,Ready,pod-22,32,pods,16
7285,13.0,ContainersReady,pod-22,32,pods,16
7286,0.0,PodScheduled,pod-23,32,pods,16
7287,0.0,Initialized,pod-23,32,pods,16
7288,14.0,Ready,pod-23,32,pods,16
7289,14.0,ContainersReady,pod-23,32,pods,16
7290,0.0,PodScheduled,pod-24,32,pods,16
7291,0.0,Initialized,pod-24,32,pods,16
7292,16.0,Ready,pod-24,32,pods,16
7293,16.0,ContainersReady,pod-24,32,pods,16
7294,0.0,PodScheduled,pod-25,32,pods,16
7295,0.0,Initialized,pod-25,32,pods,16
7296,17.0,Ready,pod-25,32,pods,16
7297,17.0,ContainersReady,pod-25,32,pods,16
7298,0.0,PodScheduled,pod-26,32,pods,16
7299,0.0,Initialized,pod-26,32,pods,16
7300,13.0,Ready,pod-26,32,pods,16
7301,13.0,ContainersReady,pod-26,32,pods,16
7302,0.0,PodScheduled,pod-27,32,pods,16
7303,1.0,Initialized,pod-27,32,pods,16
7304,17.0,Ready,pod-27,32,pods,16
7305,17.0,ContainersReady,pod-27,32,pods,16
7306,1.0,PodScheduled,pod-28,32,pods,16
7307,1.0,Initialized,pod-28,32,pods,16
7308,16.0,Ready,pod-28,32,pods,16
7309,16.0,ContainersReady,pod-28,32,pods,16
7310,0.0,PodScheduled,pod-29,32,pods,16
7311,0.0,Initialized,pod-29,32,pods,16
7312,10.0,Ready,pod-29,32,pods,16
7313,10.0,ContainersReady,pod-29,32,pods,16
7314,0.0,PodScheduled,pod-30,32,pods,16
7315,0.0,Initialized,pod-30,32,pods,16
7316,11.0,Ready,pod-30,32,pods,16
7317,11.0,ContainersReady,pod-30,32,pods,16
7318,0.0,PodScheduled,pod-31,32,pods,16
7319,0.0,Initialized,pod-31,32,pods,16
7320,17.0,Ready,pod-31,32,pods,16
7321,17.0,ContainersReady,pod-31,32,pods,16
7322,17.825,watch_create,all,32,indexed-job,7
7323,34.526,watch_delete,all,32,indexed-job,7
7324,0.0,PodScheduled,indexed-job-0-72gr8,32,indexed-job,7
7325,0.0,Initialized,indexed-job-0-72gr8,32,indexed-job,7
7326,3.0,Ready,indexed-job-0-72gr8,32,indexed-job,7
7327,3.0,ContainersReady,indexed-job-0-72gr8,32,indexed-job,7
7328,0.0,PodScheduled,indexed-job-1-q6dwl,32,indexed-job,7
7329,0.0,Initialized,indexed-job-1-q6dwl,32,indexed-job,7
7330,3.0,Ready,indexed-job-1-q6dwl,32,indexed-job,7
7331,3.0,ContainersReady,indexed-job-1-q6dwl,32,indexed-job,7
7332,0.0,PodScheduled,indexed-job-2-qq7hm,32,indexed-job,7
7333,0.0,Initialized,indexed-job-2-qq7hm,32,indexed-job,7
7334,4.0,Ready,indexed-job-2-qq7hm,32,indexed-job,7
7335,4.0,ContainersReady,indexed-job-2-qq7hm,32,indexed-job,7
7336,0.0,PodScheduled,indexed-job-5-2t5rz,32,indexed-job,7
7337,0.0,Initialized,indexed-job-5-2t5rz,32,indexed-job,7
7338,4.0,Ready,indexed-job-5-2t5rz,32,indexed-job,7
7339,4.0,ContainersReady,indexed-job-5-2t5rz,32,indexed-job,7
7340,0.0,PodScheduled,indexed-job-6-5bf6p,32,indexed-job,7
7341,0.0,Initialized,indexed-job-6-5bf6p,32,indexed-job,7
7342,8.0,Ready,indexed-job-6-5bf6p,32,indexed-job,7
7343,8.0,ContainersReady,indexed-job-6-5bf6p,32,indexed-job,7
7344,0.0,PodScheduled,indexed-job-3-kx9vm,32,indexed-job,7
7345,0.0,Initialized,indexed-job-3-kx9vm,32,indexed-job,7
7346,7.0,Ready,indexed-job-3-kx9vm,32,indexed-job,7
7347,7.0,ContainersReady,indexed-job-3-kx9vm,32,indexed-job,7
7348,0.0,PodScheduled,indexed-job-4-k2bpb,32,indexed-job,7
7349,0.0,Initialized,indexed-job-4-k2bpb,32,indexed-job,7
7350,5.0,Ready,indexed-job-4-k2bpb,32,indexed-job,7
7351,5.0,ContainersReady,indexed-job-4-k2bpb,32,indexed-job,7
7352,0.0,PodScheduled,indexed-job-7-r48lf,32,indexed-job,7
7353,0.0,Initialized,indexed-job-7-r48lf,32,indexed-job,7
7354,4.0,Ready,indexed-job-7-r48lf,32,indexed-job,7
7355,4.0,ContainersReady,indexed-job-7-r48lf,32,indexed-job,7
7356,0.0,PodScheduled,indexed-job-14-cqv2x,32,indexed-job,7
7357,0.0,Initialized,indexed-job-14-cqv2x,32,indexed-job,7
7358,5.0,Ready,indexed-job-14-cqv2x,32,indexed-job,7
7359,5.0,ContainersReady,indexed-job-14-cqv2x,32,indexed-job,7
7360,0.0,PodScheduled,indexed-job-8-vzmz7,32,indexed-job,7
7361,0.0,Initialized,indexed-job-8-vzmz7,32,indexed-job,7
7362,14.0,Ready,indexed-job-8-vzmz7,32,indexed-job,7
7363,14.0,ContainersReady,indexed-job-8-vzmz7,32,indexed-job,7
7364,0.0,PodScheduled,indexed-job-10-dbk7k,32,indexed-job,7
7365,0.0,Initialized,indexed-job-10-dbk7k,32,indexed-job,7
7366,9.0,Ready,indexed-job-10-dbk7k,32,indexed-job,7
7367,9.0,ContainersReady,indexed-job-10-dbk7k,32,indexed-job,7
7368,0.0,PodScheduled,indexed-job-11-s97nq,32,indexed-job,7
7369,0.0,Initialized,indexed-job-11-s97nq,32,indexed-job,7
7370,10.0,Ready,indexed-job-11-s97nq,32,indexed-job,7
7371,10.0,ContainersReady,indexed-job-11-s97nq,32,indexed-job,7
7372,0.0,PodScheduled,indexed-job-9-75gp6,32,indexed-job,7
7373,0.0,Initialized,indexed-job-9-75gp6,32,indexed-job,7
7374,9.0,Ready,indexed-job-9-75gp6,32,indexed-job,7
7375,9.0,ContainersReady,indexed-job-9-75gp6,32,indexed-job,7
7376,0.0,PodScheduled,indexed-job-12-kg6k6,32,indexed-job,7
7377,0.0,Initialized,indexed-job-12-kg6k6,32,indexed-job,7
7378,7.0,Ready,indexed-job-12-kg6k6,32,indexed-job,7
7379,7.0,ContainersReady,indexed-job-12-kg6k6,32,indexed-job,7
7380,0.0,PodScheduled,indexed-job-13-896sm,32,indexed-job,7
7381,0.0,Initialized,indexed-job-13-896sm,32,indexed-job,7
7382,14.0,Ready,indexed-job-13-896sm,32,indexed-job,7
7383,14.0,ContainersReady,indexed-job-13-896sm,32,indexed-job,7
7384,0.0,PodScheduled,indexed-job-30-ss92z,32,indexed-job,7
7385,0.0,Initialized,indexed-job-30-ss92z,32,indexed-job,7
7386,16.0,Ready,indexed-job-30-ss92z,32,indexed-job,7
7387,16.0,ContainersReady,indexed-job-30-ss92z,32,indexed-job,7
7388,0.0,PodScheduled,indexed-job-16-jnwll,32,indexed-job,7
7389,0.0,Initialized,indexed-job-16-jnwll,32,indexed-job,7
7390,13.0,Ready,indexed-job-16-jnwll,32,indexed-job,7
7391,13.0,ContainersReady,indexed-job-16-jnwll,32,indexed-job,7
7392,0.0,PodScheduled,indexed-job-17-xnjgv,32,indexed-job,7
7393,0.0,Initialized,indexed-job-17-xnjgv,32,indexed-job,7
7394,11.0,Ready,indexed-job-17-xnjgv,32,indexed-job,7
7395,11.0,ContainersReady,indexed-job-17-xnjgv,32,indexed-job,7
7396,0.0,PodScheduled,indexed-job-15-q4rlx,32,indexed-job,7
7397,0.0,Initialized,indexed-job-15-q4rlx,32,indexed-job,7
7398,12.0,Ready,indexed-job-15-q4rlx,32,indexed-job,7
7399,12.0,ContainersReady,indexed-job-15-q4rlx,32,indexed-job,7
7400,0.0,PodScheduled,indexed-job-19-5zdwn,32,indexed-job,7
7401,0.0,Initialized,indexed-job-19-5zdwn,32,indexed-job,7
7402,12.0,Ready,indexed-job-19-5zdwn,32,indexed-job,7
7403,12.0,ContainersReady,indexed-job-19-5zdwn,32,indexed-job,7
7404,0.0,PodScheduled,indexed-job-20-7pft4,32,indexed-job,7
7405,0.0,Initialized,indexed-job-20-7pft4,32,indexed-job,7
7406,17.0,Ready,indexed-job-20-7pft4,32,indexed-job,7
7407,17.0,ContainersReady,indexed-job-20-7pft4,32,indexed-job,7
7408,0.0,PodScheduled,indexed-job-23-4nlr4,32,indexed-job,7
7409,0.0,Initialized,indexed-job-23-4nlr4,32,indexed-job,7
7410,16.0,Ready,indexed-job-23-4nlr4,32,indexed-job,7
7411,16.0,ContainersReady,indexed-job-23-4nlr4,32,indexed-job,7
7412,0.0,PodScheduled,indexed-job-22-25j4p,32,indexed-job,7
7413,0.0,Initialized,indexed-job-22-25j4p,32,indexed-job,7
7414,15.0,Ready,indexed-job-22-25j4p,32,indexed-job,7
7415,15.0,ContainersReady,indexed-job-22-25j4p,32,indexed-job,7
7416,0.0,PodScheduled,indexed-job-24-msq89,32,indexed-job,7
7417,0.0,Initialized,indexed-job-24-msq89,32,indexed-job,7
7418,12.0,Ready,indexed-job-24-msq89,32,indexed-job,7
7419,12.0,ContainersReady,indexed-job-24-msq89,32,indexed-job,7
7420,0.0,PodScheduled,indexed-job-21-jvnv7,32,indexed-job,7
7421,0.0,Initialized,indexed-job-21-jvnv7,32,indexed-job,7
7422,11.0,Ready,indexed-job-21-jvnv7,32,indexed-job,7
7423,11.0,ContainersReady,indexed-job-21-jvnv7,32,indexed-job,7
7424,0.0,PodScheduled,indexed-job-25-fz99k,32,indexed-job,7
7425,0.0,Initialized,indexed-job-25-fz99k,32,indexed-job,7
7426,6.0,Ready,indexed-job-25-fz99k,32,indexed-job,7
7427,6.0,ContainersReady,indexed-job-25-fz99k,32,indexed-job,7
7428,0.0,PodScheduled,indexed-job-18-zhz8p,32,indexed-job,7
7429,0.0,Initialized,indexed-job-18-zhz8p,32,indexed-job,7
7430,7.0,Ready,indexed-job-18-zhz8p,32,indexed-job,7
7431,7.0,ContainersReady,indexed-job-18-zhz8p,32,indexed-job,7
7432,0.0,PodScheduled,indexed-job-26-m8tmh,32,indexed-job,7
7433,0.0,Initialized,indexed-job-26-m8tmh,32,indexed-job,7
7434,9.0,Ready,indexed-job-26-m8tmh,32,indexed-job,7
7435,9.0,ContainersReady,indexed-job-26-m8tmh,32,indexed-job,7
7436,0.0,PodScheduled,indexed-job-27-8j4h6,32,indexed-job,7
7437,0.0,Initialized,indexed-job-27-8j4h6,32,indexed-job,7
7438,17.0,Ready,indexed-job-27-8j4h6,32,indexed-job,7
7439,17.0,ContainersReady,indexed-job-27-8j4h6,32,indexed-job,7
7440,0.0,PodScheduled,indexed-job-28-6p6r4,32,indexed-job,7
7441,0.0,Initialized,indexed-job-28-6p6r4,32,indexed-job,7
7442,12.0,Ready,indexed-job-28-6p6r4,32,indexed-job,7
7443,12.0,ContainersReady,indexed-job-28-6p6r4,32,indexed-job,7
7444,0.0,PodScheduled,indexed-job-29-wwvlr,32,indexed-job,7
7445,0.0,Initialized,indexed-job-29-wwvlr,32,indexed-job,7
7446,14.0,Ready,indexed-job-29-wwvlr,32,indexed-job,7
7447,14.0,ContainersReady,indexed-job-29-wwvlr,32,indexed-job,7
7448,0.0,PodScheduled,indexed-job-31-26vlp,32,indexed-job,7
7449,0.0,Initialized,indexed-job-31-26vlp,32,indexed-job,7
7450,16.0,Ready,indexed-job-31-26vlp,32,indexed-job,7
7451,16.0,ContainersReady,indexed-job-31-26vlp,32,indexed-job,7
7452,16.943,watch_create,all,32,pods,11
7453,34.461,watch_delete,all,32,pods,11
7454,0.0,PodScheduled,pod-0,32,pods,11
7455,0.0,Initialized,pod-0,32,pods,11
7456,3.0,Ready,pod-0,32,pods,11
7457,3.0,ContainersReady,pod-0,32,pods,11
7458,0.0,PodScheduled,pod-1,32,pods,11
7459,0.0,Initialized,pod-1,32,pods,11
7460,2.0,Ready,pod-1,32,pods,11
7461,2.0,ContainersReady,pod-1,32,pods,11
7462,0.0,PodScheduled,pod-2,32,pods,11
7463,0.0,Initialized,pod-2,32,pods,11
7464,2.0,Ready,pod-2,32,pods,11
7465,2.0,ContainersReady,pod-2,32,pods,11
7466,0.0,PodScheduled,pod-3,32,pods,11
7467,0.0,Initialized,pod-3,32,pods,11
7468,13.0,Ready,pod-3,32,pods,11
7469,13.0,ContainersReady,pod-3,32,pods,11
7470,0.0,PodScheduled,pod-4,32,pods,11
7471,0.0,Initialized,pod-4,32,pods,11
7472,3.0,Ready,pod-4,32,pods,11
7473,3.0,ContainersReady,pod-4,32,pods,11
7474,0.0,PodScheduled,pod-5,32,pods,11
7475,0.0,Initialized,pod-5,32,pods,11
7476,4.0,Ready,pod-5,32,pods,11
7477,4.0,ContainersReady,pod-5,32,pods,11
7478,0.0,PodScheduled,pod-6,32,pods,11
7479,0.0,Initialized,pod-6,32,pods,11
7480,4.0,Ready,pod-6,32,pods,11
7481,4.0,ContainersReady,pod-6,32,pods,11
7482,0.0,PodScheduled,pod-7,32,pods,11
7483,0.0,Initialized,pod-7,32,pods,11
7484,5.0,Ready,pod-7,32,pods,11
7485,5.0,ContainersReady,pod-7,32,pods,11
7486,0.0,PodScheduled,pod-8,32,pods,11
7487,0.0,Initialized,pod-8,32,pods,11
7488,5.0,Ready,pod-8,32,pods,11
7489,5.0,ContainersReady,pod-8,32,pods,11
7490,0.0,PodScheduled,pod-9,32,pods,11
7491,0.0,Initialized,pod-9,32,pods,11
7492,5.0,Ready,pod-9,32,pods,11
7493,5.0,ContainersReady,pod-9,32,pods,11
7494,0.0,PodScheduled,pod-10,32,pods,11
7495,0.0,Initialized,pod-10,32,pods,11
7496,6.0,Ready,pod-10,32,pods,11
7497,6.0,ContainersReady,pod-10,32,pods,11
7498,0.0,PodScheduled,pod-11,32,pods,11
7499,0.0,Initialized,pod-11,32,pods,11
7500,15.0,Ready,pod-11,32,pods,11
7501,15.0,ContainersReady,pod-11,32,pods,11
7502,0.0,PodScheduled,pod-12,32,pods,11
7503,0.0,Initialized,pod-12,32,pods,11
7504,6.0,Ready,pod-12,32,pods,11
7505,6.0,ContainersReady,pod-12,32,pods,11
7506,0.0,PodScheduled,pod-13,32,pods,11
7507,0.0,Initialized,pod-13,32,pods,11
7508,7.0,Ready,pod-13,32,pods,11
7509,7.0,ContainersReady,pod-13,32,pods,11
7510,0.0,PodScheduled,pod-14,32,pods,11
7511,0.0,Initialized,pod-14,32,pods,11
7512,8.0,Ready,pod-14,32,pods,11
7513,8.0,ContainersReady,pod-14,32,pods,11
7514,0.0,PodScheduled,pod-15,32,pods,11
7515,0.0,Initialized,pod-15,32,pods,11
7516,8.0,Ready,pod-15,32,pods,11
7517,8.0,ContainersReady,pod-15,32,pods,11
7518,0.0,PodScheduled,pod-16,32,pods,11
7519,0.0,Initialized,pod-16,32,pods,11
7520,7.0,Ready,pod-16,32,pods,11
7521,7.0,ContainersReady,pod-16,32,pods,11
7522,0.0,PodScheduled,pod-17,32,pods,11
7523,0.0,Initialized,pod-17,32,pods,11
7524,10.0,Ready,pod-17,32,pods,11
7525,10.0,ContainersReady,pod-17,32,pods,11
7526,0.0,PodScheduled,pod-18,32,pods,11
7527,0.0,Initialized,pod-18,32,pods,11
7528,9.0,Ready,pod-18,32,pods,11
7529,9.0,ContainersReady,pod-18,32,pods,11
7530,0.0,PodScheduled,pod-19,32,pods,11
7531,0.0,Initialized,pod-19,32,pods,11
7532,12.0,Ready,pod-19,32,pods,11
7533,12.0,ContainersReady,pod-19,32,pods,11
7534,0.0,PodScheduled,pod-20,32,pods,11
7535,0.0,Initialized,pod-20,32,pods,11
7536,16.0,Ready,pod-20,32,pods,11
7537,16.0,ContainersReady,pod-20,32,pods,11
7538,0.0,PodScheduled,pod-21,32,pods,11
7539,0.0,Initialized,pod-21,32,pods,11
7540,10.0,Ready,pod-21,32,pods,11
7541,10.0,ContainersReady,pod-21,32,pods,11
7542,0.0,PodScheduled,pod-22,32,pods,11
7543,0.0,Initialized,pod-22,32,pods,11
7544,11.0,Ready,pod-22,32,pods,11
7545,11.0,ContainersReady,pod-22,32,pods,11
7546,0.0,PodScheduled,pod-23,32,pods,11
7547,0.0,Initialized,pod-23,32,pods,11
7548,13.0,Ready,pod-23,32,pods,11
7549,13.0,ContainersReady,pod-23,32,pods,11
7550,0.0,PodScheduled,pod-24,32,pods,11
7551,0.0,Initialized,pod-24,32,pods,11
7552,12.0,Ready,pod-24,32,pods,11
7553,12.0,ContainersReady,pod-24,32,pods,11
7554,0.0,PodScheduled,pod-25,32,pods,11
7555,0.0,Initialized,pod-25,32,pods,11
7556,11.0,Ready,pod-25,32,pods,11
7557,11.0,ContainersReady,pod-25,32,pods,11
7558,0.0,PodScheduled,pod-26,32,pods,11
7559,0.0,Initialized,pod-26,32,pods,11
7560,14.0,Ready,pod-26,32,pods,11
7561,14.0,ContainersReady,pod-26,32,pods,11
7562,0.0,PodScheduled,pod-27,32,pods,11
7563,0.0,Initialized,pod-27,32,pods,11
7564,9.0,Ready,pod-27,32,pods,11
7565,9.0,ContainersReady,pod-27,32,pods,11
7566,0.0,PodScheduled,pod-28,32,pods,11
7567,0.0,Initialized,pod-28,32,pods,11
7568,14.0,Ready,pod-28,32,pods,11
7569,14.0,ContainersReady,pod-28,32,pods,11
7570,0.0,PodScheduled,pod-29,32,pods,11
7571,0.0,Initialized,pod-29,32,pods,11
7572,15.0,Ready,pod-29,32,pods,11
7573,15.0,ContainersReady,pod-29,32,pods,11
7574,0.0,PodScheduled,pod-30,32,pods,11
7575,0.0,Initialized,pod-30,32,pods,11
7576,16.0,Ready,pod-30,32,pods,11
7577,16.0,ContainersReady,pod-30,32,pods,11
7578,0.0,PodScheduled,pod-31,32,pods,11
7579,0.0,Initialized,pod-31,32,pods,11
7580,16.0,Ready,pod-31,32,pods,11
7581,16.0,ContainersReady,pod-31,32,pods,11
7582,17.937,watch_create,all,32,pods,14
7583,35.229,watch_delete,all,32,pods,14
7584,0.0,PodScheduled,pod-0,32,pods,14
7585,0.0,Initialized,pod-0,32,pods,14
7586,2.0,Ready,pod-0,32,pods,14
7587,2.0,ContainersReady,pod-0,32,pods,14
7588,0.0,PodScheduled,pod-1,32,pods,14
7589,0.0,Initialized,pod-1,32,pods,14
7590,2.0,Ready,pod-1,32,pods,14
7591,2.0,ContainersReady,pod-1,32,pods,14
7592,0.0,PodScheduled,pod-2,32,pods,14
7593,0.0,Initialized,pod-2,32,pods,14
7594,3.0,Ready,pod-2,32,pods,14
7595,3.0,ContainersReady,pod-2,32,pods,14
7596,0.0,PodScheduled,pod-3,32,pods,14
7597,0.0,Initialized,pod-3,32,pods,14
7598,16.0,Ready,pod-3,32,pods,14
7599,16.0,ContainersReady,pod-3,32,pods,14
7600,0.0,PodScheduled,pod-4,32,pods,14
7601,0.0,Initialized,pod-4,32,pods,14
7602,3.0,Ready,pod-4,32,pods,14
7603,3.0,ContainersReady,pod-4,32,pods,14
7604,0.0,PodScheduled,pod-5,32,pods,14
7605,0.0,Initialized,pod-5,32,pods,14
7606,4.0,Ready,pod-5,32,pods,14
7607,4.0,ContainersReady,pod-5,32,pods,14
7608,0.0,PodScheduled,pod-6,32,pods,14
7609,0.0,Initialized,pod-6,32,pods,14
7610,4.0,Ready,pod-6,32,pods,14
7611,4.0,ContainersReady,pod-6,32,pods,14
7612,0.0,PodScheduled,pod-7,32,pods,14
7613,0.0,Initialized,pod-7,32,pods,14
7614,5.0,Ready,pod-7,32,pods,14
7615,5.0,ContainersReady,pod-7,32,pods,14
7616,0.0,PodScheduled,pod-8,32,pods,14
7617,0.0,Initialized,pod-8,32,pods,14
7618,5.0,Ready,pod-8,32,pods,14
7619,5.0,ContainersReady,pod-8,32,pods,14
7620,0.0,PodScheduled,pod-9,32,pods,14
7621,0.0,Initialized,pod-9,32,pods,14
7622,6.0,Ready,pod-9,32,pods,14
7623,6.0,ContainersReady,pod-9,32,pods,14
7624,0.0,PodScheduled,pod-10,32,pods,14
7625,0.0,Initialized,pod-10,32,pods,14
7626,6.0,Ready,pod-10,32,pods,14
7627,6.0,ContainersReady,pod-10,32,pods,14
7628,0.0,PodScheduled,pod-11,32,pods,14
7629,0.0,Initialized,pod-11,32,pods,14
7630,17.0,Ready,pod-11,32,pods,14
7631,17.0,ContainersReady,pod-11,32,pods,14
7632,0.0,PodScheduled,pod-12,32,pods,14
7633,0.0,Initialized,pod-12,32,pods,14
7634,7.0,Ready,pod-12,32,pods,14
7635,7.0,ContainersReady,pod-12,32,pods,14
7636,0.0,PodScheduled,pod-13,32,pods,14
7637,0.0,Initialized,pod-13,32,pods,14
7638,7.0,Ready,pod-13,32,pods,14
7639,7.0,ContainersReady,pod-13,32,pods,14
7640,0.0,PodScheduled,pod-14,32,pods,14
7641,0.0,Initialized,pod-14,32,pods,14
7642,8.0,Ready,pod-14,32,pods,14
7643,8.0,ContainersReady,pod-14,32,pods,14
7644,0.0,PodScheduled,pod-15,32,pods,14
7645,0.0,Initialized,pod-15,32,pods,14
7646,9.0,Ready,pod-15,32,pods,14
7647,9.0,ContainersReady,pod-15,32,pods,14
7648,0.0,PodScheduled,pod-16,32,pods,14
7649,0.0,Initialized,pod-16,32,pods,14
7650,8.0,Ready,pod-16,32,pods,14
7651,8.0,ContainersReady,pod-16,32,pods,14
7652,0.0,PodScheduled,pod-17,32,pods,14
7653,0.0,Initialized,pod-17,32,pods,14
7654,10.0,Ready,pod-17,32,pods,14
7655,10.0,ContainersReady,pod-17,32,pods,14
7656,0.0,PodScheduled,pod-18,32,pods,14
7657,0.0,Initialized,pod-18,32,pods,14
7658,11.0,Ready,pod-18,32,pods,14
7659,11.0,ContainersReady,pod-18,32,pods,14
7660,0.0,PodScheduled,pod-19,32,pods,14
7661,0.0,Initialized,pod-19,32,pods,14
7662,10.0,Ready,pod-19,32,pods,14
7663,10.0,ContainersReady,pod-19,32,pods,14
7664,0.0,PodScheduled,pod-20,32,pods,14
7665,0.0,Initialized,pod-20,32,pods,14
7666,11.0,Ready,pod-20,32,pods,14
7667,11.0,ContainersReady,pod-20,32,pods,14
7668,0.0,PodScheduled,pod-21,32,pods,14
7669,0.0,Initialized,pod-21,32,pods,14
7670,12.0,Ready,pod-21,32,pods,14
7671,12.0,ContainersReady,pod-21,32,pods,14
7672,0.0,PodScheduled,pod-22,32,pods,14
7673,0.0,Initialized,pod-22,32,pods,14
7674,12.0,Ready,pod-22,32,pods,14
7675,12.0,ContainersReady,pod-22,32,pods,14
7676,0.0,PodScheduled,pod-23,32,pods,14
7677,0.0,Initialized,pod-23,32,pods,14
7678,15.0,Ready,pod-23,32,pods,14
7679,15.0,ContainersReady,pod-23,32,pods,14
7680,0.0,PodScheduled,pod-24,32,pods,14
7681,0.0,Initialized,pod-24,32,pods,14
7682,14.0,Ready,pod-24,32,pods,14
7683,14.0,ContainersReady,pod-24,32,pods,14
7684,0.0,PodScheduled,pod-25,32,pods,14
7685,0.0,Initialized,pod-25,32,pods,14
7686,14.0,Ready,pod-25,32,pods,14
7687,14.0,ContainersReady,pod-25,32,pods,14
7688,0.0,PodScheduled,pod-26,32,pods,14
7689,0.0,Initialized,pod-26,32,pods,14
7690,13.0,Ready,pod-26,32,pods,14
7691,13.0,ContainersReady,pod-26,32,pods,14
7692,0.0,PodScheduled,pod-27,32,pods,14
7693,0.0,Initialized,pod-27,32,pods,14
7694,12.0,Ready,pod-27,32,pods,14
7695,12.0,ContainersReady,pod-27,32,pods,14
7696,0.0,PodScheduled,pod-28,32,pods,14
7697,0.0,Initialized,pod-28,32,pods,14
7698,15.0,Ready,pod-28,32,pods,14
7699,15.0,ContainersReady,pod-28,32,pods,14
7700,0.0,PodScheduled,pod-29,32,pods,14
7701,0.0,Initialized,pod-29,32,pods,14
7702,16.0,Ready,pod-29,32,pods,14
7703,16.0,ContainersReady,pod-29,32,pods,14
7704,0.0,PodScheduled,pod-30,32,pods,14
7705,0.0,Initialized,pod-30,32,pods,14
7706,17.0,Ready,pod-30,32,pods,14
7707,17.0,ContainersReady,pod-30,32,pods,14
7708,0.0,PodScheduled,pod-31,32,pods,14
7709,0.0,Initialized,pod-31,32,pods,14
7710,13.0,Ready,pod-31,32,pods,14
7711,13.0,ContainersReady,pod-31,32,pods,14
7712,17.996,watch_create,all,32,pods,12
7713,34.258,watch_delete,all,32,pods,12
7714,0.0,PodScheduled,pod-0,32,pods,12
7715,0.0,Initialized,pod-0,32,pods,12
7716,2.0,Ready,pod-0,32,pods,12
7717,2.0,ContainersReady,pod-0,32,pods,12
7718,0.0,PodScheduled,pod-1,32,pods,12
7719,0.0,Initialized,pod-1,32,pods,12
7720,2.0,Ready,pod-1,32,pods,12
7721,2.0,ContainersReady,pod-1,32,pods,12
7722,0.0,PodScheduled,pod-2,32,pods,12
7723,0.0,Initialized,pod-2,32,pods,12
7724,3.0,Ready,pod-2,32,pods,12
7725,3.0,ContainersReady,pod-2,32,pods,12
7726,0.0,PodScheduled,pod-3,32,pods,12
7727,0.0,Initialized,pod-3,32,pods,12
7728,3.0,Ready,pod-3,32,pods,12
7729,3.0,ContainersReady,pod-3,32,pods,12
7730,0.0,PodScheduled,pod-4,32,pods,12
7731,0.0,Initialized,pod-4,32,pods,12
7732,4.0,Ready,pod-4,32,pods,12
7733,4.0,ContainersReady,pod-4,32,pods,12
7734,0.0,PodScheduled,pod-5,32,pods,12
7735,0.0,Initialized,pod-5,32,pods,12
7736,4.0,Ready,pod-5,32,pods,12
7737,4.0,ContainersReady,pod-5,32,pods,12
7738,0.0,PodScheduled,pod-6,32,pods,12
7739,0.0,Initialized,pod-6,32,pods,12
7740,5.0,Ready,pod-6,32,pods,12
7741,5.0,ContainersReady,pod-6,32,pods,12
7742,0.0,PodScheduled,pod-7,32,pods,12
7743,0.0,Initialized,pod-7,32,pods,12
7744,5.0,Ready,pod-7,32,pods,12
7745,5.0,ContainersReady,pod-7,32,pods,12
7746,0.0,PodScheduled,pod-8,32,pods,12
7747,0.0,Initialized,pod-8,32,pods,12
7748,6.0,Ready,pod-8,32,pods,12
7749,6.0,ContainersReady,pod-8,32,pods,12
7750,0.0,PodScheduled,pod-9,32,pods,12
7751,0.0,Initialized,pod-9,32,pods,12
7752,6.0,Ready,pod-9,32,pods,12
7753,6.0,ContainersReady,pod-9,32,pods,12
7754,0.0,PodScheduled,pod-10,32,pods,12
7755,0.0,Initialized,pod-10,32,pods,12
7756,7.0,Ready,pod-10,32,pods,12
7757,7.0,ContainersReady,pod-10,32,pods,12
7758,0.0,PodScheduled,pod-11,32,pods,12
7759,0.0,Initialized,pod-11,32,pods,12
7760,8.0,Ready,pod-11,32,pods,12
7761,8.0,ContainersReady,pod-11,32,pods,12
7762,0.0,PodScheduled,pod-12,32,pods,12
7763,0.0,Initialized,pod-12,32,pods,12
7764,8.0,Ready,pod-12,32,pods,12
7765,8.0,ContainersReady,pod-12,32,pods,12
7766,0.0,PodScheduled,pod-13,32,pods,12
7767,0.0,Initialized,pod-13,32,pods,12
7768,7.0,Ready,pod-13,32,pods,12
7769,7.0,ContainersReady,pod-13,32,pods,12
7770,0.0,PodScheduled,pod-14,32,pods,12
7771,0.0,Initialized,pod-14,32,pods,12
7772,9.0,Ready,pod-14,32,pods,12
7773,9.0,ContainersReady,pod-14,32,pods,12
7774,0.0,PodScheduled,pod-15,32,pods,12
7775,0.0,Initialized,pod-15,32,pods,12
7776,16.0,Ready,pod-15,32,pods,12
7777,16.0,ContainersReady,pod-15,32,pods,12
7778,0.0,PodScheduled,pod-16,32,pods,12
7779,0.0,Initialized,pod-16,32,pods,12
7780,12.0,Ready,pod-16,32,pods,12
7781,12.0,ContainersReady,pod-16,32,pods,12
7782,0.0,PodScheduled,pod-17,32,pods,12
7783,0.0,Initialized,pod-17,32,pods,12
7784,11.0,Ready,pod-17,32,pods,12
7785,11.0,ContainersReady,pod-17,32,pods,12
7786,0.0,PodScheduled,pod-18,32,pods,12
7787,0.0,Initialized,pod-18,32,pods,12
7788,13.0,Ready,pod-18,32,pods,12
7789,13.0,ContainersReady,pod-18,32,pods,12
7790,0.0,PodScheduled,pod-19,32,pods,12
7791,0.0,Initialized,pod-19,32,pods,12
7792,9.0,Ready,pod-19,32,pods,12
7793,9.0,ContainersReady,pod-19,32,pods,12
7794,0.0,PodScheduled,pod-20,32,pods,12
7795,0.0,Initialized,pod-20,32,pods,12
7796,10.0,Ready,pod-20,32,pods,12
7797,10.0,ContainersReady,pod-20,32,pods,12
7798,0.0,PodScheduled,pod-21,32,pods,12
7799,0.0,Initialized,pod-21,32,pods,12
7800,10.0,Ready,pod-21,32,pods,12
7801,10.0,ContainersReady,pod-21,32,pods,12
7802,0.0,PodScheduled,pod-22,32,pods,12
7803,0.0,Initialized,pod-22,32,pods,12
7804,14.0,Ready,pod-22,32,pods,12
7805,14.0,ContainersReady,pod-22,32,pods,12
7806,0.0,PodScheduled,pod-23,32,pods,12
7807,0.0,Initialized,pod-23,32,pods,12
7808,13.0,Ready,pod-23,32,pods,12
7809,13.0,ContainersReady,pod-23,32,pods,12
7810,0.0,PodScheduled,pod-24,32,pods,12
7811,0.0,Initialized,pod-24,32,pods,12
7812,12.0,Ready,pod-24,32,pods,12
7813,12.0,ContainersReady,pod-24,32,pods,12
7814,0.0,PodScheduled,pod-25,32,pods,12
7815,0.0,Initialized,pod-25,32,pods,12
7816,17.0,Ready,pod-25,32,pods,12
7817,17.0,ContainersReady,pod-25,32,pods,12
7818,0.0,PodScheduled,pod-26,32,pods,12
7819,0.0,Initialized,pod-26,32,pods,12
7820,10.0,Ready,pod-26,32,pods,12
7821,10.0,ContainersReady,pod-26,32,pods,12
7822,0.0,PodScheduled,pod-27,32,pods,12
7823,0.0,Initialized,pod-27,32,pods,12
7824,15.0,Ready,pod-27,32,pods,12
7825,15.0,ContainersReady,pod-27,32,pods,12
7826,0.0,PodScheduled,pod-28,32,pods,12
7827,0.0,Initialized,pod-28,32,pods,12
7828,11.0,Ready,pod-28,32,pods,12
7829,11.0,ContainersReady,pod-28,32,pods,12
7830,0.0,PodScheduled,pod-29,32,pods,12
7831,0.0,Initialized,pod-29,32,pods,12
7832,14.0,Ready,pod-29,32,pods,12
7833,14.0,ContainersReady,pod-29,32,pods,12
7834,0.0,PodScheduled,pod-30,32,pods,12
7835,0.0,Initialized,pod-30,32,pods,12
7836,16.0,Ready,pod-30,32,pods,12
7837,16.0,ContainersReady,pod-30,32,pods,12
7838,0.0,PodScheduled,pod-31,32,pods,12
7839,0.0,Initialized,pod-31,32,pods,12
7840,15.0,Ready,pod-31,32,pods,12
7841,15.0,ContainersReady,pod-31,32,pods,12
7842,17.799,watch_create,all,32,indexed-job,10
7843,33.213,watch_delete,all,32,indexed-job,10
7844,0.0,PodScheduled,indexed-job-0-ln4rf,32,indexed-job,10
7845,0.0,Initialized,indexed-job-0-ln4rf,32,indexed-job,10
7846,2.0,Ready,indexed-job-0-ln4rf,32,indexed-job,10
7847,2.0,ContainersReady,indexed-job-0-ln4rf,32,indexed-job,10
7848,0.0,PodScheduled,indexed-job-2-5vx82,32,indexed-job,10
7849,1.0,Initialized,indexed-job-2-5vx82,32,indexed-job,10
7850,3.0,Ready,indexed-job-2-5vx82,32,indexed-job,10
7851,3.0,ContainersReady,indexed-job-2-5vx82,32,indexed-job,10
7852,0.0,PodScheduled,indexed-job-1-gnxhs,32,indexed-job,10
7853,1.0,Initialized,indexed-job-1-gnxhs,32,indexed-job,10
7854,3.0,Ready,indexed-job-1-gnxhs,32,indexed-job,10
7855,3.0,ContainersReady,indexed-job-1-gnxhs,32,indexed-job,10
7856,1.0,PodScheduled,indexed-job-4-s2sn9,32,indexed-job,10
7857,1.0,Initialized,indexed-job-4-s2sn9,32,indexed-job,10
7858,6.0,Ready,indexed-job-4-s2sn9,32,indexed-job,10
7859,6.0,ContainersReady,indexed-job-4-s2sn9,32,indexed-job,10
7860,1.0,PodScheduled,indexed-job-5-dm5m6,32,indexed-job,10
7861,1.0,Initialized,indexed-job-5-dm5m6,32,indexed-job,10
7862,4.0,Ready,indexed-job-5-dm5m6,32,indexed-job,10
7863,4.0,ContainersReady,indexed-job-5-dm5m6,32,indexed-job,10
7864,1.0,PodScheduled,indexed-job-6-76rns,32,indexed-job,10
7865,1.0,Initialized,indexed-job-6-76rns,32,indexed-job,10
7866,5.0,Ready,indexed-job-6-76rns,32,indexed-job,10
7867,5.0,ContainersReady,indexed-job-6-76rns,32,indexed-job,10
7868,1.0,PodScheduled,indexed-job-3-mcnhp,32,indexed-job,10
7869,1.0,Initialized,indexed-job-3-mcnhp,32,indexed-job,10
7870,4.0,Ready,indexed-job-3-mcnhp,32,indexed-job,10
7871,4.0,ContainersReady,indexed-job-3-mcnhp,32,indexed-job,10
7872,0.0,PodScheduled,indexed-job-14-772lh,32,indexed-job,10
7873,0.0,Initialized,indexed-job-14-772lh,32,indexed-job,10
7874,10.0,Ready,indexed-job-14-772lh,32,indexed-job,10
7875,10.0,ContainersReady,indexed-job-14-772lh,32,indexed-job,10
7876,0.0,PodScheduled,indexed-job-8-v9wqz,32,indexed-job,10
7877,0.0,Initialized,indexed-job-8-v9wqz,32,indexed-job,10
7878,6.0,Ready,indexed-job-8-v9wqz,32,indexed-job,10
7879,6.0,ContainersReady,indexed-job-8-v9wqz,32,indexed-job,10
7880,0.0,PodScheduled,indexed-job-12-msdck,32,indexed-job,10
7881,0.0,Initialized,indexed-job-12-msdck,32,indexed-job,10
7882,4.0,Ready,indexed-job-12-msdck,32,indexed-job,10
7883,4.0,ContainersReady,indexed-job-12-msdck,32,indexed-job,10
7884,0.0,PodScheduled,indexed-job-7-mlf9f,32,indexed-job,10
7885,0.0,Initialized,indexed-job-7-mlf9f,32,indexed-job,10
7886,6.0,Ready,indexed-job-7-mlf9f,32,indexed-job,10
7887,6.0,ContainersReady,indexed-job-7-mlf9f,32,indexed-job,10
7888,0.0,PodScheduled,indexed-job-9-r5s7s,32,indexed-job,10
7889,0.0,Initialized,indexed-job-9-r5s7s,32,indexed-job,10
7890,16.0,Ready,indexed-job-9-r5s7s,32,indexed-job,10
7891,16.0,ContainersReady,indexed-job-9-r5s7s,32,indexed-job,10
7892,0.0,PodScheduled,indexed-job-11-ktlnb,32,indexed-job,10
7893,0.0,Initialized,indexed-job-11-ktlnb,32,indexed-job,10
7894,12.0,Ready,indexed-job-11-ktlnb,32,indexed-job,10
7895,12.0,ContainersReady,indexed-job-11-ktlnb,32,indexed-job,10
7896,0.0,PodScheduled,indexed-job-10-n68c7,32,indexed-job,10
7897,0.0,Initialized,indexed-job-10-n68c7,32,indexed-job,10
7898,12.0,Ready,indexed-job-10-n68c7,32,indexed-job,10
7899,12.0,ContainersReady,indexed-job-10-n68c7,32,indexed-job,10
7900,0.0,PodScheduled,indexed-job-13-hbcwg,32,indexed-job,10
7901,0.0,Initialized,indexed-job-13-hbcwg,32,indexed-job,10
7902,8.0,Ready,indexed-job-13-hbcwg,32,indexed-job,10
7903,8.0,ContainersReady,indexed-job-13-hbcwg,32,indexed-job,10
7904,0.0,PodScheduled,indexed-job-21-72bck,32,indexed-job,10
7905,0.0,Initialized,indexed-job-21-72bck,32,indexed-job,10
7906,11.0,Ready,indexed-job-21-72bck,32,indexed-job,10
7907,11.0,ContainersReady,indexed-job-21-72bck,32,indexed-job,10
7908,0.0,PodScheduled,indexed-job-17-wgx52,32,indexed-job,10
7909,0.0,Initialized,indexed-job-17-wgx52,32,indexed-job,10
7910,9.0,Ready,indexed-job-17-wgx52,32,indexed-job,10
7911,9.0,ContainersReady,indexed-job-17-wgx52,32,indexed-job,10
7912,0.0,PodScheduled,indexed-job-16-mb2wb,32,indexed-job,10
7913,0.0,Initialized,indexed-job-16-mb2wb,32,indexed-job,10
7914,7.0,Ready,indexed-job-16-mb2wb,32,indexed-job,10
7915,7.0,ContainersReady,indexed-job-16-mb2wb,32,indexed-job,10
7916,0.0,PodScheduled,indexed-job-18-zw2sj,32,indexed-job,10
7917,0.0,Initialized,indexed-job-18-zw2sj,32,indexed-job,10
7918,13.0,Ready,indexed-job-18-zw2sj,32,indexed-job,10
7919,13.0,ContainersReady,indexed-job-18-zw2sj,32,indexed-job,10
7920,0.0,PodScheduled,indexed-job-20-xdf5t,32,indexed-job,10
7921,0.0,Initialized,indexed-job-20-xdf5t,32,indexed-job,10
7922,12.0,Ready,indexed-job-20-xdf5t,32,indexed-job,10
7923,12.0,ContainersReady,indexed-job-20-xdf5t,32,indexed-job,10
7924,0.0,PodScheduled,indexed-job-19-lq869,32,indexed-job,10
7925,0.0,Initialized,indexed-job-19-lq869,32,indexed-job,10
7926,8.0,Ready,indexed-job-19-lq869,32,indexed-job,10
7927,8.0,ContainersReady,indexed-job-19-lq869,32,indexed-job,10
7928,0.0,PodScheduled,indexed-job-23-psfc4,32,indexed-job,10
7929,0.0,Initialized,indexed-job-23-psfc4,32,indexed-job,10
7930,10.0,Ready,indexed-job-23-psfc4,32,indexed-job,10
7931,10.0,ContainersReady,indexed-job-23-psfc4,32,indexed-job,10
7932,0.0,PodScheduled,indexed-job-22-hh5fh,32,indexed-job,10
7933,0.0,Initialized,indexed-job-22-hh5fh,32,indexed-job,10
7934,11.0,Ready,indexed-job-22-hh5fh,32,indexed-job,10
7935,11.0,ContainersReady,indexed-job-22-hh5fh,32,indexed-job,10
7936,0.0,PodScheduled,indexed-job-30-5qwm2,32,indexed-job,10
7937,0.0,Initialized,indexed-job-30-5qwm2,32,indexed-job,10
7938,9.0,Ready,indexed-job-30-5qwm2,32,indexed-job,10
7939,9.0,ContainersReady,indexed-job-30-5qwm2,32,indexed-job,10
7940,0.0,PodScheduled,indexed-job-26-ct5s4,32,indexed-job,10
7941,0.0,Initialized,indexed-job-26-ct5s4,32,indexed-job,10
7942,5.0,Ready,indexed-job-26-ct5s4,32,indexed-job,10
7943,5.0,ContainersReady,indexed-job-26-ct5s4,32,indexed-job,10
7944,0.0,PodScheduled,indexed-job-15-tj4z8,32,indexed-job,10
7945,0.0,Initialized,indexed-job-15-tj4z8,32,indexed-job,10
7946,7.0,Ready,indexed-job-15-tj4z8,32,indexed-job,10
7947,7.0,ContainersReady,indexed-job-15-tj4z8,32,indexed-job,10
7948,0.0,PodScheduled,indexed-job-24-vfkth,32,indexed-job,10
7949,0.0,Initialized,indexed-job-24-vfkth,32,indexed-job,10
7950,13.0,Ready,indexed-job-24-vfkth,32,indexed-job,10
7951,13.0,ContainersReady,indexed-job-24-vfkth,32,indexed-job,10
7952,0.0,PodScheduled,indexed-job-28-zr9hh,32,indexed-job,10
7953,0.0,Initialized,indexed-job-28-zr9hh,32,indexed-job,10
7954,15.0,Ready,indexed-job-28-zr9hh,32,indexed-job,10
7955,15.0,ContainersReady,indexed-job-28-zr9hh,32,indexed-job,10
7956,0.0,PodScheduled,indexed-job-25-89rt6,32,indexed-job,10
7957,0.0,Initialized,indexed-job-25-89rt6,32,indexed-job,10
7958,15.0,Ready,indexed-job-25-89rt6,32,indexed-job,10
7959,15.0,ContainersReady,indexed-job-25-89rt6,32,indexed-job,10
7960,0.0,PodScheduled,indexed-job-27-z6kwl,32,indexed-job,10
7961,0.0,Initialized,indexed-job-27-z6kwl,32,indexed-job,10
7962,16.0,Ready,indexed-job-27-z6kwl,32,indexed-job,10
7963,16.0,ContainersReady,indexed-job-27-z6kwl,32,indexed-job,10
7964,0.0,PodScheduled,indexed-job-29-stkf5,32,indexed-job,10
7965,0.0,Initialized,indexed-job-29-stkf5,32,indexed-job,10
7966,14.0,Ready,indexed-job-29-stkf5,32,indexed-job,10
7967,14.0,ContainersReady,indexed-job-29-stkf5,32,indexed-job,10
7968,0.0,PodScheduled,indexed-job-31-n6cf9,32,indexed-job,10
7969,0.0,Initialized,indexed-job-31-n6cf9,32,indexed-job,10
7970,17.0,Ready,indexed-job-31-n6cf9,32,indexed-job,10
7971,17.0,ContainersReady,indexed-job-31-n6cf9,32,indexed-job,10
7972,17.816,watch_create,all,32,indexed-job,3
7973,33.269,watch_delete,all,32,indexed-job,3
7974,0.0,PodScheduled,indexed-job-0-ktc9x,32,indexed-job,3
7975,0.0,Initialized,indexed-job-0-ktc9x,32,indexed-job,3
7976,2.0,Ready,indexed-job-0-ktc9x,32,indexed-job,3
7977,2.0,ContainersReady,indexed-job-0-ktc9x,32,indexed-job,3
7978,0.0,PodScheduled,indexed-job-1-jz8x8,32,indexed-job,3
7979,0.0,Initialized,indexed-job-1-jz8x8,32,indexed-job,3
7980,2.0,Ready,indexed-job-1-jz8x8,32,indexed-job,3
7981,2.0,ContainersReady,indexed-job-1-jz8x8,32,indexed-job,3
7982,0.0,PodScheduled,indexed-job-2-bbdn6,32,indexed-job,3
7983,0.0,Initialized,indexed-job-2-bbdn6,32,indexed-job,3
7984,3.0,Ready,indexed-job-2-bbdn6,32,indexed-job,3
7985,3.0,ContainersReady,indexed-job-2-bbdn6,32,indexed-job,3
7986,0.0,PodScheduled,indexed-job-6-d8qfd,32,indexed-job,3
7987,0.0,Initialized,indexed-job-6-d8qfd,32,indexed-job,3
7988,3.0,Ready,indexed-job-6-d8qfd,32,indexed-job,3
7989,3.0,ContainersReady,indexed-job-6-d8qfd,32,indexed-job,3
7990,0.0,PodScheduled,indexed-job-5-dvwml,32,indexed-job,3
7991,0.0,Initialized,indexed-job-5-dvwml,32,indexed-job,3
7992,4.0,Ready,indexed-job-5-dvwml,32,indexed-job,3
7993,4.0,ContainersReady,indexed-job-5-dvwml,32,indexed-job,3
7994,0.0,PodScheduled,indexed-job-4-jn6ph,32,indexed-job,3
7995,0.0,Initialized,indexed-job-4-jn6ph,32,indexed-job,3
7996,10.0,Ready,indexed-job-4-jn6ph,32,indexed-job,3
7997,10.0,ContainersReady,indexed-job-4-jn6ph,32,indexed-job,3
7998,0.0,PodScheduled,indexed-job-3-bfnsx,32,indexed-job,3
7999,0.0,Initialized,indexed-job-3-bfnsx,32,indexed-job,3
8000,5.0,Ready,indexed-job-3-bfnsx,32,indexed-job,3
8001,5.0,ContainersReady,indexed-job-3-bfnsx,32,indexed-job,3
8002,0.0,PodScheduled,indexed-job-14-x7qkr,32,indexed-job,3
8003,0.0,Initialized,indexed-job-14-x7qkr,32,indexed-job,3
8004,8.0,Ready,indexed-job-14-x7qkr,32,indexed-job,3
8005,8.0,ContainersReady,indexed-job-14-x7qkr,32,indexed-job,3
8006,0.0,PodScheduled,indexed-job-9-5mrnf,32,indexed-job,3
8007,0.0,Initialized,indexed-job-9-5mrnf,32,indexed-job,3
8008,6.0,Ready,indexed-job-9-5mrnf,32,indexed-job,3
8009,6.0,ContainersReady,indexed-job-9-5mrnf,32,indexed-job,3
8010,0.0,PodScheduled,indexed-job-13-s84vx,32,indexed-job,3
8011,0.0,Initialized,indexed-job-13-s84vx,32,indexed-job,3
8012,9.0,Ready,indexed-job-13-s84vx,32,indexed-job,3
8013,9.0,ContainersReady,indexed-job-13-s84vx,32,indexed-job,3
8014,0.0,PodScheduled,indexed-job-7-gqvck,32,indexed-job,3
8015,0.0,Initialized,indexed-job-7-gqvck,32,indexed-job,3
8016,4.0,Ready,indexed-job-7-gqvck,32,indexed-job,3
8017,4.0,ContainersReady,indexed-job-7-gqvck,32,indexed-job,3
8018,0.0,PodScheduled,indexed-job-11-lflh4,32,indexed-job,3
8019,0.0,Initialized,indexed-job-11-lflh4,32,indexed-job,3
8020,13.0,Ready,indexed-job-11-lflh4,32,indexed-job,3
8021,13.0,ContainersReady,indexed-job-11-lflh4,32,indexed-job,3
8022,0.0,PodScheduled,indexed-job-8-6tpt9,32,indexed-job,3
8023,0.0,Initialized,indexed-job-8-6tpt9,32,indexed-job,3
8024,12.0,Ready,indexed-job-8-6tpt9,32,indexed-job,3
8025,12.0,ContainersReady,indexed-job-8-6tpt9,32,indexed-job,3
8026,0.0,PodScheduled,indexed-job-12-srnp9,32,indexed-job,3
8027,0.0,Initialized,indexed-job-12-srnp9,32,indexed-job,3
8028,7.0,Ready,indexed-job-12-srnp9,32,indexed-job,3
8029,7.0,ContainersReady,indexed-job-12-srnp9,32,indexed-job,3
8030,0.0,PodScheduled,indexed-job-10-5z42v,32,indexed-job,3
8031,0.0,Initialized,indexed-job-10-5z42v,32,indexed-job,3
8032,10.0,Ready,indexed-job-10-5z42v,32,indexed-job,3
8033,10.0,ContainersReady,indexed-job-10-5z42v,32,indexed-job,3
8034,0.0,PodScheduled,indexed-job-25-lhvpd,32,indexed-job,3
8035,0.0,Initialized,indexed-job-25-lhvpd,32,indexed-job,3
8036,12.0,Ready,indexed-job-25-lhvpd,32,indexed-job,3
8037,12.0,ContainersReady,indexed-job-25-lhvpd,32,indexed-job,3
8038,0.0,PodScheduled,indexed-job-24-pd66n,32,indexed-job,3
8039,0.0,Initialized,indexed-job-24-pd66n,32,indexed-job,3
8040,7.0,Ready,indexed-job-24-pd66n,32,indexed-job,3
8041,7.0,ContainersReady,indexed-job-24-pd66n,32,indexed-job,3
8042,0.0,PodScheduled,indexed-job-16-wpng4,32,indexed-job,3
8043,0.0,Initialized,indexed-job-16-wpng4,32,indexed-job,3
8044,9.0,Ready,indexed-job-16-wpng4,32,indexed-job,3
8045,9.0,ContainersReady,indexed-job-16-wpng4,32,indexed-job,3
8046,0.0,PodScheduled,indexed-job-28-5wjs6,32,indexed-job,3
8047,0.0,Initialized,indexed-job-28-5wjs6,32,indexed-job,3
8048,8.0,Ready,indexed-job-28-5wjs6,32,indexed-job,3
8049,8.0,ContainersReady,indexed-job-28-5wjs6,32,indexed-job,3
8050,0.0,PodScheduled,indexed-job-21-wqv6q,32,indexed-job,3
8051,0.0,Initialized,indexed-job-21-wqv6q,32,indexed-job,3
8052,15.0,Ready,indexed-job-21-wqv6q,32,indexed-job,3
8053,15.0,ContainersReady,indexed-job-21-wqv6q,32,indexed-job,3
8054,0.0,PodScheduled,indexed-job-30-jjpqx,32,indexed-job,3
8055,0.0,Initialized,indexed-job-30-jjpqx,32,indexed-job,3
8056,6.0,Ready,indexed-job-30-jjpqx,32,indexed-job,3
8057,6.0,ContainersReady,indexed-job-30-jjpqx,32,indexed-job,3
8058,0.0,PodScheduled,indexed-job-22-xh27m,32,indexed-job,3
8059,0.0,Initialized,indexed-job-22-xh27m,32,indexed-job,3
8060,11.0,Ready,indexed-job-22-xh27m,32,indexed-job,3
8061,11.0,ContainersReady,indexed-job-22-xh27m,32,indexed-job,3
8062,0.0,PodScheduled,indexed-job-26-ctwk6,32,indexed-job,3
8063,0.0,Initialized,indexed-job-26-ctwk6,32,indexed-job,3
8064,14.0,Ready,indexed-job-26-ctwk6,32,indexed-job,3
8065,14.0,ContainersReady,indexed-job-26-ctwk6,32,indexed-job,3
8066,0.0,PodScheduled,indexed-job-19-lqtp5,32,indexed-job,3
8067,0.0,Initialized,indexed-job-19-lqtp5,32,indexed-job,3
8068,5.0,Ready,indexed-job-19-lqtp5,32,indexed-job,3
8069,5.0,ContainersReady,indexed-job-19-lqtp5,32,indexed-job,3
8070,0.0,PodScheduled,indexed-job-15-l66ff,32,indexed-job,3
8071,0.0,Initialized,indexed-job-15-l66ff,32,indexed-job,3
8072,6.0,Ready,indexed-job-15-l66ff,32,indexed-job,3
8073,6.0,ContainersReady,indexed-job-15-l66ff,32,indexed-job,3
8074,0.0,PodScheduled,indexed-job-23-r2n2n,32,indexed-job,3
8075,0.0,Initialized,indexed-job-23-r2n2n,32,indexed-job,3
8076,15.0,Ready,indexed-job-23-r2n2n,32,indexed-job,3
8077,15.0,ContainersReady,indexed-job-23-r2n2n,32,indexed-job,3
8078,0.0,PodScheduled,indexed-job-29-l7zl4,32,indexed-job,3
8079,0.0,Initialized,indexed-job-29-l7zl4,32,indexed-job,3
8080,11.0,Ready,indexed-job-29-l7zl4,32,indexed-job,3
8081,11.0,ContainersReady,indexed-job-29-l7zl4,32,indexed-job,3
8082,0.0,PodScheduled,indexed-job-27-gv4lg,32,indexed-job,3
8083,0.0,Initialized,indexed-job-27-gv4lg,32,indexed-job,3
8084,13.0,Ready,indexed-job-27-gv4lg,32,indexed-job,3
8085,13.0,ContainersReady,indexed-job-27-gv4lg,32,indexed-job,3
8086,0.0,PodScheduled,indexed-job-17-r8vg2,32,indexed-job,3
8087,0.0,Initialized,indexed-job-17-r8vg2,32,indexed-job,3
8088,14.0,Ready,indexed-job-17-r8vg2,32,indexed-job,3
8089,14.0,ContainersReady,indexed-job-17-r8vg2,32,indexed-job,3
8090,0.0,PodScheduled,indexed-job-18-v2n7j,32,indexed-job,3
8091,0.0,Initialized,indexed-job-18-v2n7j,32,indexed-job,3
8092,17.0,Ready,indexed-job-18-v2n7j,32,indexed-job,3
8093,17.0,ContainersReady,indexed-job-18-v2n7j,32,indexed-job,3
8094,0.0,PodScheduled,indexed-job-20-cldtw,32,indexed-job,3
8095,0.0,Initialized,indexed-job-20-cldtw,32,indexed-job,3
8096,16.0,Ready,indexed-job-20-cldtw,32,indexed-job,3
8097,16.0,ContainersReady,indexed-job-20-cldtw,32,indexed-job,3
8098,0.0,PodScheduled,indexed-job-31-775hh,32,indexed-job,3
8099,0.0,Initialized,indexed-job-31-775hh,32,indexed-job,3
8100,16.0,Ready,indexed-job-31-775hh,32,indexed-job,3
8101,16.0,ContainersReady,indexed-job-31-775hh,32,indexed-job,3
8102,18.039,watch_create,all,32,pods,19
8103,34.216,watch_delete,all,32,pods,19
8104,0.0,PodScheduled,pod-0,32,pods,19
8105,0.0,Initialized,pod-0,32,pods,19
8106,2.0,Ready,pod-0,32,pods,19
8107,2.0,ContainersReady,pod-0,32,pods,19
8108,0.0,PodScheduled,pod-1,32,pods,19
8109,0.0,Initialized,pod-1,32,pods,19
8110,2.0,Ready,pod-1,32,pods,19
8111,2.0,ContainersReady,pod-1,32,pods,19
8112,0.0,PodScheduled,pod-2,32,pods,19
8113,0.0,Initialized,pod-2,32,pods,19
8114,3.0,Ready,pod-2,32,pods,19
8115,3.0,ContainersReady,pod-2,32,pods,19
8116,0.0,PodScheduled,pod-3,32,pods,19
8117,0.0,Initialized,pod-3,32,pods,19
8118,3.0,Ready,pod-3,32,pods,19
8119,3.0,ContainersReady,pod-3,32,pods,19
8120,0.0,PodScheduled,pod-4,32,pods,19
8121,0.0,Initialized,pod-4,32,pods,19
8122,7.0,Ready,pod-4,32,pods,19
8123,7.0,ContainersReady,pod-4,32,pods,19
8124,0.0,PodScheduled,pod-5,32,pods,19
8125,0.0,Initialized,pod-5,32,pods,19
8126,3.0,Ready,pod-5,32,pods,19
8127,3.0,ContainersReady,pod-5,32,pods,19
8128,0.0,PodScheduled,pod-6,32,pods,19
8129,0.0,Initialized,pod-6,32,pods,19
8130,5.0,Ready,pod-6,32,pods,19
8131,5.0,ContainersReady,pod-6,32,pods,19
8132,0.0,PodScheduled,pod-7,32,pods,19
8133,0.0,Initialized,pod-7,32,pods,19
8134,5.0,Ready,pod-7,32,pods,19
8135,5.0,ContainersReady,pod-7,32,pods,19
8136,0.0,PodScheduled,pod-8,32,pods,19
8137,0.0,Initialized,pod-8,32,pods,19
8138,6.0,Ready,pod-8,32,pods,19
8139,6.0,ContainersReady,pod-8,32,pods,19
8140,0.0,PodScheduled,pod-9,32,pods,19
8141,0.0,Initialized,pod-9,32,pods,19
8142,4.0,Ready,pod-9,32,pods,19
8143,4.0,ContainersReady,pod-9,32,pods,19
8144,0.0,PodScheduled,pod-10,32,pods,19
8145,0.0,Initialized,pod-10,32,pods,19
8146,8.0,Ready,pod-10,32,pods,19
8147,8.0,ContainersReady,pod-10,32,pods,19
8148,0.0,PodScheduled,pod-11,32,pods,19
8149,1.0,Initialized,pod-11,32,pods,19
8150,7.0,Ready,pod-11,32,pods,19
8151,7.0,ContainersReady,pod-11,32,pods,19
8152,1.0,PodScheduled,pod-12,32,pods,19
8153,1.0,Initialized,pod-12,32,pods,19
8154,8.0,Ready,pod-12,32,pods,19
8155,8.0,ContainersReady,pod-12,32,pods,19
8156,0.0,PodScheduled,pod-13,32,pods,19
8157,0.0,Initialized,pod-13,32,pods,19
8158,8.0,Ready,pod-13,32,pods,19
8159,8.0,ContainersReady,pod-13,32,pods,19
8160,0.0,PodScheduled,pod-14,32,pods,19
8161,0.0,Initialized,pod-14,32,pods,19
8162,8.0,Ready,pod-14,32,pods,19
8163,8.0,ContainersReady,pod-14,32,pods,19
8164,0.0,PodScheduled,pod-15,32,pods,19
8165,0.0,Initialized,pod-15,32,pods,19
8166,9.0,Ready,pod-15,32,pods,19
8167,9.0,ContainersReady,pod-15,32,pods,19
8168,0.0,PodScheduled,pod-16,32,pods,19
8169,0.0,Initialized,pod-16,32,pods,19
8170,10.0,Ready,pod-16,32,pods,19
8171,10.0,ContainersReady,pod-16,32,pods,19
8172,0.0,PodScheduled,pod-17,32,pods,19
8173,0.0,Initialized,pod-17,32,pods,19
8174,9.0,Ready,pod-17,32,pods,19
8175,9.0,ContainersReady,pod-17,32,pods,19
8176,0.0,PodScheduled,pod-18,32,pods,19
8177,0.0,Initialized,pod-18,32,pods,19
8178,10.0,Ready,pod-18,32,pods,19
8179,10.0,ContainersReady,pod-18,32,pods,19
8180,0.0,PodScheduled,pod-19,32,pods,19
8181,0.0,Initialized,pod-19,32,pods,19
8182,12.0,Ready,pod-19,32,pods,19
8183,12.0,ContainersReady,pod-19,32,pods,19
8184,0.0,PodScheduled,pod-20,32,pods,19
8185,0.0,Initialized,pod-20,32,pods,19
8186,11.0,Ready,pod-20,32,pods,19
8187,11.0,ContainersReady,pod-20,32,pods,19
8188,0.0,PodScheduled,pod-21,32,pods,19
8189,0.0,Initialized,pod-21,32,pods,19
8190,12.0,Ready,pod-21,32,pods,19
8191,12.0,ContainersReady,pod-21,32,pods,19
8192,0.0,PodScheduled,pod-22,32,pods,19
8193,0.0,Initialized,pod-22,32,pods,19
8194,13.0,Ready,pod-22,32,pods,19
8195,13.0,ContainersReady,pod-22,32,pods,19
8196,0.0,PodScheduled,pod-23,32,pods,19
8197,0.0,Initialized,pod-23,32,pods,19
8198,16.0,Ready,pod-23,32,pods,19
8199,16.0,ContainersReady,pod-23,32,pods,19
8200,0.0,PodScheduled,pod-24,32,pods,19
8201,0.0,Initialized,pod-24,32,pods,19
8202,11.0,Ready,pod-24,32,pods,19
8203,11.0,ContainersReady,pod-24,32,pods,19
8204,0.0,PodScheduled,pod-25,32,pods,19
8205,0.0,Initialized,pod-25,32,pods,19
8206,15.0,Ready,pod-25,32,pods,19
8207,15.0,ContainersReady,pod-25,32,pods,19
8208,0.0,PodScheduled,pod-26,32,pods,19
8209,0.0,Initialized,pod-26,32,pods,19
8210,14.0,Ready,pod-26,32,pods,19
8211,14.0,ContainersReady,pod-26,32,pods,19
8212,0.0,PodScheduled,pod-27,32,pods,19
8213,0.0,Initialized,pod-27,32,pods,19
8214,14.0,Ready,pod-27,32,pods,19
8215,14.0,ContainersReady,pod-27,32,pods,19
8216,0.0,PodScheduled,pod-28,32,pods,19
8217,0.0,Initialized,pod-28,32,pods,19
8218,16.0,Ready,pod-28,32,pods,19
8219,16.0,ContainersReady,pod-28,32,pods,19
8220,0.0,PodScheduled,pod-29,32,pods,19
8221,0.0,Initialized,pod-29,32,pods,19
8222,17.0,Ready,pod-29,32,pods,19
8223,17.0,ContainersReady,pod-29,32,pods,19
8224,0.0,PodScheduled,pod-30,32,pods,19
8225,0.0,Initialized,pod-30,32,pods,19
8226,13.0,Ready,pod-30,32,pods,19
8227,13.0,ContainersReady,pod-30,32,pods,19
8228,0.0,PodScheduled,pod-31,32,pods,19
8229,0.0,Initialized,pod-31,32,pods,19
8230,15.0,Ready,pod-31,32,pods,19
8231,15.0,ContainersReady,pod-31,32,pods,19
8232,37.491,watch_create,all,64,pods,10
8233,35.136,watch_delete,all,64,pods,10
8234,1.0,PodScheduled,pod-0,64,pods,10
8235,1.0,Initialized,pod-0,64,pods,10
8236,3.0,Ready,pod-0,64,pods,10
8237,3.0,ContainersReady,pod-0,64,pods,10
8238,0.0,PodScheduled,pod-1,64,pods,10
8239,0.0,Initialized,pod-1,64,pods,10
8240,2.0,Ready,pod-1,64,pods,10
8241,2.0,ContainersReady,pod-1,64,pods,10
8242,0.0,PodScheduled,pod-2,64,pods,10
8243,0.0,Initialized,pod-2,64,pods,10
8244,3.0,Ready,pod-2,64,pods,10
8245,3.0,ContainersReady,pod-2,64,pods,10
8246,0.0,PodScheduled,pod-3,64,pods,10
8247,0.0,Initialized,pod-3,64,pods,10
8248,3.0,Ready,pod-3,64,pods,10
8249,3.0,ContainersReady,pod-3,64,pods,10
8250,0.0,PodScheduled,pod-4,64,pods,10
8251,0.0,Initialized,pod-4,64,pods,10
8252,4.0,Ready,pod-4,64,pods,10
8253,4.0,ContainersReady,pod-4,64,pods,10
8254,0.0,PodScheduled,pod-5,64,pods,10
8255,0.0,Initialized,pod-5,64,pods,10
8256,5.0,Ready,pod-5,64,pods,10
8257,5.0,ContainersReady,pod-5,64,pods,10
8258,0.0,PodScheduled,pod-6,64,pods,10
8259,0.0,Initialized,pod-6,64,pods,10
8260,4.0,Ready,pod-6,64,pods,10
8261,4.0,ContainersReady,pod-6,64,pods,10
8262,0.0,PodScheduled,pod-7,64,pods,10
8263,0.0,Initialized,pod-7,64,pods,10
8264,5.0,Ready,pod-7,64,pods,10
8265,5.0,ContainersReady,pod-7,64,pods,10
8266,0.0,PodScheduled,pod-8,64,pods,10
8267,0.0,Initialized,pod-8,64,pods,10
8268,17.0,Ready,pod-8,64,pods,10
8269,17.0,ContainersReady,pod-8,64,pods,10
8270,0.0,PodScheduled,pod-9,64,pods,10
8271,0.0,Initialized,pod-9,64,pods,10
8272,16.0,Ready,pod-9,64,pods,10
8273,16.0,ContainersReady,pod-9,64,pods,10
8274,0.0,PodScheduled,pod-10,64,pods,10
8275,0.0,Initialized,pod-10,64,pods,10
8276,11.0,Ready,pod-10,64,pods,10
8277,11.0,ContainersReady,pod-10,64,pods,10
8278,0.0,PodScheduled,pod-11,64,pods,10
8279,0.0,Initialized,pod-11,64,pods,10
8280,6.0,Ready,pod-11,64,pods,10
8281,6.0,ContainersReady,pod-11,64,pods,10
8282,0.0,PodScheduled,pod-12,64,pods,10
8283,0.0,Initialized,pod-12,64,pods,10
8284,6.0,Ready,pod-12,64,pods,10
8285,6.0,ContainersReady,pod-12,64,pods,10
8286,0.0,PodScheduled,pod-13,64,pods,10
8287,0.0,Initialized,pod-13,64,pods,10
8288,7.0,Ready,pod-13,64,pods,10
8289,7.0,ContainersReady,pod-13,64,pods,10
8290,0.0,PodScheduled,pod-14,64,pods,10
8291,0.0,Initialized,pod-14,64,pods,10
8292,12.0,Ready,pod-14,64,pods,10
8293,12.0,ContainersReady,pod-14,64,pods,10
8294,0.0,PodScheduled,pod-15,64,pods,10
8295,0.0,Initialized,pod-15,64,pods,10
8296,12.0,Ready,pod-15,64,pods,10
8297,12.0,ContainersReady,pod-15,64,pods,10
8298,0.0,PodSch